"Freq [GHz]","IWavePhi [deg]","IWaveTheta [deg]","Phi [deg]","Theta [deg]","re(rEPhi) [mV]","im(rEPhi) [mV]","re(rETheta) [mV]","im(rETheta) [mV]"
1.0676,180,90,0,90,26.1430530846867,79.9089536999963,-0.060308562611456,-0.0901167750897659
"Freq [GHz]","IWavePhi [deg]","IWaveTheta [deg]","Phi [deg]","Theta [deg]","re(rEPhi) [mV]","im(rEPhi) [mV]","re(rETheta) [mV]","im(rETheta) [mV]"
1.0676,180,90,180,90,-25.9635147073329,-79.719488791474,-0.0217943835064955,-0.030077568535123
"Freq [GHz]","IWavePhi [deg]","IWaveTheta [deg]","Phi [deg]","Theta [deg]","re(rEPhi) [mV]","im(rEPhi) [mV]","re(rETheta) [mV]","im(rETheta) [mV]"
1.0676,180,90,90,90,0.0026246727853521,-0.059188202778163,-0.0573210851340599,-0.00429966433537765
"Freq [GHz]","IWavePhi [deg]","IWaveTheta [deg]","Phi [deg]","Theta [deg]","re(rEPhi) [mV]","im(rEPhi) [mV]","re(rETheta) [mV]","im(rETheta) [mV]"
1.0676,180,90,-90,90,-0.100842307487867,0.00165405230505998,-0.0383069392917992,0.00891666340871846
"Freq [GHz]","IWavePhi [deg]","IWaveTheta [deg]","Phi [deg]","Theta [deg]","re(rEPhi) [mV]","im(rEPhi) [mV]","re(rETheta) [mV]","im(rETheta) [mV]"
1.0676,180,90,0,0,20.446527905559,66.5247273838689,-0.159368113298994,0.106948790987619
"Freq [GHz]","IWavePhi [deg]","IWaveTheta [deg]","Phi [deg]","Theta [deg]","re(rEPhi) [mV]","im(rEPhi) [mV]","re(rETheta) [mV]","im(rETheta) [mV]"
1.0676,180,90,0,180,20.6247915711609,66.5424845183523,0.117495701025713,-0.176169150184909
"Freq [GHz]","IWavePhi [deg]","IWaveTheta [deg]","Phi [deg]","Theta [deg]","re(rEPhi) [mV]","im(rEPhi) [mV]","re(rETheta) [mV]","im(rETheta) [mV]"
1.0676,180,90,45,54.736,15.2755204152823,47.8333314363488,8.62147064318675,27.403832265946
"Freq [GHz]","IWavePhi [deg]","IWaveTheta [deg]","Phi [deg]","Theta [deg]","re(rEPhi) [mV]","im(rEPhi) [mV]","re(rETheta) [mV]","im(rETheta) [mV]"
1.0676,180,90,135,54.736,-15.4874605241541,-47.7745349145444,8.56035960996908,27.3424880786799
"Freq [GHz]","IWavePhi [deg]","IWaveTheta [deg]","Phi [deg]","Theta [deg]","re(rEPhi) [mV]","im(rEPhi) [mV]","re(rETheta) [mV]","im(rETheta) [mV]"
1.0676,180,90,-45,54.736,15.3417525432502,47.8771209190984,-8.54107197665436,-27.467138551449
"Freq [GHz]","IWavePhi [deg]","IWaveTheta [deg]","Phi [deg]","Theta [deg]","re(rEPhi) [mV]","im(rEPhi) [mV]","re(rETheta) [mV]","im(rETheta) [mV]"
1.0676,180,90,45,125.264,15.4932738085001,47.8161493194473,-8.75739916558658,-27.5281742414944
"Freq [GHz]","IWavePhi [deg]","IWaveTheta [deg]","Phi [deg]","Theta [deg]","re(rEPhi) [mV]","im(rEPhi) [mV]","re(rETheta) [mV]","im(rETheta) [mV]"
1.0676,180,90,-135,54.736,-15.4274836653526,-47.7984970358953,-8.59928010157789,-27.3624581233901
"Freq [GHz]","IWavePhi [deg]","IWaveTheta [deg]","Phi [deg]","Theta [deg]","re(rEPhi) [mV]","im(rEPhi) [mV]","re(rETheta) [mV]","im(rETheta) [mV]"
1.0676,180,90,-45,125.264,15.4864318859086,47.7287682515175,8.66613361499776,27.4128715607818
"Freq [GHz]","IWavePhi [deg]","IWaveTheta [deg]","Phi [deg]","Theta [deg]","re(rEPhi) [mV]","im(rEPhi) [mV]","re(rETheta) [mV]","im(rETheta) [mV]"
1.0676,180,90,135,125.264,-15.4078432695825,-47.910948245116,-8.70837199885355,-27.5438691074247
"Freq [GHz]","IWavePhi [deg]","IWaveTheta [deg]","Phi [deg]","Theta [deg]","re(rEPhi) [mV]","im(rEPhi) [mV]","re(rETheta) [mV]","im(rETheta) [mV]"
1.0676,180,90,-135,125.264,-15.445629467728,-47.9877137711461,8.63035823422123,27.3777772458661
"Freq [GHz]","IWavePhi [deg]","IWaveTheta [deg]","Phi [deg]","Theta [deg]","re(rEPhi) [mV]","im(rEPhi) [mV]","re(rETheta) [mV]","im(rETheta) [mV]"
1.0676,360,90,0,90,-26.1430530846867,-79.9089536999963,0.0603085626129457,0.0901167750951877
"Freq [GHz]","IWavePhi [deg]","IWaveTheta [deg]","Phi [deg]","Theta [deg]","re(rEPhi) [mV]","im(rEPhi) [mV]","re(rETheta) [mV]","im(rETheta) [mV]"
1.0676,360,90,180,90,25.9635147073329,79.719488791474,0.0217943835079254,0.0300775685295817
"Freq [GHz]","IWavePhi [deg]","IWaveTheta [deg]","Phi [deg]","Theta [deg]","re(rEPhi) [mV]","im(rEPhi) [mV]","re(rETheta) [mV]","im(rETheta) [mV]"
1.0676,360,90,90,90,-0.00262467278537912,0.0591882027790174,0.0573210851397164,0.00429966433656375
"Freq [GHz]","IWavePhi [deg]","IWaveTheta [deg]","Phi [deg]","Theta [deg]","re(rEPhi) [mV]","im(rEPhi) [mV]","re(rETheta) [mV]","im(rETheta) [mV]"
1.0676,360,90,-90,90,0.100842307485714,-0.00165405230545071,0.0383069392972251,-0.00891666340995803
"Freq [GHz]","IWavePhi [deg]","IWaveTheta [deg]","Phi [deg]","Theta [deg]","re(rEPhi) [mV]","im(rEPhi) [mV]","re(rETheta) [mV]","im(rETheta) [mV]"
1.0676,360,90,0,0,-20.446527905559,-66.5247273838689,0.159368113297259,-0.106948790987807
"Freq [GHz]","IWavePhi [deg]","IWaveTheta [deg]","Phi [deg]","Theta [deg]","re(rEPhi) [mV]","im(rEPhi) [mV]","re(rETheta) [mV]","im(rETheta) [mV]"
1.0676,360,90,0,180,-20.6247915711609,-66.5424845183523,-0.117495701025396,0.1761691501858
"Freq [GHz]","IWavePhi [deg]","IWaveTheta [deg]","Phi [deg]","Theta [deg]","re(rEPhi) [mV]","im(rEPhi) [mV]","re(rETheta) [mV]","im(rETheta) [mV]"
1.0676,360,90,45,54.736,-15.2755204152821,-47.8333314363473,-8.62147064318734,-27.4038322659424
"Freq [GHz]","IWavePhi [deg]","IWaveTheta [deg]","Phi [deg]","Theta [deg]","re(rEPhi) [mV]","im(rEPhi) [mV]","re(rETheta) [mV]","im(rETheta) [mV]"
1.0676,360,90,135,54.736,15.4874605241545,47.7745349145448,-8.56035960996569,-27.3424880786832
"Freq [GHz]","IWavePhi [deg]","IWaveTheta [deg]","Phi [deg]","Theta [deg]","re(rEPhi) [mV]","im(rEPhi) [mV]","re(rETheta) [mV]","im(rETheta) [mV]"
1.0676,360,90,-45,54.736,-15.3417525432516,-47.8771209190982,8.54107197665769,27.4671385514511
"Freq [GHz]","IWavePhi [deg]","IWaveTheta [deg]","Phi [deg]","Theta [deg]","re(rEPhi) [mV]","im(rEPhi) [mV]","re(rETheta) [mV]","im(rETheta) [mV]"
1.0676,360,90,45,125.264,-15.4932738085014,-47.8161493194467,8.75739916558386,27.5281742414988
"Freq [GHz]","IWavePhi [deg]","IWaveTheta [deg]","Phi [deg]","Theta [deg]","re(rEPhi) [mV]","im(rEPhi) [mV]","re(rETheta) [mV]","im(rETheta) [mV]"
1.0676,360,90,-135,54.736,15.4274836653521,47.798497035896,8.59928010157601,27.3624581233855
"Freq [GHz]","IWavePhi [deg]","IWaveTheta [deg]","Phi [deg]","Theta [deg]","re(rEPhi) [mV]","im(rEPhi) [mV]","re(rETheta) [mV]","im(rETheta) [mV]"
1.0676,360,90,-45,125.264,-15.4864318859094,-47.728768251519,-8.66613361499423,-27.4128715607776
"Freq [GHz]","IWavePhi [deg]","IWaveTheta [deg]","Phi [deg]","Theta [deg]","re(rEPhi) [mV]","im(rEPhi) [mV]","re(rETheta) [mV]","im(rETheta) [mV]"
1.0676,360,90,135,125.264,15.4078432695825,47.9109482451152,8.70837199885779,27.5438691074233
"Freq [GHz]","IWavePhi [deg]","IWaveTheta [deg]","Phi [deg]","Theta [deg]","re(rEPhi) [mV]","im(rEPhi) [mV]","re(rETheta) [mV]","im(rETheta) [mV]"
1.0676,360,90,-135,125.264,15.4456294677283,47.9877137711461,-8.63035823422143,-27.3777772458707
"Freq [GHz]","IWavePhi [deg]","IWaveTheta [deg]","Phi [deg]","Theta [deg]","re(rEPhi) [mV]","im(rEPhi) [mV]","re(rETheta) [mV]","im(rETheta) [mV]"
1.0676,270,90,0,90,3.50917533791589e-15,1.04888416860997e-14,-2.81444597902567e-17,-1.26770859099825e-17
"Freq [GHz]","IWavePhi [deg]","IWaveTheta [deg]","Phi [deg]","Theta [deg]","re(rEPhi) [mV]","im(rEPhi) [mV]","re(rETheta) [mV]","im(rETheta) [mV]"
1.0676,270,90,180,90,-3.47495810082877e-15,-1.04713757276027e-14,-2.77395383100673e-17,-8.44993548076304e-18
"Freq [GHz]","IWavePhi [deg]","IWaveTheta [deg]","Phi [deg]","Theta [deg]","re(rEPhi) [mV]","im(rEPhi) [mV]","re(rETheta) [mV]","im(rETheta) [mV]"
1.0676,270,90,90,90,-7.85552906599429e-19,-5.34535459438667e-18,6.17735026948112e-18,1.04722421981972e-17
"Freq [GHz]","IWavePhi [deg]","IWaveTheta [deg]","Phi [deg]","Theta [deg]","re(rEPhi) [mV]","im(rEPhi) [mV]","re(rETheta) [mV]","im(rETheta) [mV]"
1.0676,270,90,-90,90,-1.19108179259374e-17,-6.17926443389895e-18,-2.58996825171986e-17,3.18602144245394e-18
"Freq [GHz]","IWavePhi [deg]","IWaveTheta [deg]","Phi [deg]","Theta [deg]","re(rEPhi) [mV]","im(rEPhi) [mV]","re(rETheta) [mV]","im(rETheta) [mV]"
1.0676,270,90,0,0,2.7452587276567e-15,8.71677424247783e-15,-2.03313975244666e-17,1.47201041432044e-17
"Freq [GHz]","IWavePhi [deg]","IWaveTheta [deg]","Phi [deg]","Theta [deg]","re(rEPhi) [mV]","im(rEPhi) [mV]","re(rETheta) [mV]","im(rETheta) [mV]"
1.0676,270,90,0,180,2.78528358912851e-15,8.70718115195441e-15,9.70342869857816e-18,-1.83634653101925e-17
"Freq [GHz]","IWavePhi [deg]","IWaveTheta [deg]","Phi [deg]","Theta [deg]","re(rEPhi) [mV]","im(rEPhi) [mV]","re(rETheta) [mV]","im(rETheta) [mV]"
1.0676,270,90,45,54.736,2.25673490397781e-18,6.41217226464106e-15,-5.59740514143008e-17,3.69266859142946e-15
"Freq [GHz]","IWavePhi [deg]","IWaveTheta [deg]","Phi [deg]","Theta [deg]","re(rEPhi) [mV]","im(rEPhi) [mV]","re(rETheta) [mV]","im(rETheta) [mV]"
1.0676,270,90,135,54.736,-8.55838772448449e-18,-6.39474581559331e-15,-7.88028005222182e-17,3.68447609491849e-15
"Freq [GHz]","IWavePhi [deg]","IWaveTheta [deg]","Phi [deg]","Theta [deg]","re(rEPhi) [mV]","im(rEPhi) [mV]","re(rETheta) [mV]","im(rETheta) [mV]"
1.0676,270,90,-45,54.736,3.91237294168196e-15,6.10136321950376e-15,-2.27155198708609e-15,-3.5026354876804e-15
"Freq [GHz]","IWavePhi [deg]","IWaveTheta [deg]","Phi [deg]","Theta [deg]","re(rEPhi) [mV]","im(rEPhi) [mV]","re(rETheta) [mV]","im(rETheta) [mV]"
1.0676,270,90,45,125.264,7.09973389247202e-18,6.40567165459252e-15,4.86846912770224e-17,-3.70131707949007e-15
"Freq [GHz]","IWavePhi [deg]","IWaveTheta [deg]","Phi [deg]","Theta [deg]","re(rEPhi) [mV]","im(rEPhi) [mV]","re(rETheta) [mV]","im(rETheta) [mV]"
1.0676,270,90,-135,54.736,-3.94285285514513e-15,-6.10701330631498e-15,-2.28106352391419e-15,-3.49511822706728e-15
"Freq [GHz]","IWavePhi [deg]","IWaveTheta [deg]","Phi [deg]","Theta [deg]","re(rEPhi) [mV]","im(rEPhi) [mV]","re(rETheta) [mV]","im(rETheta) [mV]"
1.0676,270,90,-45,125.264,3.94213907755449e-15,6.08567097186717e-15,2.24147455307839e-15,3.48548622759237e-15
"Freq [GHz]","IWavePhi [deg]","IWaveTheta [deg]","Phi [deg]","Theta [deg]","re(rEPhi) [mV]","im(rEPhi) [mV]","re(rETheta) [mV]","im(rETheta) [mV]"
1.0676,270,90,135,125.264,-2.60182641572007e-17,-6.44594305875422e-15,4.38039077269783e-17,-3.71789791138124e-15
"Freq [GHz]","IWavePhi [deg]","IWaveTheta [deg]","Phi [deg]","Theta [deg]","re(rEPhi) [mV]","im(rEPhi) [mV]","re(rETheta) [mV]","im(rETheta) [mV]"
1.0676,270,90,-135,125.264,-3.94352697712482e-15,-6.10217485018761e-15,2.24159578539754e-15,3.48054054355614e-15
"Freq [GHz]","IWavePhi [deg]","IWaveTheta [deg]","Phi [deg]","Theta [deg]","re(rEPhi) [mV]","im(rEPhi) [mV]","re(rETheta) [mV]","im(rETheta) [mV]"
1.0676,90,90,0,90,-1.1654709489027e-15,-3.50247793483098e-15,4.68745044569314e-18,3.57135940195901e-18
"Freq [GHz]","IWavePhi [deg]","IWaveTheta [deg]","Phi [deg]","Theta [deg]","re(rEPhi) [mV]","im(rEPhi) [mV]","re(rETheta) [mV]","im(rETheta) [mV]"
1.0676,90,90,180,90,1.16301202379445e-15,3.48959920705189e-15,4.30353452205753e-18,1.0479459522038e-18
"Freq [GHz]","IWavePhi [deg]","IWaveTheta [deg]","Phi [deg]","Theta [deg]","re(rEPhi) [mV]","im(rEPhi) [mV]","re(rETheta) [mV]","im(rETheta) [mV]"
1.0676,90,90,90,90,9.32913991450755e-19,2.89128916250242e-18,8.77846814995007e-18,2.12841255273763e-19
"Freq [GHz]","IWavePhi [deg]","IWaveTheta [deg]","Phi [deg]","Theta [deg]","re(rEPhi) [mV]","im(rEPhi) [mV]","re(rETheta) [mV]","im(rETheta) [mV]"
1.0676,90,90,-90,90,2.02255552809379e-18,-1.89196127934719e-19,-8.25064528531553e-19,-1.11024387434357e-18
"Freq [GHz]","IWavePhi [deg]","IWaveTheta [deg]","Phi [deg]","Theta [deg]","re(rEPhi) [mV]","im(rEPhi) [mV]","re(rETheta) [mV]","im(rETheta) [mV]"
1.0676,90,90,0,0,-9.18498325818477e-16,-2.9024777365953e-15,5.3556608276872e-18,-1.32768387430476e-18
"Freq [GHz]","IWavePhi [deg]","IWaveTheta [deg]","Phi [deg]","Theta [deg]","re(rEPhi) [mV]","im(rEPhi) [mV]","re(rETheta) [mV]","im(rETheta) [mV]"
1.0676,90,90,0,180,-9.17500273834688e-16,-2.90268054230879e-15,-5.24913903327459e-18,4.93394683839107e-18
"Freq [GHz]","IWavePhi [deg]","IWaveTheta [deg]","Phi [deg]","Theta [deg]","re(rEPhi) [mV]","im(rEPhi) [mV]","re(rETheta) [mV]","im(rETheta) [mV]"
1.0676,90,90,45,54.736,-1.31029686224415e-15,-2.03165695245161e-15,-7.50245466108711e-16,-1.16103362466723e-15
"Freq [GHz]","IWavePhi [deg]","IWaveTheta [deg]","Phi [deg]","Theta [deg]","re(rEPhi) [mV]","im(rEPhi) [mV]","re(rETheta) [mV]","im(rETheta) [mV]"
1.0676,90,90,135,54.736,1.31491042379922e-15,2.033221870844e-15,-7.48437250382371e-16,-1.15975140387726e-15
"Freq [GHz]","IWavePhi [deg]","IWaveTheta [deg]","Phi [deg]","Theta [deg]","re(rEPhi) [mV]","im(rEPhi) [mV]","re(rETheta) [mV]","im(rETheta) [mV]"
1.0676,90,90,-45,54.736,8.4424212228389e-18,-2.13997757875549e-15,-2.97066783726359e-17,1.2316445492005e-15
"Freq [GHz]","IWavePhi [deg]","IWaveTheta [deg]","Phi [deg]","Theta [deg]","re(rEPhi) [mV]","im(rEPhi) [mV]","re(rETheta) [mV]","im(rETheta) [mV]"
1.0676,90,90,45,125.264,-1.30840941292658e-15,-2.03136427680043e-15,7.61257621513092e-16,1.16596732213717e-15
"Freq [GHz]","IWavePhi [deg]","IWaveTheta [deg]","Phi [deg]","Theta [deg]","re(rEPhi) [mV]","im(rEPhi) [mV]","re(rETheta) [mV]","im(rETheta) [mV]"
1.0676,90,90,-135,54.736,7.85746886097099e-18,2.14503780986987e-15,-1.99294737455365e-17,1.23169229467662e-15
"Freq [GHz]","IWavePhi [deg]","IWaveTheta [deg]","Phi [deg]","Theta [deg]","re(rEPhi) [mV]","im(rEPhi) [mV]","re(rETheta) [mV]","im(rETheta) [mV]"
1.0676,90,90,-45,125.264,-3.664828897994e-18,-2.13848245398573e-15,2.12669706729423e-17,-1.23283701761337e-15
"Freq [GHz]","IWavePhi [deg]","IWaveTheta [deg]","Phi [deg]","Theta [deg]","re(rEPhi) [mV]","im(rEPhi) [mV]","re(rETheta) [mV]","im(rETheta) [mV]"
1.0676,90,90,135,125.264,1.31127694938708e-15,2.04374350448312e-15,7.60503885009373e-16,1.17128349523301e-15
"Freq [GHz]","IWavePhi [deg]","IWaveTheta [deg]","Phi [deg]","Theta [deg]","re(rEPhi) [mV]","im(rEPhi) [mV]","re(rETheta) [mV]","im(rETheta) [mV]"
1.0676,90,90,-135,125.264,-1.48408227908704e-18,2.1437635038336e-15,2.28639218469252e-17,-1.22783546377034e-15
"Freq [GHz]","IWavePhi [deg]","IWaveTheta [deg]","Phi [deg]","Theta [deg]","re(rEPhi) [mV]","im(rEPhi) [mV]","re(rETheta) [mV]","im(rETheta) [mV]"
1.0676,180,180,0,90,20.5199815891227,66.6377503441607,-0.0762569525016954,-0.0427245215053959
"Freq [GHz]","IWavePhi [deg]","IWaveTheta [deg]","Phi [deg]","Theta [deg]","re(rEPhi) [mV]","im(rEPhi) [mV]","re(rETheta) [mV]","im(rETheta) [mV]"
1.0676,180,180,180,90,-20.4778574850731,-66.5516519997327,0.0133830253659538,-0.0422266298385162
"Freq [GHz]","IWavePhi [deg]","IWaveTheta [deg]","Phi [deg]","Theta [deg]","re(rEPhi) [mV]","im(rEPhi) [mV]","re(rETheta) [mV]","im(rETheta) [mV]"
1.0676,180,180,90,90,-0.0108858000402877,-0.0278242599369252,17.853479760523,0.263139941398631
"Freq [GHz]","IWavePhi [deg]","IWaveTheta [deg]","Phi [deg]","Theta [deg]","re(rEPhi) [mV]","im(rEPhi) [mV]","re(rETheta) [mV]","im(rETheta) [mV]"
1.0676,180,180,-90,90,-0.0784275338181435,-0.0109589416177792,-17.939541982656,-0.295694751848806
"Freq [GHz]","IWavePhi [deg]","IWaveTheta [deg]","Phi [deg]","Theta [deg]","re(rEPhi) [mV]","im(rEPhi) [mV]","re(rETheta) [mV]","im(rETheta) [mV]"
1.0676,180,180,0,0,28.8005234508106,59.141664335404,-0.106016915031047,0.0656776285816893
"Freq [GHz]","IWavePhi [deg]","IWaveTheta [deg]","Phi [deg]","Theta [deg]","re(rEPhi) [mV]","im(rEPhi) [mV]","re(rETheta) [mV]","im(rETheta) [mV]"
1.0676,180,180,0,180,7.1174196119015,51.711978128389,0.0940727040788702,-0.132198305429517
"Freq [GHz]","IWavePhi [deg]","IWaveTheta [deg]","Phi [deg]","Theta [deg]","re(rEPhi) [mV]","im(rEPhi) [mV]","re(rETheta) [mV]","im(rETheta) [mV]"
1.0676,180,180,45,54.736,16.5901877568974,41.2475911203373,20.6374369350671,23.8560233268765
"Freq [GHz]","IWavePhi [deg]","IWaveTheta [deg]","Phi [deg]","Theta [deg]","re(rEPhi) [mV]","im(rEPhi) [mV]","re(rETheta) [mV]","im(rETheta) [mV]"
1.0676,180,180,135,54.736,-16.7195639165535,-41.2948005315365,20.5739743789941,23.8734798698784
"Freq [GHz]","IWavePhi [deg]","IWaveTheta [deg]","Phi [deg]","Theta [deg]","re(rEPhi) [mV]","im(rEPhi) [mV]","re(rETheta) [mV]","im(rETheta) [mV]"
1.0676,180,180,-45,54.736,16.5177508790575,41.2956884049253,-20.5123925856629,-23.9153175958975
"Freq [GHz]","IWavePhi [deg]","IWaveTheta [deg]","Phi [deg]","Theta [deg]","re(rEPhi) [mV]","im(rEPhi) [mV]","re(rETheta) [mV]","im(rETheta) [mV]"
1.0676,180,180,45,125.264,8.45821338787263,38.3808556137217,5.52494913060086,-21.8857520717173
"Freq [GHz]","IWavePhi [deg]","IWaveTheta [deg]","Phi [deg]","Theta [deg]","re(rEPhi) [mV]","im(rEPhi) [mV]","re(rETheta) [mV]","im(rETheta) [mV]"
1.0676,180,180,-135,54.736,-16.6837382663178,-41.2956125500462,-20.5878589342387,-23.8515674934797
"Freq [GHz]","IWavePhi [deg]","IWaveTheta [deg]","Phi [deg]","Theta [deg]","re(rEPhi) [mV]","im(rEPhi) [mV]","re(rETheta) [mV]","im(rETheta) [mV]"
1.0676,180,180,-45,125.264,8.45325219929478,38.3699935093719,-5.56317574651157,21.8355278862144
"Freq [GHz]","IWavePhi [deg]","IWaveTheta [deg]","Phi [deg]","Theta [deg]","re(rEPhi) [mV]","im(rEPhi) [mV]","re(rETheta) [mV]","im(rETheta) [mV]"
1.0676,180,180,135,125.264,-8.49885663060156,-38.5584520687243,5.47048190322055,-21.9313041009947
"Freq [GHz]","IWavePhi [deg]","IWaveTheta [deg]","Phi [deg]","Theta [deg]","re(rEPhi) [mV]","im(rEPhi) [mV]","re(rETheta) [mV]","im(rETheta) [mV]"
1.0676,180,180,-135,125.264,-8.48845352134245,-38.521157086703,-5.54502864786756,21.7747171812792
"Freq [GHz]","IWavePhi [deg]","IWaveTheta [deg]","Phi [deg]","Theta [deg]","re(rEPhi) [mV]","im(rEPhi) [mV]","re(rETheta) [mV]","im(rETheta) [mV]"
1.0676,180,0,0,90,20.5781011237355,66.4941663258303,-0.00523811104792018,-0.0267846710004536
"Freq [GHz]","IWavePhi [deg]","IWaveTheta [deg]","Phi [deg]","Theta [deg]","re(rEPhi) [mV]","im(rEPhi) [mV]","re(rETheta) [mV]","im(rETheta) [mV]"
1.0676,180,0,180,90,-20.5383034014711,-66.3877584584041,-0.0134740940141759,0.0755267002385647
"Freq [GHz]","IWavePhi [deg]","IWaveTheta [deg]","Phi [deg]","Theta [deg]","re(rEPhi) [mV]","im(rEPhi) [mV]","re(rETheta) [mV]","im(rETheta) [mV]"
1.0676,180,0,90,90,0.00023356545881477,-0.0483753639453796,-17.9659373251123,-0.238740049287637
"Freq [GHz]","IWavePhi [deg]","IWaveTheta [deg]","Phi [deg]","Theta [deg]","re(rEPhi) [mV]","im(rEPhi) [mV]","re(rETheta) [mV]","im(rETheta) [mV]"
1.0676,180,0,-90,90,-0.0798929901178651,-0.00845053541602201,17.9201332870638,0.329827934576923
"Freq [GHz]","IWavePhi [deg]","IWaveTheta [deg]","Phi [deg]","Theta [deg]","re(rEPhi) [mV]","im(rEPhi) [mV]","re(rETheta) [mV]","im(rETheta) [mV]"
1.0676,180,0,0,0,7.1082062573438,51.6710037143514,-0.131524259571262,0.0443250409683064
"Freq [GHz]","IWavePhi [deg]","IWaveTheta [deg]","Phi [deg]","Theta [deg]","re(rEPhi) [mV]","im(rEPhi) [mV]","re(rETheta) [mV]","im(rETheta) [mV]"
1.0676,180,0,0,180,28.8719627882164,59.1304240624703,0.0742126830187585,-0.108169560554414
"Freq [GHz]","IWavePhi [deg]","IWaveTheta [deg]","Phi [deg]","Theta [deg]","re(rEPhi) [mV]","im(rEPhi) [mV]","re(rETheta) [mV]","im(rETheta) [mV]"
1.0676,180,0,45,54.736,8.35963527087022,38.4820192335925,-5.57501488750665,21.8838539450215
"Freq [GHz]","IWavePhi [deg]","IWaveTheta [deg]","Phi [deg]","Theta [deg]","re(rEPhi) [mV]","im(rEPhi) [mV]","re(rETheta) [mV]","im(rETheta) [mV]"
1.0676,180,0,135,54.736,-8.51257810590897,-38.3614926805296,-5.60804772503972,21.7389717803537
"Freq [GHz]","IWavePhi [deg]","IWaveTheta [deg]","Phi [deg]","Theta [deg]","re(rEPhi) [mV]","im(rEPhi) [mV]","re(rETheta) [mV]","im(rETheta) [mV]"
1.0676,180,0,-45,54.736,8.36805353999353,38.4369725755288,5.67232883971656,-21.7912203159787
"Freq [GHz]","IWavePhi [deg]","IWaveTheta [deg]","Phi [deg]","Theta [deg]","re(rEPhi) [mV]","im(rEPhi) [mV]","re(rETheta) [mV]","im(rETheta) [mV]"
1.0676,180,0,45,125.264,16.6307797989253,41.2818447737488,-20.7009321323318,-23.9291319382618
"Freq [GHz]","IWavePhi [deg]","IWaveTheta [deg]","Phi [deg]","Theta [deg]","re(rEPhi) [mV]","im(rEPhi) [mV]","re(rETheta) [mV]","im(rETheta) [mV]"
1.0676,180,0,-135,54.736,-8.50375031911471,-38.4506897813814,5.62178300162148,-21.7620072189957
