"Freq [GHz]","IWavePhi [deg]","IWaveTheta [deg]","Phi [deg]","Theta [deg]","re(rEPhi) [mV]","im(rEPhi) [mV]","re(rETheta) [mV]","im(rETheta) [mV]"
0.9965,180,90,0,90,21.3095164107064,86.731225339472,0.0218755990037146,-0.0550547294126014
"Freq [GHz]","IWavePhi [deg]","IWaveTheta [deg]","Phi [deg]","Theta [deg]","re(rEPhi) [mV]","im(rEPhi) [mV]","re(rETheta) [mV]","im(rETheta) [mV]"
0.9965,180,90,180,90,-21.2775150536834,-86.5688200429315,-0.0225751781505255,-0.0589541224444845
"Freq [GHz]","IWavePhi [deg]","IWaveTheta [deg]","Phi [deg]","Theta [deg]","re(rEPhi) [mV]","im(rEPhi) [mV]","re(rETheta) [mV]","im(rETheta) [mV]"
0.9965,180,90,90,90,0.00936158316335911,-0.0665273253809007,-0.105084485404145,-0.0285174039824366
"Freq [GHz]","IWavePhi [deg]","IWaveTheta [deg]","Phi [deg]","Theta [deg]","re(rEPhi) [mV]","im(rEPhi) [mV]","re(rETheta) [mV]","im(rETheta) [mV]"
0.9965,180,90,-90,90,-0.0313492593219438,-0.0990006000344705,0.0332565635437804,0.0206537625740706
"Freq [GHz]","IWavePhi [deg]","IWaveTheta [deg]","Phi [deg]","Theta [deg]","re(rEPhi) [mV]","im(rEPhi) [mV]","re(rETheta) [mV]","im(rETheta) [mV]"
0.9965,180,90,0,0,17.3412522640004,73.6357267499986,-0.132042246021225,0.00187879809081841
"Freq [GHz]","IWavePhi [deg]","IWaveTheta [deg]","Phi [deg]","Theta [deg]","re(rEPhi) [mV]","im(rEPhi) [mV]","re(rETheta) [mV]","im(rETheta) [mV]"
0.9965,180,90,0,180,17.3507342458595,73.7705013094572,0.175888705362092,-0.0205613937583237
"Freq [GHz]","IWavePhi [deg]","IWaveTheta [deg]","Phi [deg]","Theta [deg]","re(rEPhi) [mV]","im(rEPhi) [mV]","re(rETheta) [mV]","im(rETheta) [mV]"
0.9965,180,90,45,54.736,13.065805719539,52.8623111911072,7.27926031075107,30.3112420733861
"Freq [GHz]","IWavePhi [deg]","IWaveTheta [deg]","Phi [deg]","Theta [deg]","re(rEPhi) [mV]","im(rEPhi) [mV]","re(rETheta) [mV]","im(rETheta) [mV]"
0.9965,180,90,135,54.736,-13.063590028216,-52.9413030218229,7.20603637055475,30.2685275567937
"Freq [GHz]","IWavePhi [deg]","IWaveTheta [deg]","Phi [deg]","Theta [deg]","re(rEPhi) [mV]","im(rEPhi) [mV]","re(rETheta) [mV]","im(rETheta) [mV]"
0.9965,180,90,-45,54.736,13.0581966483766,52.8123348061196,-7.24468997703012,-30.3010651153254
"Freq [GHz]","IWavePhi [deg]","IWaveTheta [deg]","Phi [deg]","Theta [deg]","re(rEPhi) [mV]","im(rEPhi) [mV]","re(rETheta) [mV]","im(rETheta) [mV]"
0.9965,180,90,45,125.264,13.0148822982765,52.9353304282163,-7.28918909224876,-30.4315764118407
"Freq [GHz]","IWavePhi [deg]","IWaveTheta [deg]","Phi [deg]","Theta [deg]","re(rEPhi) [mV]","im(rEPhi) [mV]","re(rETheta) [mV]","im(rETheta) [mV]"
0.9965,180,90,-135,54.736,-13.0868315389896,-52.8815360938832,-7.26595865050597,-30.2747281790195
"Freq [GHz]","IWavePhi [deg]","IWaveTheta [deg]","Phi [deg]","Theta [deg]","re(rEPhi) [mV]","im(rEPhi) [mV]","re(rETheta) [mV]","im(rETheta) [mV]"
0.9965,180,90,-45,125.264,13.0760532526818,52.8096472668354,7.30537120573389,30.3228823883193
"Freq [GHz]","IWavePhi [deg]","IWaveTheta [deg]","Phi [deg]","Theta [deg]","re(rEPhi) [mV]","im(rEPhi) [mV]","re(rETheta) [mV]","im(rETheta) [mV]"
0.9965,180,90,135,125.264,-13.0240590368731,-52.9592152618339,-7.31663272622946,-30.4148393640209
"Freq [GHz]","IWavePhi [deg]","IWaveTheta [deg]","Phi [deg]","Theta [deg]","re(rEPhi) [mV]","im(rEPhi) [mV]","re(rETheta) [mV]","im(rETheta) [mV]"
0.9965,180,90,-135,125.264,-13.0778675196981,-52.9157452412073,7.3548062575396,30.2784211581544
"Freq [GHz]","IWavePhi [deg]","IWaveTheta [deg]","Phi [deg]","Theta [deg]","re(rEPhi) [mV]","im(rEPhi) [mV]","re(rETheta) [mV]","im(rETheta) [mV]"
0.9965,180,90,62.632,90,7.95815876955427,31.5175040265893,-0.0555193933681474,-0.0470703645884378
"Freq [GHz]","IWavePhi [deg]","IWaveTheta [deg]","Phi [deg]","Theta [deg]","re(rEPhi) [mV]","im(rEPhi) [mV]","re(rETheta) [mV]","im(rETheta) [mV]"
0.9965,180,90,117.368,90,-7.96503974198255,-31.5987609698485,-0.111735625848353,0.00957555339920626
"Freq [GHz]","IWavePhi [deg]","IWaveTheta [deg]","Phi [deg]","Theta [deg]","re(rEPhi) [mV]","im(rEPhi) [mV]","re(rETheta) [mV]","im(rETheta) [mV]"
0.9965,180,90,-62.632,90,8.04515264401646,31.8071396885738,0.0150657509186215,0.000610000803605559
"Freq [GHz]","IWavePhi [deg]","IWaveTheta [deg]","Phi [deg]","Theta [deg]","re(rEPhi) [mV]","im(rEPhi) [mV]","re(rETheta) [mV]","im(rETheta) [mV]"
0.9965,180,90,-117.368,90,-8.13205851059998,-31.8180377751713,0.0796354081288818,0.0594622646732084
"Freq [GHz]","IWavePhi [deg]","IWaveTheta [deg]","Phi [deg]","Theta [deg]","re(rEPhi) [mV]","im(rEPhi) [mV]","re(rETheta) [mV]","im(rETheta) [mV]"
0.9965,180,90,27.368,90,18.0019927342423,72.4835881028521,-0.0907939101995534,0.0213577460010786
"Freq [GHz]","IWavePhi [deg]","IWaveTheta [deg]","Phi [deg]","Theta [deg]","re(rEPhi) [mV]","im(rEPhi) [mV]","re(rETheta) [mV]","im(rETheta) [mV]"
0.9965,180,90,152.632,90,-17.7569851932961,-72.5807242325668,-0.0252452625977906,-0.0468013753345286
"Freq [GHz]","IWavePhi [deg]","IWaveTheta [deg]","Phi [deg]","Theta [deg]","re(rEPhi) [mV]","im(rEPhi) [mV]","re(rETheta) [mV]","im(rETheta) [mV]"
0.9965,180,90,-27.368,90,17.8166354247012,72.5039744893502,0.0366383924856041,0.00466158234911632
"Freq [GHz]","IWavePhi [deg]","IWaveTheta [deg]","Phi [deg]","Theta [deg]","re(rEPhi) [mV]","im(rEPhi) [mV]","re(rETheta) [mV]","im(rETheta) [mV]"
0.9965,180,90,-152.632,90,-18.0598046581729,-72.4298083293377,-0.0466398368900632,-0.0607356202554783
"Freq [GHz]","IWavePhi [deg]","IWaveTheta [deg]","Phi [deg]","Theta [deg]","re(rEPhi) [mV]","im(rEPhi) [mV]","re(rETheta) [mV]","im(rETheta) [mV]"
0.9965,180,90,0,27.368,18.2685916755921,76.2459853607728,0.0360036037942597,-0.078957582962502
"Freq [GHz]","IWavePhi [deg]","IWaveTheta [deg]","Phi [deg]","Theta [deg]","re(rEPhi) [mV]","im(rEPhi) [mV]","re(rETheta) [mV]","im(rETheta) [mV]"
0.9965,180,90,180,27.368,-18.505571976264,-76.3151888586579,-0.107064894006512,0.0580387875538877
"Freq [GHz]","IWavePhi [deg]","IWaveTheta [deg]","Phi [deg]","Theta [deg]","re(rEPhi) [mV]","im(rEPhi) [mV]","re(rETheta) [mV]","im(rETheta) [mV]"
0.9965,180,90,0,152.632,18.4309310986778,76.3430535005477,-0.0966611841116014,-0.0423552773263214
"Freq [GHz]","IWavePhi [deg]","IWaveTheta [deg]","Phi [deg]","Theta [deg]","re(rEPhi) [mV]","im(rEPhi) [mV]","re(rETheta) [mV]","im(rETheta) [mV]"
0.9965,180,90,180,152.632,-18.2291099491921,-76.4791656541612,0.0658814487967468,-0.014354236979527
"Freq [GHz]","IWavePhi [deg]","IWaveTheta [deg]","Phi [deg]","Theta [deg]","re(rEPhi) [mV]","im(rEPhi) [mV]","re(rETheta) [mV]","im(rETheta) [mV]"
0.9965,180,90,0,62.632,20.6630675862728,83.6317747463316,0.00694841800318055,0.0302134239186087
"Freq [GHz]","IWavePhi [deg]","IWaveTheta [deg]","Phi [deg]","Theta [deg]","re(rEPhi) [mV]","im(rEPhi) [mV]","re(rETheta) [mV]","im(rETheta) [mV]"
0.9965,180,90,180,62.632,-20.5415435885041,-83.73388081058,-0.0203226576524849,-0.0330564241900369
"Freq [GHz]","IWavePhi [deg]","IWaveTheta [deg]","Phi [deg]","Theta [deg]","re(rEPhi) [mV]","im(rEPhi) [mV]","re(rETheta) [mV]","im(rETheta) [mV]"
0.9965,180,90,0,117.368,20.5229536303657,83.8104607552356,-0.0113421812529296,-0.0439897127889145
"Freq [GHz]","IWavePhi [deg]","IWaveTheta [deg]","Phi [deg]","Theta [deg]","re(rEPhi) [mV]","im(rEPhi) [mV]","re(rETheta) [mV]","im(rETheta) [mV]"
0.9965,180,90,180,117.368,-20.6895720090253,-83.8645975990361,-0.00831355591086962,-0.0786453474398684
"Freq [GHz]","IWavePhi [deg]","IWaveTheta [deg]","Phi [deg]","Theta [deg]","re(rEPhi) [mV]","im(rEPhi) [mV]","re(rETheta) [mV]","im(rETheta) [mV]"
0.9965,180,90,90,27.368,-0.0790469599606076,-0.0117076026618698,15.3037057072517,63.6593629078564
"Freq [GHz]","IWavePhi [deg]","IWaveTheta [deg]","Phi [deg]","Theta [deg]","re(rEPhi) [mV]","im(rEPhi) [mV]","re(rETheta) [mV]","im(rETheta) [mV]"
0.9965,180,90,-90,27.368,0.0968701049906113,0.0175915882213085,-15.2512529170561,-63.6723248319662
"Freq [GHz]","IWavePhi [deg]","IWaveTheta [deg]","Phi [deg]","Theta [deg]","re(rEPhi) [mV]","im(rEPhi) [mV]","re(rETheta) [mV]","im(rETheta) [mV]"
0.9965,180,90,90,152.632,-0.107777738197739,0.0400323164168232,-15.2290077107929,-63.9104628011931
"Freq [GHz]","IWavePhi [deg]","IWaveTheta [deg]","Phi [deg]","Theta [deg]","re(rEPhi) [mV]","im(rEPhi) [mV]","re(rETheta) [mV]","im(rETheta) [mV]"
0.9965,180,90,-90,152.632,0.124973249147558,-0.000451377170203523,15.3199133851572,63.7459819029721
"Freq [GHz]","IWavePhi [deg]","IWaveTheta [deg]","Phi [deg]","Theta [deg]","re(rEPhi) [mV]","im(rEPhi) [mV]","re(rETheta) [mV]","im(rETheta) [mV]"
0.9965,180,90,90,62.632,0.0548824460287761,-0.0684295615593224,7.30932238210991,30.3924369152869
"Freq [GHz]","IWavePhi [deg]","IWaveTheta [deg]","Phi [deg]","Theta [deg]","re(rEPhi) [mV]","im(rEPhi) [mV]","re(rETheta) [mV]","im(rETheta) [mV]"
0.9965,180,90,-90,62.632,0.0329293955273197,0.0101227957928724,-7.40538612330853,-30.5613068465303
"Freq [GHz]","IWavePhi [deg]","IWaveTheta [deg]","Phi [deg]","Theta [deg]","re(rEPhi) [mV]","im(rEPhi) [mV]","re(rETheta) [mV]","im(rETheta) [mV]"
0.9965,180,90,90,117.368,0.0290620942777357,-0.0110015429007381,-7.41744355166835,-30.257863970996
"Freq [GHz]","IWavePhi [deg]","IWaveTheta [deg]","Phi [deg]","Theta [deg]","re(rEPhi) [mV]","im(rEPhi) [mV]","re(rETheta) [mV]","im(rETheta) [mV]"
0.9965,180,90,-90,117.368,-0.0214612775689743,-0.0394231136296523,7.47821142879511,30.4492769734059
"Freq [GHz]","IWavePhi [deg]","IWaveTheta [deg]","Phi [deg]","Theta [deg]","re(rEPhi) [mV]","im(rEPhi) [mV]","re(rETheta) [mV]","im(rETheta) [mV]"
0.9965,180,90,0,90,-21.3095164107064,-86.731225339472,-0.0218755990023888,0.0550547294127318
"Freq [GHz]","IWavePhi [deg]","IWaveTheta [deg]","Phi [deg]","Theta [deg]","re(rEPhi) [mV]","im(rEPhi) [mV]","re(rETheta) [mV]","im(rETheta) [mV]"
0.9965,180,90,180,90,21.2775150536834,86.5688200429315,0.0225751781513149,0.0589541224439681
"Freq [GHz]","IWavePhi [deg]","IWaveTheta [deg]","Phi [deg]","Theta [deg]","re(rEPhi) [mV]","im(rEPhi) [mV]","re(rETheta) [mV]","im(rETheta) [mV]"
0.9965,180,90,90,90,-0.00936158315836994,0.0665273253836165,0.105084485403051,0.0285174039817025
"Freq [GHz]","IWavePhi [deg]","IWaveTheta [deg]","Phi [deg]","Theta [deg]","re(rEPhi) [mV]","im(rEPhi) [mV]","re(rETheta) [mV]","im(rETheta) [mV]"
0.9965,180,90,-90,90,0.0313492593210976,0.0990006000378322,-0.0332565635442208,-0.0206537625732349
"Freq [GHz]","IWavePhi [deg]","IWaveTheta [deg]","Phi [deg]","Theta [deg]","re(rEPhi) [mV]","im(rEPhi) [mV]","re(rETheta) [mV]","im(rETheta) [mV]"
0.9965,180,90,0,0,-17.3412522640004,-73.6357267499986,0.13204224602013,-0.00187879808745421
"Freq [GHz]","IWavePhi [deg]","IWaveTheta [deg]","Phi [deg]","Theta [deg]","re(rEPhi) [mV]","im(rEPhi) [mV]","re(rETheta) [mV]","im(rETheta) [mV]"
0.9965,180,90,0,180,-17.3507342458595,-73.7705013094572,-0.175888705356972,0.0205613937605078
"Freq [GHz]","IWavePhi [deg]","IWaveTheta [deg]","Phi [deg]","Theta [deg]","re(rEPhi) [mV]","im(rEPhi) [mV]","re(rETheta) [mV]","im(rETheta) [mV]"
0.9965,180,90,45,54.736,-13.0658057195429,-52.8623111911088,-7.27926031074778,-30.3112420733846
"Freq [GHz]","IWavePhi [deg]","IWaveTheta [deg]","Phi [deg]","Theta [deg]","re(rEPhi) [mV]","im(rEPhi) [mV]","re(rETheta) [mV]","im(rETheta) [mV]"
0.9965,180,90,135,54.736,13.0635900282175,52.9413030218261,-7.20603637055441,-30.2685275567926
"Freq [GHz]","IWavePhi [deg]","IWaveTheta [deg]","Phi [deg]","Theta [deg]","re(rEPhi) [mV]","im(rEPhi) [mV]","re(rETheta) [mV]","im(rETheta) [mV]"
0.9965,180,90,-45,54.736,-13.0581966483734,-52.8123348061166,7.24468997703285,30.3010651153279
"Freq [GHz]","IWavePhi [deg]","IWaveTheta [deg]","Phi [deg]","Theta [deg]","re(rEPhi) [mV]","im(rEPhi) [mV]","re(rETheta) [mV]","im(rETheta) [mV]"
0.9965,180,90,45,125.264,-13.0148822982728,-52.9353304282182,7.28918909224995,30.4315764118402
"Freq [GHz]","IWavePhi [deg]","IWaveTheta [deg]","Phi [deg]","Theta [deg]","re(rEPhi) [mV]","im(rEPhi) [mV]","re(rETheta) [mV]","im(rETheta) [mV]"
0.9965,180,90,-135,54.736,13.0868315389889,52.8815360938812,7.26595865050599,30.2747281790201
"Freq [GHz]","IWavePhi [deg]","IWaveTheta [deg]","Phi [deg]","Theta [deg]","re(rEPhi) [mV]","im(rEPhi) [mV]","re(rETheta) [mV]","im(rETheta) [mV]"
0.9965,180,90,-45,125.264,-13.0760532526848,-52.8096472668347,-7.30537120573298,-30.3228823883193
"Freq [GHz]","IWavePhi [deg]","IWaveTheta [deg]","Phi [deg]","Theta [deg]","re(rEPhi) [mV]","im(rEPhi) [mV]","re(rETheta) [mV]","im(rETheta) [mV]"
0.9965,180,90,135,125.264,13.0240590368713,52.9592152618343,7.31663272623106,30.4148393640204
"Freq [GHz]","IWavePhi [deg]","IWaveTheta [deg]","Phi [deg]","Theta [deg]","re(rEPhi) [mV]","im(rEPhi) [mV]","re(rETheta) [mV]","im(rETheta) [mV]"
0.9965,180,90,-135,125.264,13.0778675196991,52.9157452412057,-7.35480625753857,-30.2784211581558
"Freq [GHz]","IWavePhi [deg]","IWaveTheta [deg]","Phi [deg]","Theta [deg]","re(rEPhi) [mV]","im(rEPhi) [mV]","re(rETheta) [mV]","im(rETheta) [mV]"
0.9965,180,90,62.632,90,-7.95815876954876,-31.5175040265893,0.0555193933667434,0.0470703645884002
"Freq [GHz]","IWavePhi [deg]","IWaveTheta [deg]","Phi [deg]","Theta [deg]","re(rEPhi) [mV]","im(rEPhi) [mV]","re(rETheta) [mV]","im(rETheta) [mV]"
0.9965,180,90,117.368,90,7.96503974197999,31.5987609698483,0.111735625849192,-0.00957555339932723
"Freq [GHz]","IWavePhi [deg]","IWaveTheta [deg]","Phi [deg]","Theta [deg]","re(rEPhi) [mV]","im(rEPhi) [mV]","re(rETheta) [mV]","im(rETheta) [mV]"
0.9965,180,90,-62.632,90,-8.04515264401222,-31.8071396885707,-0.0150657509174827,-0.000610000802894737
"Freq [GHz]","IWavePhi [deg]","IWaveTheta [deg]","Phi [deg]","Theta [deg]","re(rEPhi) [mV]","im(rEPhi) [mV]","re(rETheta) [mV]","im(rETheta) [mV]"
0.9965,180,90,-117.368,90,8.1320585105981,31.8180377751721,-0.0796354081296415,-0.0594622646730209
"Freq [GHz]","IWavePhi [deg]","IWaveTheta [deg]","Phi [deg]","Theta [deg]","re(rEPhi) [mV]","im(rEPhi) [mV]","re(rETheta) [mV]","im(rETheta) [mV]"
0.9965,180,90,27.368,90,-18.0019927342419,-72.4835881028512,0.0907939101992652,-0.0213577460018036
"Freq [GHz]","IWavePhi [deg]","IWaveTheta [deg]","Phi [deg]","Theta [deg]","re(rEPhi) [mV]","im(rEPhi) [mV]","re(rETheta) [mV]","im(rETheta) [mV]"
0.9965,180,90,152.632,90,17.7569851932971,72.5807242325671,0.0252452625970116,0.0468013753344016
"Freq [GHz]","IWavePhi [deg]","IWaveTheta [deg]","Phi [deg]","Theta [deg]","re(rEPhi) [mV]","im(rEPhi) [mV]","re(rETheta) [mV]","im(rETheta) [mV]"
0.9965,180,90,-27.368,90,-17.8166354247041,-72.5039744893505,-0.036638392487012,-0.00466158234919563
"Freq [GHz]","IWavePhi [deg]","IWaveTheta [deg]","Phi [deg]","Theta [deg]","re(rEPhi) [mV]","im(rEPhi) [mV]","re(rETheta) [mV]","im(rETheta) [mV]"
0.9965,180,90,-152.632,90,18.0598046581721,72.4298083293405,0.0466398368896402,0.0607356202568506
"Freq [GHz]","IWavePhi [deg]","IWaveTheta [deg]","Phi [deg]","Theta [deg]","re(rEPhi) [mV]","im(rEPhi) [mV]","re(rETheta) [mV]","im(rETheta) [mV]"
0.9965,180,90,0,27.368,-18.2685916755921,-76.2459853607728,-0.0360036037935987,0.0789575829660875
"Freq [GHz]","IWavePhi [deg]","IWaveTheta [deg]","Phi [deg]","Theta [deg]","re(rEPhi) [mV]","im(rEPhi) [mV]","re(rETheta) [mV]","im(rETheta) [mV]"
0.9965,180,90,180,27.368,18.505571976264,76.3151888586579,0.107064894006367,-0.0580387875492202
"Freq [GHz]","IWavePhi [deg]","IWaveTheta [deg]","Phi [deg]","Theta [deg]","re(rEPhi) [mV]","im(rEPhi) [mV]","re(rETheta) [mV]","im(rETheta) [mV]"
0.9965,180,90,0,152.632,-18.4309310986778,-76.3430535005477,0.0966611841131251,0.0423552773246406
"Freq [GHz]","IWavePhi [deg]","IWaveTheta [deg]","Phi [deg]","Theta [deg]","re(rEPhi) [mV]","im(rEPhi) [mV]","re(rETheta) [mV]","im(rETheta) [mV]"
0.9965,180,90,180,152.632,18.2291099491921,76.4791656541612,-0.0658814488000425,0.0143542369751789
"Freq [GHz]","IWavePhi [deg]","IWaveTheta [deg]","Phi [deg]","Theta [deg]","re(rEPhi) [mV]","im(rEPhi) [mV]","re(rETheta) [mV]","im(rETheta) [mV]"
0.9965,180,90,0,62.632,-20.6630675862728,-83.6317747463316,-0.00694841800688819,-0.0302134239199665
"Freq [GHz]","IWavePhi [deg]","IWaveTheta [deg]","Phi [deg]","Theta [deg]","re(rEPhi) [mV]","im(rEPhi) [mV]","re(rETheta) [mV]","im(rETheta) [mV]"
0.9965,180,90,180,62.632,20.5415435885041,83.73388081058,0.0203226576530547,0.0330564241887582
"Freq [GHz]","IWavePhi [deg]","IWaveTheta [deg]","Phi [deg]","Theta [deg]","re(rEPhi) [mV]","im(rEPhi) [mV]","re(rETheta) [mV]","im(rETheta) [mV]"
0.9965,180,90,0,117.368,-20.5229536303657,-83.8104607552356,0.0113421812538195,0.0439897127888906
"Freq [GHz]","IWavePhi [deg]","IWaveTheta [deg]","Phi [deg]","Theta [deg]","re(rEPhi) [mV]","im(rEPhi) [mV]","re(rETheta) [mV]","im(rETheta) [mV]"
0.9965,180,90,180,117.368,20.6895720090253,83.8645975990361,0.0083135559096562,0.0786453474415513
"Freq [GHz]","IWavePhi [deg]","IWaveTheta [deg]","Phi [deg]","Theta [deg]","re(rEPhi) [mV]","im(rEPhi) [mV]","re(rETheta) [mV]","im(rETheta) [mV]"
0.9965,180,90,90,27.368,0.0790469599571669,0.0117076026571406,-15.3037057072513,-63.659362907856
"Freq [GHz]","IWavePhi [deg]","IWaveTheta [deg]","Phi [deg]","Theta [deg]","re(rEPhi) [mV]","im(rEPhi) [mV]","re(rETheta) [mV]","im(rETheta) [mV]"
0.9965,180,90,-90,27.368,-0.0968701049889817,-0.0175915882244278,15.2512529170564,63.6723248319659
"Freq [GHz]","IWavePhi [deg]","IWaveTheta [deg]","Phi [deg]","Theta [deg]","re(rEPhi) [mV]","im(rEPhi) [mV]","re(rETheta) [mV]","im(rETheta) [mV]"
0.9965,180,90,90,152.632,0.107777738192279,-0.04003231641823,15.2290077107935,63.9104628011933
"Freq [GHz]","IWavePhi [deg]","IWaveTheta [deg]","Phi [deg]","Theta [deg]","re(rEPhi) [mV]","im(rEPhi) [mV]","re(rETheta) [mV]","im(rETheta) [mV]"
0.9965,180,90,-90,152.632,-0.124973249144541,0.000451377169648404,-15.3199133851568,-63.7459819029723
"Freq [GHz]","IWavePhi [deg]","IWaveTheta [deg]","Phi [deg]","Theta [deg]","re(rEPhi) [mV]","im(rEPhi) [mV]","re(rETheta) [mV]","im(rETheta) [mV]"
0.9965,180,90,90,62.632,-0.05488244603184,0.0684295615553343,-7.30932238210939,-30.3924369152859
"Freq [GHz]","IWavePhi [deg]","IWaveTheta [deg]","Phi [deg]","Theta [deg]","re(rEPhi) [mV]","im(rEPhi) [mV]","re(rETheta) [mV]","im(rETheta) [mV]"
0.9965,180,90,-90,62.632,-0.0329293955277384,-0.0101227957990851,7.40538612330848,30.5613068465291
"Freq [GHz]","IWavePhi [deg]","IWaveTheta [deg]","Phi [deg]","Theta [deg]","re(rEPhi) [mV]","im(rEPhi) [mV]","re(rETheta) [mV]","im(rETheta) [mV]"
0.9965,180,90,90,117.368,-0.0290620942785827,0.0110015428985256,7.41744355166848,30.2578639709967
"Freq [GHz]","IWavePhi [deg]","IWaveTheta [deg]","Phi [deg]","Theta [deg]","re(rEPhi) [mV]","im(rEPhi) [mV]","re(rETheta) [mV]","im(rETheta) [mV]"
0.9965,180,90,-90,117.368,0.0214612775678527,0.0394231136253945,-7.47821142879517,-30.4492769734068
"Freq [GHz]","IWavePhi [deg]","IWaveTheta [deg]","Phi [deg]","Theta [deg]","re(rEPhi) [mV]","im(rEPhi) [mV]","re(rETheta) [mV]","im(rETheta) [mV]"
0.9965,180,90,0,90,3.00553859403482e-15,1.19196769378719e-14,2.02842533874057e-18,-1.85840712365051e-18
"Freq [GHz]","IWavePhi [deg]","IWaveTheta [deg]","Phi [deg]","Theta [deg]","re(rEPhi) [mV]","im(rEPhi) [mV]","re(rETheta) [mV]","im(rETheta) [mV]"
0.9965,180,90,180,90,-2.99301155994481e-15,-1.19002415218285e-14,-4.39544464633479e-18,-3.79297350575537e-18
"Freq [GHz]","IWavePhi [deg]","IWaveTheta [deg]","Phi [deg]","Theta [deg]","re(rEPhi) [mV]","im(rEPhi) [mV]","re(rETheta) [mV]","im(rETheta) [mV]"
0.9965,180,90,90,90,7.35099301768397e-19,-8.6198976530799e-18,-5.80095921533677e-18,1.0032625141535e-18
"Freq [GHz]","IWavePhi [deg]","IWaveTheta [deg]","Phi [deg]","Theta [deg]","re(rEPhi) [mV]","im(rEPhi) [mV]","re(rETheta) [mV]","im(rETheta) [mV]"
0.9965,180,90,-90,90,-3.4669366777757e-18,-1.41878748548166e-17,-3.75219829352271e-18,7.7044581782178e-18
"Freq [GHz]","IWavePhi [deg]","IWaveTheta [deg]","Phi [deg]","Theta [deg]","re(rEPhi) [mV]","im(rEPhi) [mV]","re(rETheta) [mV]","im(rETheta) [mV]"
0.9965,180,90,0,0,2.44545041082659e-15,1.01238724029394e-14,-1.98190328282382e-17,1.48399584303778e-18
"Freq [GHz]","IWavePhi [deg]","IWaveTheta [deg]","Phi [deg]","Theta [deg]","re(rEPhi) [mV]","im(rEPhi) [mV]","re(rETheta) [mV]","im(rETheta) [mV]"
