"Freq [GHz]","IWavePhi [deg]","IWaveTheta [deg]","Phi [deg]","Theta [deg]","re(rEPhi) [mV]","im(rEPhi) [mV]","re(rETheta) [mV]","im(rETheta) [mV]"
0.5694,180,90,0,90,-41.3391802864759,14.2602320968761,0.0007310314115234,-0.0036695443369164
"Freq [GHz]","IWavePhi [deg]","IWaveTheta [deg]","Phi [deg]","Theta [deg]","re(rEPhi) [mV]","im(rEPhi) [mV]","re(rETheta) [mV]","im(rETheta) [mV]"
0.5694,180,90,180,90,41.3315329453318,-14.2634329015977,0.00816113664340236,-0.00140239050643173
"Freq [GHz]","IWavePhi [deg]","IWaveTheta [deg]","Phi [deg]","Theta [deg]","re(rEPhi) [mV]","im(rEPhi) [mV]","re(rETheta) [mV]","im(rETheta) [mV]"
0.5694,180,90,90,90,0.00579557917218519,0.00398703633508982,0.015220565816473,-0.00390886823531635
"Freq [GHz]","IWavePhi [deg]","IWaveTheta [deg]","Phi [deg]","Theta [deg]","re(rEPhi) [mV]","im(rEPhi) [mV]","re(rETheta) [mV]","im(rETheta) [mV]"
0.5694,180,90,-90,90,0.00743326862899265,0.0032084299195325,-0.00250167628559156,-0.00345415875477793
"Freq [GHz]","IWavePhi [deg]","IWaveTheta [deg]","Phi [deg]","Theta [deg]","re(rEPhi) [mV]","im(rEPhi) [mV]","re(rETheta) [mV]","im(rETheta) [mV]"
0.5694,180,90,0,0,-39.3314243139817,13.5293768486914,0.000958563418520379,0.00216364963923231
"Freq [GHz]","IWavePhi [deg]","IWaveTheta [deg]","Phi [deg]","Theta [deg]","re(rEPhi) [mV]","im(rEPhi) [mV]","re(rETheta) [mV]","im(rETheta) [mV]"
0.5694,180,90,0,180,-39.3298623852468,13.5314168848664,0.00259570919896103,-0.00171498192516502
"Freq [GHz]","IWavePhi [deg]","IWaveTheta [deg]","Phi [deg]","Theta [deg]","re(rEPhi) [mV]","im(rEPhi) [mV]","re(rETheta) [mV]","im(rETheta) [mV]"
0.5694,180,90,45,54.736,-27.8374623500777,9.60087751194689,-16.0307449981743,5.52018151469064
"Freq [GHz]","IWavePhi [deg]","IWaveTheta [deg]","Phi [deg]","Theta [deg]","re(rEPhi) [mV]","im(rEPhi) [mV]","re(rETheta) [mV]","im(rETheta) [mV]"
0.5694,180,90,135,54.736,27.8443166356523,-9.61468340848922,-16.0396221885801,5.52400983962764
"Freq [GHz]","IWavePhi [deg]","IWaveTheta [deg]","Phi [deg]","Theta [deg]","re(rEPhi) [mV]","im(rEPhi) [mV]","re(rETheta) [mV]","im(rETheta) [mV]"
0.5694,180,90,-45,54.736,-27.8753150831247,9.60448013282431,16.0447480094808,-5.52109886879612
"Freq [GHz]","IWavePhi [deg]","IWaveTheta [deg]","Phi [deg]","Theta [deg]","re(rEPhi) [mV]","im(rEPhi) [mV]","re(rETheta) [mV]","im(rETheta) [mV]"
0.5694,180,90,45,125.264,-27.8646544601781,9.60855453502015,16.0542187133277,-5.52777819851182
"Freq [GHz]","IWavePhi [deg]","IWaveTheta [deg]","Phi [deg]","Theta [deg]","re(rEPhi) [mV]","im(rEPhi) [mV]","re(rETheta) [mV]","im(rETheta) [mV]"
0.5694,180,90,-135,54.736,27.8537706380863,-9.6112555752136,16.0395016501907,-5.53354109118733
"Freq [GHz]","IWavePhi [deg]","IWaveTheta [deg]","Phi [deg]","Theta [deg]","re(rEPhi) [mV]","im(rEPhi) [mV]","re(rETheta) [mV]","im(rETheta) [mV]"
0.5694,180,90,-45,125.264,-27.8716209576858,9.61195149229791,-16.0291024972545,5.52628523124795
"Freq [GHz]","IWavePhi [deg]","IWaveTheta [deg]","Phi [deg]","Theta [deg]","re(rEPhi) [mV]","im(rEPhi) [mV]","re(rETheta) [mV]","im(rETheta) [mV]"
0.5694,180,90,135,125.264,27.8456628905991,-9.60566657358721,16.0445191683919,-5.52341621343254
"Freq [GHz]","IWavePhi [deg]","IWaveTheta [deg]","Phi [deg]","Theta [deg]","re(rEPhi) [mV]","im(rEPhi) [mV]","re(rETheta) [mV]","im(rETheta) [mV]"
0.5694,180,90,-135,125.264,27.8748716837508,-9.59171524519269,-16.037885446334,5.51846791855301
"Freq [GHz]","IWavePhi [deg]","IWaveTheta [deg]","Phi [deg]","Theta [deg]","re(rEPhi) [mV]","im(rEPhi) [mV]","re(rETheta) [mV]","im(rETheta) [mV]"
0.5694,360,90,0,90,41.3391802864759,-14.2602320968761,-0.000731031411357245,0.00366954433653153
"Freq [GHz]","IWavePhi [deg]","IWaveTheta [deg]","Phi [deg]","Theta [deg]","re(rEPhi) [mV]","im(rEPhi) [mV]","re(rETheta) [mV]","im(rETheta) [mV]"
0.5694,360,90,180,90,-41.3315329453318,14.2634329015977,-0.00816113664339603,0.00140239050670181
"Freq [GHz]","IWavePhi [deg]","IWaveTheta [deg]","Phi [deg]","Theta [deg]","re(rEPhi) [mV]","im(rEPhi) [mV]","re(rETheta) [mV]","im(rETheta) [mV]"
0.5694,360,90,90,90,-0.00579557917244398,-0.00398703633533445,-0.0152205658167319,0.00390886823509544
"Freq [GHz]","IWavePhi [deg]","IWaveTheta [deg]","Phi [deg]","Theta [deg]","re(rEPhi) [mV]","im(rEPhi) [mV]","re(rETheta) [mV]","im(rETheta) [mV]"
0.5694,360,90,-90,90,-0.0074332686288726,-0.0032084299196055,0.00250167628532613,0.0034541587551209
"Freq [GHz]","IWavePhi [deg]","IWaveTheta [deg]","Phi [deg]","Theta [deg]","re(rEPhi) [mV]","im(rEPhi) [mV]","re(rETheta) [mV]","im(rETheta) [mV]"
0.5694,360,90,0,0,39.3314243139817,-13.5293768486914,-0.000958563418555823,-0.00216364963908257
"Freq [GHz]","IWavePhi [deg]","IWaveTheta [deg]","Phi [deg]","Theta [deg]","re(rEPhi) [mV]","im(rEPhi) [mV]","re(rETheta) [mV]","im(rETheta) [mV]"
0.5694,360,90,0,180,39.3298623852468,-13.5314168848664,-0.00259570919879362,0.00171498192548168
"Freq [GHz]","IWavePhi [deg]","IWaveTheta [deg]","Phi [deg]","Theta [deg]","re(rEPhi) [mV]","im(rEPhi) [mV]","re(rETheta) [mV]","im(rETheta) [mV]"
0.5694,360,90,45,54.736,27.8374623500775,-9.60087751194671,16.0307449981742,-5.52018151469059
"Freq [GHz]","IWavePhi [deg]","IWaveTheta [deg]","Phi [deg]","Theta [deg]","re(rEPhi) [mV]","im(rEPhi) [mV]","re(rETheta) [mV]","im(rETheta) [mV]"
0.5694,360,90,135,54.736,-27.8443166356523,9.61468340848917,16.0396221885803,-5.52400983962745
"Freq [GHz]","IWavePhi [deg]","IWaveTheta [deg]","Phi [deg]","Theta [deg]","re(rEPhi) [mV]","im(rEPhi) [mV]","re(rETheta) [mV]","im(rETheta) [mV]"
0.5694,360,90,-45,54.736,27.8753150831248,-9.60448013282449,-16.0447480094806,5.52109886879634
"Freq [GHz]","IWavePhi [deg]","IWaveTheta [deg]","Phi [deg]","Theta [deg]","re(rEPhi) [mV]","im(rEPhi) [mV]","re(rETheta) [mV]","im(rETheta) [mV]"
0.5694,360,90,45,125.264,27.8646544601782,-9.60855453502016,-16.0542187133272,5.52777819851185
"Freq [GHz]","IWavePhi [deg]","IWaveTheta [deg]","Phi [deg]","Theta [deg]","re(rEPhi) [mV]","im(rEPhi) [mV]","re(rETheta) [mV]","im(rETheta) [mV]"
0.5694,360,90,-135,54.736,-27.8537706380865,9.61125557521373,-16.0395016501904,5.5335410911873
"Freq [GHz]","IWavePhi [deg]","IWaveTheta [deg]","Phi [deg]","Theta [deg]","re(rEPhi) [mV]","im(rEPhi) [mV]","re(rETheta) [mV]","im(rETheta) [mV]"
0.5694,360,90,-45,125.264,27.8716209576857,-9.61195149229781,16.0291024972546,-5.52628523124814
"Freq [GHz]","IWavePhi [deg]","IWaveTheta [deg]","Phi [deg]","Theta [deg]","re(rEPhi) [mV]","im(rEPhi) [mV]","re(rETheta) [mV]","im(rETheta) [mV]"
0.5694,360,90,135,125.264,-27.845662890599,9.60566657358704,-16.0445191683918,5.52341621343232
"Freq [GHz]","IWavePhi [deg]","IWaveTheta [deg]","Phi [deg]","Theta [deg]","re(rEPhi) [mV]","im(rEPhi) [mV]","re(rETheta) [mV]","im(rETheta) [mV]"
0.5694,360,90,-135,125.264,-27.8748716837507,9.59171524519278,16.0378854463338,-5.51846791855327
"Freq [GHz]","IWavePhi [deg]","IWaveTheta [deg]","Phi [deg]","Theta [deg]","re(rEPhi) [mV]","im(rEPhi) [mV]","re(rETheta) [mV]","im(rETheta) [mV]"
0.5694,270,90,0,90,-7.09910370783359e-15,2.54837012947138e-15,6.29555635212497e-18,-2.58842835664181e-18
"Freq [GHz]","IWavePhi [deg]","IWaveTheta [deg]","Phi [deg]","Theta [deg]","re(rEPhi) [mV]","im(rEPhi) [mV]","re(rETheta) [mV]","im(rETheta) [mV]"
0.5694,270,90,180,90,7.09692008134123e-15,-2.54947415325246e-15,7.98713017741981e-18,-2.2371307120852e-18
"Freq [GHz]","IWavePhi [deg]","IWaveTheta [deg]","Phi [deg]","Theta [deg]","re(rEPhi) [mV]","im(rEPhi) [mV]","re(rETheta) [mV]","im(rETheta) [mV]"
0.5694,270,90,90,90,7.67584112167213e-19,1.93221709881303e-19,5.95463550755982e-18,-5.38588489480227e-18
"Freq [GHz]","IWavePhi [deg]","IWaveTheta [deg]","Phi [deg]","Theta [deg]","re(rEPhi) [mV]","im(rEPhi) [mV]","re(rETheta) [mV]","im(rETheta) [mV]"
0.5694,270,90,-90,90,1.20388362757219e-18,1.27764671198801e-18,5.16734500230044e-18,1.06662188766522e-18
"Freq [GHz]","IWavePhi [deg]","IWaveTheta [deg]","Phi [deg]","Theta [deg]","re(rEPhi) [mV]","im(rEPhi) [mV]","re(rETheta) [mV]","im(rETheta) [mV]"
0.5694,270,90,0,0,-6.74509705106426e-15,2.41650120565932e-15,-1.52318766105872e-19,-4.03678693741157e-19
"Freq [GHz]","IWavePhi [deg]","IWaveTheta [deg]","Phi [deg]","Theta [deg]","re(rEPhi) [mV]","im(rEPhi) [mV]","re(rETheta) [mV]","im(rETheta) [mV]"
0.5694,270,90,0,180,-6.74984636361175e-15,2.41604912784322e-15,8.13869469058089e-19,1.24269051293984e-19
"Freq [GHz]","IWavePhi [deg]","IWaveTheta [deg]","Phi [deg]","Theta [deg]","re(rEPhi) [mV]","im(rEPhi) [mV]","re(rETheta) [mV]","im(rETheta) [mV]"
0.5694,270,90,45,54.736,-4.93272081739696e-15,1.71793598609924e-15,-2.83765875147523e-15,9.84314157924795e-16
"Freq [GHz]","IWavePhi [deg]","IWaveTheta [deg]","Phi [deg]","Theta [deg]","re(rEPhi) [mV]","im(rEPhi) [mV]","re(rETheta) [mV]","im(rETheta) [mV]"
0.5694,270,90,135,54.736,4.93700242604456e-15,-1.71999185577931e-15,-2.84112637946109e-15,9.85025991752592e-16
"Freq [GHz]","IWavePhi [deg]","IWaveTheta [deg]","Phi [deg]","Theta [deg]","re(rEPhi) [mV]","im(rEPhi) [mV]","re(rETheta) [mV]","im(rETheta) [mV]"
0.5694,270,90,-45,54.736,-4.63265904706998e-15,1.71871492053045e-15,2.66958030443857e-15,-9.8785668092951e-16
"Freq [GHz]","IWavePhi [deg]","IWaveTheta [deg]","Phi [deg]","Theta [deg]","re(rEPhi) [mV]","im(rEPhi) [mV]","re(rETheta) [mV]","im(rETheta) [mV]"
0.5694,270,90,45,125.264,-4.93584785349294e-15,1.71721550903858e-15,2.85254487062188e-15,-9.90776108781347e-16
"Freq [GHz]","IWavePhi [deg]","IWaveTheta [deg]","Phi [deg]","Theta [deg]","re(rEPhi) [mV]","im(rEPhi) [mV]","re(rETheta) [mV]","im(rETheta) [mV]"
0.5694,270,90,-135,54.736,4.6315577489138e-15,-1.7180032254952e-15,2.66864273961243e-15,-9.87696868439287e-16
"Freq [GHz]","IWavePhi [deg]","IWaveTheta [deg]","Phi [deg]","Theta [deg]","re(rEPhi) [mV]","im(rEPhi) [mV]","re(rETheta) [mV]","im(rETheta) [mV]"
0.5694,270,90,-45,125.264,-4.6295794541412e-15,1.72125537574458e-15,-2.65622668007237e-15,9.89093065000573e-16
"Freq [GHz]","IWavePhi [deg]","IWaveTheta [deg]","Phi [deg]","Theta [deg]","re(rEPhi) [mV]","im(rEPhi) [mV]","re(rETheta) [mV]","im(rETheta) [mV]"
0.5694,270,90,135,125.264,4.93484716387854e-15,-1.71841182728003e-15,2.85047216143711e-15,-9.90888303745848e-16
"Freq [GHz]","IWavePhi [deg]","IWaveTheta [deg]","Phi [deg]","Theta [deg]","re(rEPhi) [mV]","im(rEPhi) [mV]","re(rETheta) [mV]","im(rETheta) [mV]"
0.5694,270,90,-135,125.264,4.63286883929784e-15,-1.71659913235995e-15,-2.66015400666575e-15,9.86806496255863e-16
"Freq [GHz]","IWavePhi [deg]","IWaveTheta [deg]","Phi [deg]","Theta [deg]","re(rEPhi) [mV]","im(rEPhi) [mV]","re(rETheta) [mV]","im(rETheta) [mV]"
0.5694,90,90,0,90,2.365395253606e-15,-8.45929188893834e-16,-1.3616823619167e-18,1.05046024890365e-18
"Freq [GHz]","IWavePhi [deg]","IWaveTheta [deg]","Phi [deg]","Theta [deg]","re(rEPhi) [mV]","im(rEPhi) [mV]","re(rETheta) [mV]","im(rETheta) [mV]"
0.5694,90,90,180,90,-2.36487104820461e-15,8.46262305580609e-16,-2.02910041326316e-18,8.99182135991035e-19
"Freq [GHz]","IWavePhi [deg]","IWaveTheta [deg]","Phi [deg]","Theta [deg]","re(rEPhi) [mV]","im(rEPhi) [mV]","re(rETheta) [mV]","im(rETheta) [mV]"
0.5694,90,90,90,90,-2.21327438042879e-19,-7.22591837082292e-20,-1.12796833996703e-18,9.40667753123982e-19
"Freq [GHz]","IWavePhi [deg]","IWaveTheta [deg]","Phi [deg]","Theta [deg]","re(rEPhi) [mV]","im(rEPhi) [mV]","re(rETheta) [mV]","im(rETheta) [mV]"
0.5694,90,90,-90,90,-3.95317811474103e-19,-3.91154856658468e-19,-1.39317749317007e-18,5.82584042844338e-19
"Freq [GHz]","IWavePhi [deg]","IWaveTheta [deg]","Phi [deg]","Theta [deg]","re(rEPhi) [mV]","im(rEPhi) [mV]","re(rETheta) [mV]","im(rETheta) [mV]"
0.5694,90,90,0,0,2.24734224869038e-15,-8.01988963679117e-16,5.05800829229538e-20,5.61667892217053e-20
"Freq [GHz]","IWavePhi [deg]","IWaveTheta [deg]","Phi [deg]","Theta [deg]","re(rEPhi) [mV]","im(rEPhi) [mV]","re(rETheta) [mV]","im(rETheta) [mV]"
0.5694,90,90,0,180,2.24931316926779e-15,-8.01896343263702e-16,-2.53712433269434e-19,5.01356499756312e-21
"Freq [GHz]","IWavePhi [deg]","IWaveTheta [deg]","Phi [deg]","Theta [deg]","re(rEPhi) [mV]","im(rEPhi) [mV]","re(rETheta) [mV]","im(rETheta) [mV]"
0.5694,90,90,45,54.736,1.54176801322062e-15,-5.69771599698409e-16,8.8597705746731e-16,-3.26827647267009e-16
"Freq [GHz]","IWavePhi [deg]","IWaveTheta [deg]","Phi [deg]","Theta [deg]","re(rEPhi) [mV]","im(rEPhi) [mV]","re(rETheta) [mV]","im(rETheta) [mV]"
0.5694,90,90,135,54.736,-1.54319881613654e-15,5.70477655828958e-16,8.87184074129473e-16,-3.27020367975163e-16
"Freq [GHz]","IWavePhi [deg]","IWaveTheta [deg]","Phi [deg]","Theta [deg]","re(rEPhi) [mV]","im(rEPhi) [mV]","re(rETheta) [mV]","im(rETheta) [mV]"
0.5694,90,90,-45,54.736,1.645225172764e-15,-5.71031893179385e-16,-9.49137571126294e-16,3.28657492442013e-16
"Freq [GHz]","IWavePhi [deg]","IWaveTheta [deg]","Phi [deg]","Theta [deg]","re(rEPhi) [mV]","im(rEPhi) [mV]","re(rETheta) [mV]","im(rETheta) [mV]"
0.5694,90,90,45,125.264,1.54329463973619e-15,-5.69671903731879e-16,-8.8982503173288e-16,3.28356922939923e-16
"Freq [GHz]","IWavePhi [deg]","IWaveTheta [deg]","Phi [deg]","Theta [deg]","re(rEPhi) [mV]","im(rEPhi) [mV]","re(rETheta) [mV]","im(rETheta) [mV]"
0.5694,90,90,-135,54.736,-1.64474321730487e-15,5.71058272817115e-16,-9.48809207370276e-16,3.28797682919718e-16
"Freq [GHz]","IWavePhi [deg]","IWaveTheta [deg]","Phi [deg]","Theta [deg]","re(rEPhi) [mV]","im(rEPhi) [mV]","re(rETheta) [mV]","im(rETheta) [mV]"
0.5694,90,90,-45,125.264,1.64449777940811e-15,-5.72049482131589e-16,9.45577880413982e-16,-3.28054032820919e-16
"Freq [GHz]","IWavePhi [deg]","IWaveTheta [deg]","Phi [deg]","Theta [deg]","re(rEPhi) [mV]","im(rEPhi) [mV]","re(rETheta) [mV]","im(rETheta) [mV]"
0.5694,90,90,135,125.264,-1.54279808702518e-15,5.6985216847784e-16,-8.89086329071633e-16,3.28329388165382e-16
"Freq [GHz]","IWavePhi [deg]","IWaveTheta [deg]","Phi [deg]","Theta [deg]","re(rEPhi) [mV]","im(rEPhi) [mV]","re(rETheta) [mV]","im(rETheta) [mV]"
0.5694,90,90,-135,125.264,-1.64559113941001e-15,5.70377406398685e-16,9.46881169170874e-16,-3.27272378948378e-16
"Freq [GHz]","IWavePhi [deg]","IWaveTheta [deg]","Phi [deg]","Theta [deg]","re(rEPhi) [mV]","im(rEPhi) [mV]","re(rETheta) [mV]","im(rETheta) [mV]"
0.5694,180,180,0,90,-39.347873081561,13.5428466790217,2.90037689637743e-05,-0.00552574323239012
"Freq [GHz]","IWavePhi [deg]","IWaveTheta [deg]","Phi [deg]","Theta [deg]","re(rEPhi) [mV]","im(rEPhi) [mV]","re(rETheta) [mV]","im(rETheta) [mV]"
0.5694,180,180,180,90,39.3352233509128,-13.546240052196,0.0100165925557498,0.000357983566699358
"Freq [GHz]","IWavePhi [deg]","IWaveTheta [deg]","Phi [deg]","Theta [deg]","re(rEPhi) [mV]","im(rEPhi) [mV]","re(rETheta) [mV]","im(rETheta) [mV]"
0.5694,180,180,90,90,0.00242139798228565,-0.000320153238765905,5.3096846569592,0.178926150131419
"Freq [GHz]","IWavePhi [deg]","IWaveTheta [deg]","Phi [deg]","Theta [deg]","re(rEPhi) [mV]","im(rEPhi) [mV]","re(rETheta) [mV]","im(rETheta) [mV]"
0.5694,180,180,-90,90,0.00497231381855716,0.007220356369072,-5.29975258283769,-0.184609147759018
"Freq [GHz]","IWavePhi [deg]","IWaveTheta [deg]","Phi [deg]","Theta [deg]","re(rEPhi) [mV]","im(rEPhi) [mV]","re(rETheta) [mV]","im(rETheta) [mV]"
0.5694,180,180,0,0,-32.4458757576253,13.0691368401792,0.000905119662580672,0.0010027870294676
"Freq [GHz]","IWavePhi [deg]","IWaveTheta [deg]","Phi [deg]","Theta [deg]","re(rEPhi) [mV]","im(rEPhi) [mV]","re(rETheta) [mV]","im(rETheta) [mV]"
0.5694,180,180,0,180,-42.0929014494971,12.6497632831346,0.00408995876374255,-0.00188711850706963
"Freq [GHz]","IWavePhi [deg]","IWaveTheta [deg]","Phi [deg]","Theta [deg]","re(rEPhi) [mV]","im(rEPhi) [mV]","re(rETheta) [mV]","im(rETheta) [mV]"
0.5694,180,180,45,54.736,-24.5218526712614,9.20451078222604,-11.411650373331,5.38262169752201
"Freq [GHz]","IWavePhi [deg]","IWaveTheta [deg]","Phi [deg]","Theta [deg]","re(rEPhi) [mV]","im(rEPhi) [mV]","re(rETheta) [mV]","im(rETheta) [mV]"
0.5694,180,180,135,54.736,24.5396946615473,-9.22731765868716,-11.4324357446559,5.39080358040987
"Freq [GHz]","IWavePhi [deg]","IWaveTheta [deg]","Phi [deg]","Theta [deg]","re(rEPhi) [mV]","im(rEPhi) [mV]","re(rETheta) [mV]","im(rETheta) [mV]"
0.5694,180,180,-45,54.736,-24.5631956304713,9.21513518485164,11.4306634494413,-5.38929330837242
"Freq [GHz]","IWavePhi [deg]","IWaveTheta [deg]","Phi [deg]","Theta [deg]","re(rEPhi) [mV]","im(rEPhi) [mV]","re(rETheta) [mV]","im(rETheta) [mV]"
0.5694,180,180,45,125.264,-28.4086505115013,9.04893731382471,18.9838273183251,-5.1175321108198
"Freq [GHz]","IWavePhi [deg]","IWaveTheta [deg]","Phi [deg]","Theta [deg]","re(rEPhi) [mV]","im(rEPhi) [mV]","re(rETheta) [mV]","im(rETheta) [mV]"
0.5694,180,180,-135,54.736,24.5478228066878,-9.22384260630943,11.4323036084744,-5.39776191939157
"Freq [GHz]","IWavePhi [deg]","IWaveTheta [deg]","Phi [deg]","Theta [deg]","re(rEPhi) [mV]","im(rEPhi) [mV]","re(rETheta) [mV]","im(rETheta) [mV]"
0.5694,180,180,-45,125.264,-28.4158013010702,9.06028403860715,-18.9560594529632,5.11695354569074
"Freq [GHz]","IWavePhi [deg]","IWaveTheta [deg]","Phi [deg]","Theta [deg]","re(rEPhi) [mV]","im(rEPhi) [mV]","re(rETheta) [mV]","im(rETheta) [mV]"
0.5694,180,180,135,125.264,28.3913979232109,-9.04524277309589,18.9797995274159,-5.11394274744486
"Freq [GHz]","IWavePhi [deg]","IWaveTheta [deg]","Phi [deg]","Theta [deg]","re(rEPhi) [mV]","im(rEPhi) [mV]","re(rETheta) [mV]","im(rETheta) [mV]"
0.5694,180,180,-135,125.264,28.426726679286,-9.0292320594371,-18.9783197137933,5.10352503591439
"Freq [GHz]","IWavePhi [deg]","IWaveTheta [deg]","Phi [deg]","Theta [deg]","re(rEPhi) [mV]","im(rEPhi) [mV]","re(rETheta) [mV]","im(rETheta) [mV]"
0.5694,180,0,0,90,-39.3791026970719,13.5880277313769,0.00474471959238201,-0.00409497467736923
"Freq [GHz]","IWavePhi [deg]","IWaveTheta [deg]","Phi [deg]","Theta [deg]","re(rEPhi) [mV]","im(rEPhi) [mV]","re(rETheta) [mV]","im(rETheta) [mV]"
0.5694,180,0,180,90,39.3744596969633,-13.5898685214983,0.00489037172095968,-0.00243654062104822
"Freq [GHz]","IWavePhi [deg]","IWaveTheta [deg]","Phi [deg]","Theta [deg]","re(rEPhi) [mV]","im(rEPhi) [mV]","re(rETheta) [mV]","im(rETheta) [mV]"
0.5694,180,0,90,90,0.00205714972263726,0.00108216077285166,-5.28592813698306,-0.186643057275377
"Freq [GHz]","IWavePhi [deg]","IWaveTheta [deg]","Phi [deg]","Theta [deg]","re(rEPhi) [mV]","im(rEPhi) [mV]","re(rETheta) [mV]","im(rETheta) [mV]"
0.5694,180,0,-90,90,0.00582256999425635,0.0049496812018276,5.29755149787862,0.171780953101149
"Freq [GHz]","IWavePhi [deg]","IWaveTheta [deg]","Phi [deg]","Theta [deg]","re(rEPhi) [mV]","im(rEPhi) [mV]","re(rETheta) [mV]","im(rETheta) [mV]"
0.5694,180,0,0,0,-42.1243893895195,12.6683319019845,0.00119443842595986,0.0030571970347713
"Freq [GHz]","IWavePhi [deg]","IWaveTheta [deg]","Phi [deg]","Theta [deg]","re(rEPhi) [mV]","im(rEPhi) [mV]","re(rETheta) [mV]","im(rETheta) [mV]"
0.5694,180,0,0,180,-32.4745455714618,13.1074694969512,0.001842047765745,-0.00296349507589501
"Freq [GHz]","IWavePhi [deg]","IWaveTheta [deg]","Phi [deg]","Theta [deg]","re(rEPhi) [mV]","im(rEPhi) [mV]","re(rETheta) [mV]","im(rETheta) [mV]"
0.5694,180,0,45,54.736,-28.4097103504443,9.06182831684532,-18.9736490743218,5.12183426181717
"Freq [GHz]","IWavePhi [deg]","IWaveTheta [deg]","Phi [deg]","Theta [deg]","re(rEPhi) [mV]","im(rEPhi) [mV]","re(rETheta) [mV]","im(rETheta) [mV]"
0.5694,180,0,135,54.736,28.4157831618895,-9.0730641640471,-18.9788274863597,5.12428914812869
"Freq [GHz]","IWavePhi [deg]","IWaveTheta [deg]","Phi [deg]","Theta [deg]","re(rEPhi) [mV]","im(rEPhi) [mV]","re(rETheta) [mV]","im(rETheta) [mV]"
0.5694,180,0,-45,54.736,-28.442417617601,9.06278783705786,18.9878937175014,-5.12210595482073
"Freq [GHz]","IWavePhi [deg]","IWaveTheta [deg]","Phi [deg]","Theta [deg]","re(rEPhi) [mV]","im(rEPhi) [mV]","re(rETheta) [mV]","im(rETheta) [mV]"
0.5694,180,0,45,125.264,-24.5721080683729,9.24082936910288,11.4552830087113,-5.39765748789377
"Freq [GHz]","IWavePhi [deg]","IWaveTheta [deg]","Phi [deg]","Theta [deg]","re(rEPhi) [mV]","im(rEPhi) [mV]","re(rETheta) [mV]","im(rETheta) [mV]"
