"Freq [GHz]","IWavePhi [deg]","IWaveTheta [deg]","Phi [deg]","Theta [deg]","re(rEPhi) [mV]","im(rEPhi) [mV]","re(rETheta) [mV]","im(rETheta) [mV]"
0.6406,180,90,0,90,-55.3794395465465,32.9590954508358,0.00874553410099299,-0.00776514662205746
"Freq [GHz]","IWavePhi [deg]","IWaveTheta [deg]","Phi [deg]","Theta [deg]","re(rEPhi) [mV]","im(rEPhi) [mV]","re(rETheta) [mV]","im(rETheta) [mV]"
0.6406,180,90,180,90,55.3516743036498,-32.9369639333485,0.0120361216077819,-0.00339805382137043
"Freq [GHz]","IWavePhi [deg]","IWaveTheta [deg]","Phi [deg]","Theta [deg]","re(rEPhi) [mV]","im(rEPhi) [mV]","re(rETheta) [mV]","im(rETheta) [mV]"
0.6406,180,90,90,90,0.00727624461209614,-0.00401461199956161,0.0130783909088162,-0.0273355859750877
"Freq [GHz]","IWavePhi [deg]","IWaveTheta [deg]","Phi [deg]","Theta [deg]","re(rEPhi) [mV]","im(rEPhi) [mV]","re(rETheta) [mV]","im(rETheta) [mV]"
0.6406,180,90,-90,90,0.0117551968024436,-0.0036232925560755,-0.00369705929074817,0.00226905922973846
"Freq [GHz]","IWavePhi [deg]","IWaveTheta [deg]","Phi [deg]","Theta [deg]","re(rEPhi) [mV]","im(rEPhi) [mV]","re(rETheta) [mV]","im(rETheta) [mV]"
0.6406,180,90,0,0,-52.0270444961133,30.7980389399946,-0.000711910810922369,0.00805786071856826
"Freq [GHz]","IWavePhi [deg]","IWaveTheta [deg]","Phi [deg]","Theta [deg]","re(rEPhi) [mV]","im(rEPhi) [mV]","re(rETheta) [mV]","im(rETheta) [mV]"
0.6406,180,90,0,180,-52.0235787382106,30.7984320920955,-0.00379948128126408,-0.00662004161180222
"Freq [GHz]","IWavePhi [deg]","IWaveTheta [deg]","Phi [deg]","Theta [deg]","re(rEPhi) [mV]","im(rEPhi) [mV]","re(rETheta) [mV]","im(rETheta) [mV]"
0.6406,180,90,45,54.736,-36.8540163949739,21.8315614832522,-21.2098575883243,12.5467325604797
"Freq [GHz]","IWavePhi [deg]","IWaveTheta [deg]","Phi [deg]","Theta [deg]","re(rEPhi) [mV]","im(rEPhi) [mV]","re(rETheta) [mV]","im(rETheta) [mV]"
0.6406,180,90,135,54.736,36.8320049923089,-21.8671172640038,-21.2094528033125,12.5680732029122
"Freq [GHz]","IWavePhi [deg]","IWaveTheta [deg]","Phi [deg]","Theta [deg]","re(rEPhi) [mV]","im(rEPhi) [mV]","re(rETheta) [mV]","im(rETheta) [mV]"
0.6406,180,90,-45,54.736,-36.8955718201166,21.8799842605986,21.2234488121689,-12.5534375197961
"Freq [GHz]","IWavePhi [deg]","IWaveTheta [deg]","Phi [deg]","Theta [deg]","re(rEPhi) [mV]","im(rEPhi) [mV]","re(rETheta) [mV]","im(rETheta) [mV]"
0.6406,180,90,45,125.264,-36.87693409582,21.8741113006235,21.238050070125,-12.5922436488097
"Freq [GHz]","IWavePhi [deg]","IWaveTheta [deg]","Phi [deg]","Theta [deg]","re(rEPhi) [mV]","im(rEPhi) [mV]","re(rETheta) [mV]","im(rETheta) [mV]"
0.6406,180,90,-135,54.736,36.8696183630244,-21.8667953065259,21.2124436835901,-12.5708124731903
"Freq [GHz]","IWavePhi [deg]","IWaveTheta [deg]","Phi [deg]","Theta [deg]","re(rEPhi) [mV]","im(rEPhi) [mV]","re(rETheta) [mV]","im(rETheta) [mV]"
0.6406,180,90,-45,125.264,-36.885349211741,21.908217137368,-21.1965658044749,12.5636264180396
"Freq [GHz]","IWavePhi [deg]","IWaveTheta [deg]","Phi [deg]","Theta [deg]","re(rEPhi) [mV]","im(rEPhi) [mV]","re(rETheta) [mV]","im(rETheta) [mV]"
0.6406,180,90,135,125.264,36.8640305231731,-21.8525057009568,21.2338365024941,-12.5751269673952
"Freq [GHz]","IWavePhi [deg]","IWaveTheta [deg]","Phi [deg]","Theta [deg]","re(rEPhi) [mV]","im(rEPhi) [mV]","re(rETheta) [mV]","im(rETheta) [mV]"
0.6406,180,90,-135,125.264,36.9190274840002,-21.8675560295746,-21.2213493635495,12.5578227040417
"Freq [GHz]","IWavePhi [deg]","IWaveTheta [deg]","Phi [deg]","Theta [deg]","re(rEPhi) [mV]","im(rEPhi) [mV]","re(rETheta) [mV]","im(rETheta) [mV]"
0.6406,360,90,0,90,55.3794395465495,-32.9590954508365,-0.00874553409690581,0.00776514662110676
"Freq [GHz]","IWavePhi [deg]","IWaveTheta [deg]","Phi [deg]","Theta [deg]","re(rEPhi) [mV]","im(rEPhi) [mV]","re(rETheta) [mV]","im(rETheta) [mV]"
0.6406,360,90,180,90,-55.3516743036527,32.9369639333478,-0.0120361216099453,0.00339805382198906
"Freq [GHz]","IWavePhi [deg]","IWaveTheta [deg]","Phi [deg]","Theta [deg]","re(rEPhi) [mV]","im(rEPhi) [mV]","re(rETheta) [mV]","im(rETheta) [mV]"
0.6406,360,90,90,90,-0.00727624458573881,0.00401461203630997,-0.0130783909065688,0.0273355859712815
"Freq [GHz]","IWavePhi [deg]","IWaveTheta [deg]","Phi [deg]","Theta [deg]","re(rEPhi) [mV]","im(rEPhi) [mV]","re(rETheta) [mV]","im(rETheta) [mV]"
0.6406,360,90,-90,90,-0.0117551968292896,0.0036232925904097,0.00369705928983422,-0.00226905923063087
"Freq [GHz]","IWavePhi [deg]","IWaveTheta [deg]","Phi [deg]","Theta [deg]","re(rEPhi) [mV]","im(rEPhi) [mV]","re(rETheta) [mV]","im(rETheta) [mV]"
0.6406,360,90,0,0,52.0270444961109,-30.7980389399965,0.000711910842948462,-0.0080578606885919
"Freq [GHz]","IWavePhi [deg]","IWaveTheta [deg]","Phi [deg]","Theta [deg]","re(rEPhi) [mV]","im(rEPhi) [mV]","re(rETheta) [mV]","im(rETheta) [mV]"
0.6406,360,90,0,180,52.0235787382083,-30.7984320920937,0.00379948124647737,0.00662004164163157
"Freq [GHz]","IWavePhi [deg]","IWaveTheta [deg]","Phi [deg]","Theta [deg]","re(rEPhi) [mV]","im(rEPhi) [mV]","re(rETheta) [mV]","im(rETheta) [mV]"
0.6406,360,90,45,54.736,36.8540163949737,-21.8315614832208,21.2098575883245,-12.5467325604925
"Freq [GHz]","IWavePhi [deg]","IWaveTheta [deg]","Phi [deg]","Theta [deg]","re(rEPhi) [mV]","im(rEPhi) [mV]","re(rETheta) [mV]","im(rETheta) [mV]"
0.6406,360,90,135,54.736,-36.8320049923189,21.8671172640318,21.2094528033055,-12.5680732028921
"Freq [GHz]","IWavePhi [deg]","IWaveTheta [deg]","Phi [deg]","Theta [deg]","re(rEPhi) [mV]","im(rEPhi) [mV]","re(rETheta) [mV]","im(rETheta) [mV]"
0.6406,360,90,-45,54.736,36.8955718201179,-21.8799842606275,-21.2234488121695,12.5534375197767
"Freq [GHz]","IWavePhi [deg]","IWaveTheta [deg]","Phi [deg]","Theta [deg]","re(rEPhi) [mV]","im(rEPhi) [mV]","re(rETheta) [mV]","im(rETheta) [mV]"
0.6406,360,90,45,125.264,36.8769340958135,-21.8741113006551,-21.2380500701279,12.5922436487917
"Freq [GHz]","IWavePhi [deg]","IWaveTheta [deg]","Phi [deg]","Theta [deg]","re(rEPhi) [mV]","im(rEPhi) [mV]","re(rETheta) [mV]","im(rETheta) [mV]"
0.6406,360,90,-135,54.736,-36.8696183630185,21.8667953064931,-21.2124436835952,12.5708124732042
"Freq [GHz]","IWavePhi [deg]","IWaveTheta [deg]","Phi [deg]","Theta [deg]","re(rEPhi) [mV]","im(rEPhi) [mV]","re(rETheta) [mV]","im(rETheta) [mV]"
0.6406,360,90,-45,125.264,36.8853492117515,-21.9082171373387,21.1965658044703,-12.563626418056
"Freq [GHz]","IWavePhi [deg]","IWaveTheta [deg]","Phi [deg]","Theta [deg]","re(rEPhi) [mV]","im(rEPhi) [mV]","re(rETheta) [mV]","im(rETheta) [mV]"
0.6406,360,90,135,125.264,-36.8640305231758,21.8525057009277,-21.2338365024891,12.5751269674139
"Freq [GHz]","IWavePhi [deg]","IWaveTheta [deg]","Phi [deg]","Theta [deg]","re(rEPhi) [mV]","im(rEPhi) [mV]","re(rETheta) [mV]","im(rETheta) [mV]"
0.6406,360,90,-135,125.264,-36.9190274840013,21.867556029607,21.2213493635472,-12.557822704024
"Freq [GHz]","IWavePhi [deg]","IWaveTheta [deg]","Phi [deg]","Theta [deg]","re(rEPhi) [mV]","im(rEPhi) [mV]","re(rETheta) [mV]","im(rETheta) [mV]"
0.6406,270,90,0,90,-9.1924716046096e-15,5.69897934280362e-15,5.76384229937435e-18,-3.46010802989285e-18
"Freq [GHz]","IWavePhi [deg]","IWaveTheta [deg]","Phi [deg]","Theta [deg]","re(rEPhi) [mV]","im(rEPhi) [mV]","re(rETheta) [mV]","im(rETheta) [mV]"
0.6406,270,90,180,90,9.18867587173097e-15,-5.69839555107531e-15,7.13269940107889e-18,-3.62134919025275e-18
"Freq [GHz]","IWavePhi [deg]","IWaveTheta [deg]","Phi [deg]","Theta [deg]","re(rEPhi) [mV]","im(rEPhi) [mV]","re(rETheta) [mV]","im(rETheta) [mV]"
0.6406,270,90,90,90,1.02642372303464e-18,-1.00365981815269e-18,2.16653019020647e-18,-8.15899940903034e-18
"Freq [GHz]","IWavePhi [deg]","IWaveTheta [deg]","Phi [deg]","Theta [deg]","re(rEPhi) [mV]","im(rEPhi) [mV]","re(rETheta) [mV]","im(rETheta) [mV]"
0.6406,270,90,-90,90,2.51868885709975e-18,1.91512348872745e-19,4.57931499288423e-18,1.39621751866728e-18
"Freq [GHz]","IWavePhi [deg]","IWaveTheta [deg]","Phi [deg]","Theta [deg]","re(rEPhi) [mV]","im(rEPhi) [mV]","re(rETheta) [mV]","im(rETheta) [mV]"
0.6406,270,90,0,0,-8.617558146361e-15,5.32761331632169e-15,-3.6999926091112e-19,1.20890201370694e-20
"Freq [GHz]","IWavePhi [deg]","IWaveTheta [deg]","Phi [deg]","Theta [deg]","re(rEPhi) [mV]","im(rEPhi) [mV]","re(rETheta) [mV]","im(rETheta) [mV]"
0.6406,270,90,0,180,-8.62368693200643e-15,5.33417987279868e-15,5.24198938523451e-19,-2.19094105779637e-18
"Freq [GHz]","IWavePhi [deg]","IWaveTheta [deg]","Phi [deg]","Theta [deg]","re(rEPhi) [mV]","im(rEPhi) [mV]","re(rETheta) [mV]","im(rETheta) [mV]"
0.6406,270,90,45,54.736,-6.35142931218749e-15,3.78628658479504e-15,-3.65736390689085e-15,2.17140730790808e-15
"Freq [GHz]","IWavePhi [deg]","IWaveTheta [deg]","Phi [deg]","Theta [deg]","re(rEPhi) [mV]","im(rEPhi) [mV]","re(rETheta) [mV]","im(rETheta) [mV]"
0.6406,270,90,135,54.736,6.35397655923848e-15,-3.7961289338119e-15,-3.65960016891991e-15,2.17774426407697e-15
"Freq [GHz]","IWavePhi [deg]","IWaveTheta [deg]","Phi [deg]","Theta [deg]","re(rEPhi) [mV]","im(rEPhi) [mV]","re(rETheta) [mV]","im(rETheta) [mV]"
0.6406,270,90,-45,54.736,-5.87060611010594e-15,3.78851101496819e-15,3.37881432724506e-15,-2.17427337347626e-15
"Freq [GHz]","IWavePhi [deg]","IWaveTheta [deg]","Phi [deg]","Theta [deg]","re(rEPhi) [mV]","im(rEPhi) [mV]","re(rETheta) [mV]","im(rETheta) [mV]"
0.6406,270,90,45,125.264,-6.35769268519138e-15,3.79068409613471e-15,3.67106134635282e-15,-2.18723530064208e-15
"Freq [GHz]","IWavePhi [deg]","IWaveTheta [deg]","Phi [deg]","Theta [deg]","re(rEPhi) [mV]","im(rEPhi) [mV]","re(rETheta) [mV]","im(rETheta) [mV]"
0.6406,270,90,-135,54.736,5.87122708539754e-15,-3.78961097845807e-15,3.37880415896208e-15,-2.17508782988649e-15
"Freq [GHz]","IWavePhi [deg]","IWaveTheta [deg]","Phi [deg]","Theta [deg]","re(rEPhi) [mV]","im(rEPhi) [mV]","re(rETheta) [mV]","im(rETheta) [mV]"
0.6406,270,90,-45,125.264,-5.86326734998304e-15,3.79557221238875e-15,-3.36369292839908e-15,2.17651693109166e-15
"Freq [GHz]","IWavePhi [deg]","IWaveTheta [deg]","Phi [deg]","Theta [deg]","re(rEPhi) [mV]","im(rEPhi) [mV]","re(rETheta) [mV]","im(rETheta) [mV]"
0.6406,270,90,135,125.264,6.35901860198742e-15,-3.78993112033708e-15,3.66990125796896e-15,-2.18483158784812e-15
"Freq [GHz]","IWavePhi [deg]","IWaveTheta [deg]","Phi [deg]","Theta [deg]","re(rEPhi) [mV]","im(rEPhi) [mV]","re(rETheta) [mV]","im(rETheta) [mV]"
0.6406,270,90,-135,125.264,5.87355966843235e-15,-3.79100368936642e-15,-3.37183414595881e-15,2.17701776338679e-15
"Freq [GHz]","IWavePhi [deg]","IWaveTheta [deg]","Phi [deg]","Theta [deg]","re(rEPhi) [mV]","im(rEPhi) [mV]","re(rETheta) [mV]","im(rETheta) [mV]"
0.6406,90,90,0,90,3.06698935204668e-15,-1.89707685272017e-15,-1.98556810420362e-18,2.07499797315615e-18
"Freq [GHz]","IWavePhi [deg]","IWaveTheta [deg]","Phi [deg]","Theta [deg]","re(rEPhi) [mV]","im(rEPhi) [mV]","re(rETheta) [mV]","im(rETheta) [mV]"
0.6406,90,90,180,90,-3.06579132407573e-15,1.89680923418786e-15,-2.62827790071728e-18,2.37422014040876e-18
"Freq [GHz]","IWavePhi [deg]","IWaveTheta [deg]","Phi [deg]","Theta [deg]","re(rEPhi) [mV]","im(rEPhi) [mV]","re(rETheta) [mV]","im(rETheta) [mV]"
0.6406,90,90,90,90,-4.22916795566874e-19,2.2043412247633e-19,-4.35752006248939e-19,2.79079380810033e-18
"Freq [GHz]","IWavePhi [deg]","IWaveTheta [deg]","Phi [deg]","Theta [deg]","re(rEPhi) [mV]","im(rEPhi) [mV]","re(rETheta) [mV]","im(rETheta) [mV]"
0.6406,90,90,-90,90,-7.45308061078819e-19,2.57034166269388e-20,-2.13215376447783e-18,5.81413273972942e-19
"Freq [GHz]","IWavePhi [deg]","IWaveTheta [deg]","Phi [deg]","Theta [deg]","re(rEPhi) [mV]","im(rEPhi) [mV]","re(rETheta) [mV]","im(rETheta) [mV]"
0.6406,90,90,0,0,2.87444405570869e-15,-1.77341206199175e-15,5.71519507232744e-20,8.57586259323567e-20
"Freq [GHz]","IWavePhi [deg]","IWaveTheta [deg]","Phi [deg]","Theta [deg]","re(rEPhi) [mV]","im(rEPhi) [mV]","re(rETheta) [mV]","im(rETheta) [mV]"
0.6406,90,90,0,180,2.87779803127953e-15,-1.77528931580735e-15,-2.6971783826244e-19,6.79053422879786e-19
"Freq [GHz]","IWavePhi [deg]","IWaveTheta [deg]","Phi [deg]","Theta [deg]","re(rEPhi) [mV]","im(rEPhi) [mV]","re(rETheta) [mV]","im(rETheta) [mV]"
0.6406,90,90,45,54.736,1.95583161771186e-15,-1.25837856681781e-15,1.12390141249796e-15,-7.21135544913799e-16
"Freq [GHz]","IWavePhi [deg]","IWaveTheta [deg]","Phi [deg]","Theta [deg]","re(rEPhi) [mV]","im(rEPhi) [mV]","re(rETheta) [mV]","im(rETheta) [mV]"
0.6406,90,90,135,54.736,-1.9565386142677e-15,1.26136899542811e-15,1.12479207969871e-15,-7.23239737369463e-16
"Freq [GHz]","IWavePhi [deg]","IWaveTheta [deg]","Phi [deg]","Theta [deg]","re(rEPhi) [mV]","im(rEPhi) [mV]","re(rETheta) [mV]","im(rETheta) [mV]"
0.6406,90,90,-45,54.736,2.12145732111147e-15,-1.26363511316521e-15,-1.223768432301e-15,7.26185342346379e-16
"Freq [GHz]","IWavePhi [deg]","IWaveTheta [deg]","Phi [deg]","Theta [deg]","re(rEPhi) [mV]","im(rEPhi) [mV]","re(rETheta) [mV]","im(rETheta) [mV]"
0.6406,90,90,45,125.264,1.95835415730925e-15,-1.25992845004736e-15,-1.12833294613938e-15,7.27261701842898e-16
"Freq [GHz]","IWavePhi [deg]","IWaveTheta [deg]","Phi [deg]","Theta [deg]","re(rEPhi) [mV]","im(rEPhi) [mV]","re(rETheta) [mV]","im(rETheta) [mV]"
0.6406,90,90,-135,54.736,-2.12130045035729e-15,1.26399640104762e-15,-1.22381191549651e-15,7.26527695350727e-16
"Freq [GHz]","IWavePhi [deg]","IWaveTheta [deg]","Phi [deg]","Theta [deg]","re(rEPhi) [mV]","im(rEPhi) [mV]","re(rETheta) [mV]","im(rETheta) [mV]"
0.6406,90,90,-45,125.264,2.11947932764977e-15,-1.26581812862291e-15,1.218241342678e-15,-7.24788792434443e-16
"Freq [GHz]","IWavePhi [deg]","IWaveTheta [deg]","Phi [deg]","Theta [deg]","re(rEPhi) [mV]","im(rEPhi) [mV]","re(rETheta) [mV]","im(rETheta) [mV]"
0.6406,90,90,135,125.264,-1.95875207566153e-15,1.25928630088337e-15,-1.12792139395939e-15,7.265898996162e-16
"Freq [GHz]","IWavePhi [deg]","IWaveTheta [deg]","Phi [deg]","Theta [deg]","re(rEPhi) [mV]","im(rEPhi) [mV]","re(rETheta) [mV]","im(rETheta) [mV]"
0.6406,90,90,-135,125.264,-2.12274534906689e-15,1.26410919351768e-15,1.22094465224979e-15,-7.24977938657041e-16
"Freq [GHz]","IWavePhi [deg]","IWaveTheta [deg]","Phi [deg]","Theta [deg]","re(rEPhi) [mV]","im(rEPhi) [mV]","re(rETheta) [mV]","im(rETheta) [mV]"
0.6406,180,180,0,90,-51.9470311152658,30.7021857033433,-0.00206657064998281,0.00622952141746429
"Freq [GHz]","IWavePhi [deg]","IWaveTheta [deg]","Phi [deg]","Theta [deg]","re(rEPhi) [mV]","im(rEPhi) [mV]","re(rETheta) [mV]","im(rETheta) [mV]"
0.6406,180,180,180,90,51.9394708209015,-30.6925963559698,0.010142044007334,-0.00266871069941155
"Freq [GHz]","IWavePhi [deg]","IWaveTheta [deg]","Phi [deg]","Theta [deg]","re(rEPhi) [mV]","im(rEPhi) [mV]","re(rETheta) [mV]","im(rETheta) [mV]"
0.6406,180,180,90,90,0.00589365078534924,0.00212155065682189,6.62699642565372,0.221870119112677
"Freq [GHz]","IWavePhi [deg]","IWaveTheta [deg]","Phi [deg]","Theta [deg]","re(rEPhi) [mV]","im(rEPhi) [mV]","re(rETheta) [mV]","im(rETheta) [mV]"
0.6406,180,180,-90,90,0.00534091034570792,-0.00217496704996699,-6.63774204405082,-0.246664201386898
"Freq [GHz]","IWavePhi [deg]","IWaveTheta [deg]","Phi [deg]","Theta [deg]","re(rEPhi) [mV]","im(rEPhi) [mV]","re(rETheta) [mV]","im(rETheta) [mV]"
0.6406,180,180,0,0,-42.6964676330043,29.1114399386352,0.00396763710971751,0.0136536820138241
"Freq [GHz]","IWavePhi [deg]","IWaveTheta [deg]","Phi [deg]","Theta [deg]","re(rEPhi) [mV]","im(rEPhi) [mV]","re(rETheta) [mV]","im(rETheta) [mV]"
0.6406,180,180,0,180,-54.3459622870751,28.3701087173723,-0.00636535213259254,-0.016776585008313
"Freq [GHz]","IWavePhi [deg]","IWaveTheta [deg]","Phi [deg]","Theta [deg]","re(rEPhi) [mV]","im(rEPhi) [mV]","re(rETheta) [mV]","im(rETheta) [mV]"
0.6406,180,180,45,54.736,-32.1768365652562,20.5243503597078,-15.0548235658947,11.9259109827169
"Freq [GHz]","IWavePhi [deg]","IWaveTheta [deg]","Phi [deg]","Theta [deg]","re(rEPhi) [mV]","im(rEPhi) [mV]","re(rETheta) [mV]","im(rETheta) [mV]"
0.6406,180,180,135,54.736,32.1560700176403,-20.5419844951613,-15.0560793375293,11.9323479998105
"Freq [GHz]","IWavePhi [deg]","IWaveTheta [deg]","Phi [deg]","Theta [deg]","re(rEPhi) [mV]","im(rEPhi) [mV]","re(rETheta) [mV]","im(rETheta) [mV]"
0.6406,180,180,-45,54.736,-32.2107578737571,20.5485380011327,15.0689729325784,-11.9181260070634
"Freq [GHz]","IWavePhi [deg]","IWaveTheta [deg]","Phi [deg]","Theta [deg]","re(rEPhi) [mV]","im(rEPhi) [mV]","re(rETheta) [mV]","im(rETheta) [mV]"
0.6406,180,180,45,125.264,-36.839075838315,20.2634857010565,24.529503373578,-11.5359309014455
"Freq [GHz]","IWavePhi [deg]","IWaveTheta [deg]","Phi [deg]","Theta [deg]","re(rEPhi) [mV]","im(rEPhi) [mV]","re(rETheta) [mV]","im(rETheta) [mV]"
0.6406,180,180,-135,54.736,32.1895560626523,-20.5471626408619,15.0569012979638,-11.9385371643895
"Freq [GHz]","IWavePhi [deg]","IWaveTheta [deg]","Phi [deg]","Theta [deg]","re(rEPhi) [mV]","im(rEPhi) [mV]","re(rETheta) [mV]","im(rETheta) [mV]"
0.6406,180,180,-45,125.264,-36.8555142148092,20.2831682181408,-24.5084606725822,11.5185857322377
"Freq [GHz]","IWavePhi [deg]","IWaveTheta [deg]","Phi [deg]","Theta [deg]","re(rEPhi) [mV]","im(rEPhi) [mV]","re(rETheta) [mV]","im(rETheta) [mV]"
0.6406,180,180,135,125.264,36.8363506529063,-20.2400365472753,24.532621067115,-11.5205507923783
"Freq [GHz]","IWavePhi [deg]","IWaveTheta [deg]","Phi [deg]","Theta [deg]","re(rEPhi) [mV]","im(rEPhi) [mV]","re(rETheta) [mV]","im(rETheta) [mV]"
0.6406,180,180,-135,125.264,36.8719452296642,-20.2510262891055,-24.5159653823885,11.5151209065658
"Freq [GHz]","IWavePhi [deg]","IWaveTheta [deg]","Phi [deg]","Theta [deg]","re(rEPhi) [mV]","im(rEPhi) [mV]","re(rETheta) [mV]","im(rETheta) [mV]"
0.6406,180,0,0,90,-51.9549695528421,30.7621524824732,0.00575846786427451,-0.00587095217653574
"Freq [GHz]","IWavePhi [deg]","IWaveTheta [deg]","Phi [deg]","Theta [deg]","re(rEPhi) [mV]","im(rEPhi) [mV]","re(rETheta) [mV]","im(rETheta) [mV]"
0.6406,180,0,180,90,51.9460875607779,-30.7539808224079,0.012045291708647,-0.00434827897104879
"Freq [GHz]","IWavePhi [deg]","IWaveTheta [deg]","Phi [deg]","Theta [deg]","re(rEPhi) [mV]","im(rEPhi) [mV]","re(rETheta) [mV]","im(rETheta) [mV]"
0.6406,180,0,90,90,0.0089337107032219,0.0012349600481651,-6.61584107382016,-0.260630893234578
"Freq [GHz]","IWavePhi [deg]","IWaveTheta [deg]","Phi [deg]","Theta [deg]","re(rEPhi) [mV]","im(rEPhi) [mV]","re(rETheta) [mV]","im(rETheta) [mV]"
0.6406,180,0,-90,90,0.00870761651610147,-0.00599868225006211,6.61718011493852,0.23450477138849
"Freq [GHz]","IWavePhi [deg]","IWaveTheta [deg]","Phi [deg]","Theta [deg]","re(rEPhi) [mV]","im(rEPhi) [mV]","re(rETheta) [mV]","im(rETheta) [mV]"
0.6406,180,0,0,0,-54.39891251839,28.3825863933825,0.00017416139963535,0.00866197525416648
"Freq [GHz]","IWavePhi [deg]","IWaveTheta [deg]","Phi [deg]","Theta [deg]","re(rEPhi) [mV]","im(rEPhi) [mV]","re(rETheta) [mV]","im(rETheta) [mV]"
0.6406,180,0,0,180,-42.705576736284,29.1290920667062,-0.00934173342338318,-0.00547523405543267
"Freq [GHz]","IWavePhi [deg]","IWaveTheta [deg]","Phi [deg]","Theta [deg]","re(rEPhi) [mV]","im(rEPhi) [mV]","re(rETheta) [mV]","im(rETheta) [mV]"
0.6406,180,0,45,54.736,-36.8327713318721,20.2475687093869,-24.5156016273927,11.5217956952531
"Freq [GHz]","IWavePhi [deg]","IWaveTheta [deg]","Phi [deg]","Theta [deg]","re(rEPhi) [mV]","im(rEPhi) [mV]","re(rETheta) [mV]","im(rETheta) [mV]"
0.6406,180,0,135,54.736,36.8294550603948,-20.2876968933388,-24.513181809564,11.5445391417275
"Freq [GHz]","IWavePhi [deg]","IWaveTheta [deg]","Phi [deg]","Theta [deg]","re(rEPhi) [mV]","im(rEPhi) [mV]","re(rETheta) [mV]","im(rETheta) [mV]"
0.6406,180,0,-45,54.736,-36.8749942595936,20.2907150748887,24.5305086813158,-11.5226434050853
"Freq [GHz]","IWavePhi [deg]","IWaveTheta [deg]","Phi [deg]","Theta [deg]","re(rEPhi) [mV]","im(rEPhi) [mV]","re(rETheta) [mV]","im(rETheta) [mV]"
0.6406,180,0,45,125.264,-32.188303664692,20.5894579852737,15.0736451425763,-11.967446151989
"Freq [GHz]","IWavePhi [deg]","IWaveTheta [deg]","Phi [deg]","Theta [deg]","re(rEPhi) [mV]","im(rEPhi) [mV]","re(rETheta) [mV]","im(rETheta) [mV]"
0.6406,180,0,-135,54.736,36.8590569888025,-20.2903008864865,24.5223715857289,-11.5446234392123
