"Freq [GHz]","IWavePhi [deg]","IWaveTheta [deg]","Phi [deg]","Theta [deg]","re(rEPhi) [mV]","im(rEPhi) [mV]","re(rETheta) [mV]","im(rETheta) [mV]"
1.6371,180,90,0,90,26.3756551036078,67.9231085934706,-0.00975079331994995,-0.0326200513989522
"Freq [GHz]","IWavePhi [deg]","IWaveTheta [deg]","Phi [deg]","Theta [deg]","re(rEPhi) [mV]","im(rEPhi) [mV]","re(rETheta) [mV]","im(rETheta) [mV]"
1.6371,180,90,180,90,-26.3766077046461,-68.0510552395387,0.0103278409278088,0.0166172235751281
"Freq [GHz]","IWavePhi [deg]","IWaveTheta [deg]","Phi [deg]","Theta [deg]","re(rEPhi) [mV]","im(rEPhi) [mV]","re(rETheta) [mV]","im(rETheta) [mV]"
1.6371,180,90,90,90,-0.00794845336418809,-0.014016804059544,0.00396154563760294,-0.049351939801135
"Freq [GHz]","IWavePhi [deg]","IWaveTheta [deg]","Phi [deg]","Theta [deg]","re(rEPhi) [mV]","im(rEPhi) [mV]","re(rETheta) [mV]","im(rETheta) [mV]"
1.6371,180,90,-90,90,0.045074031268775,-0.0140726804503075,-0.0743244754518183,0.0756358600225482
"Freq [GHz]","IWavePhi [deg]","IWaveTheta [deg]","Phi [deg]","Theta [deg]","re(rEPhi) [mV]","im(rEPhi) [mV]","re(rETheta) [mV]","im(rETheta) [mV]"
1.6371,180,90,0,0,12.6386064429554,43.851560898488,-0.00664589829160453,0.00297711657860044
"Freq [GHz]","IWavePhi [deg]","IWaveTheta [deg]","Phi [deg]","Theta [deg]","re(rEPhi) [mV]","im(rEPhi) [mV]","re(rETheta) [mV]","im(rETheta) [mV]"
1.6371,180,90,0,180,12.458278598097,43.9162381999041,-0.0042648920842187,0.0335680592571483
"Freq [GHz]","IWavePhi [deg]","IWaveTheta [deg]","Phi [deg]","Theta [deg]","re(rEPhi) [mV]","im(rEPhi) [mV]","re(rETheta) [mV]","im(rETheta) [mV]"
1.6371,180,90,0,90,-26.3756551036377,-67.9231085934908,0.00975079331981348,0.0326200513983596
"Freq [GHz]","IWavePhi [deg]","IWaveTheta [deg]","Phi [deg]","Theta [deg]","re(rEPhi) [mV]","im(rEPhi) [mV]","re(rETheta) [mV]","im(rETheta) [mV]"
1.6371,180,90,180,90,26.3766077046163,68.0510552395588,-0.0103278409276795,-0.0166172235757188
"Freq [GHz]","IWavePhi [deg]","IWaveTheta [deg]","Phi [deg]","Theta [deg]","re(rEPhi) [mV]","im(rEPhi) [mV]","re(rETheta) [mV]","im(rETheta) [mV]"
1.6371,180,90,90,90,0.00794845337183127,0.0140168040482703,-0.00396154563719486,0.0493519398016947
"Freq [GHz]","IWavePhi [deg]","IWaveTheta [deg]","Phi [deg]","Theta [deg]","re(rEPhi) [mV]","im(rEPhi) [mV]","re(rETheta) [mV]","im(rETheta) [mV]"
1.6371,180,90,-90,90,-0.0450740312693472,0.0140726804598763,0.0743244754514152,-0.0756358600219745
"Freq [GHz]","IWavePhi [deg]","IWaveTheta [deg]","Phi [deg]","Theta [deg]","re(rEPhi) [mV]","im(rEPhi) [mV]","re(rETheta) [mV]","im(rETheta) [mV]"
1.6371,180,90,0,0,-12.6386064429477,-43.8515608984528,0.00664589828942146,-0.00297711656728146
"Freq [GHz]","IWavePhi [deg]","IWaveTheta [deg]","Phi [deg]","Theta [deg]","re(rEPhi) [mV]","im(rEPhi) [mV]","re(rETheta) [mV]","im(rETheta) [mV]"
1.6371,180,90,0,180,-12.4582785981048,-43.9162381998689,0.004264892090943,-0.0335680592667735
"Freq [GHz]","IWavePhi [deg]","IWaveTheta [deg]","Phi [deg]","Theta [deg]","re(rEPhi) [mV]","im(rEPhi) [mV]","re(rETheta) [mV]","im(rETheta) [mV]"
1.6371,180,90,0,90,2.27553507358572e-15,4.00919956153942e-15,-1.44716473630831e-15,3.7637050405175e-16
"Freq [GHz]","IWavePhi [deg]","IWaveTheta [deg]","Phi [deg]","Theta [deg]","re(rEPhi) [mV]","im(rEPhi) [mV]","re(rETheta) [mV]","im(rETheta) [mV]"
1.6371,180,90,180,90,-2.29485559374162e-15,-4.0047116049395e-15,-1.41932611832567e-15,3.55919502047945e-16
"Freq [GHz]","IWavePhi [deg]","IWaveTheta [deg]","Phi [deg]","Theta [deg]","re(rEPhi) [mV]","im(rEPhi) [mV]","re(rETheta) [mV]","im(rETheta) [mV]"
1.6371,180,90,90,90,7.78430248434889e-18,-8.51122589411646e-18,-3.14608654835045e-15,5.5336136500188e-15
"Freq [GHz]","IWavePhi [deg]","IWaveTheta [deg]","Phi [deg]","Theta [deg]","re(rEPhi) [mV]","im(rEPhi) [mV]","re(rETheta) [mV]","im(rETheta) [mV]"
1.6371,180,90,-90,90,-2.39031194463705e-18,1.03897957504185e-17,4.20383918127911e-15,-4.74427880722182e-15
"Freq [GHz]","IWavePhi [deg]","IWaveTheta [deg]","Phi [deg]","Theta [deg]","re(rEPhi) [mV]","im(rEPhi) [mV]","re(rETheta) [mV]","im(rETheta) [mV]"
1.6371,180,90,0,0,4.84662560359404e-15,-6.40795320752175e-16,4.07016717467456e-18,1.85404495323793e-18
"Freq [GHz]","IWavePhi [deg]","IWaveTheta [deg]","Phi [deg]","Theta [deg]","re(rEPhi) [mV]","im(rEPhi) [mV]","re(rETheta) [mV]","im(rETheta) [mV]"
1.6371,180,90,0,180,-2.26017265195183e-15,5.80630239031639e-15,-1.19071537812781e-18,-1.00012582928512e-17
"Freq [GHz]","IWavePhi [deg]","IWaveTheta [deg]","Phi [deg]","Theta [deg]","re(rEPhi) [mV]","im(rEPhi) [mV]","re(rETheta) [mV]","im(rETheta) [mV]"
1.6371,180,90,0,90,-1.40021440483758e-17,1.05168795328807e-17,1.42672108515341e-15,-3.72609251978861e-16
"Freq [GHz]","IWavePhi [deg]","IWaveTheta [deg]","Phi [deg]","Theta [deg]","re(rEPhi) [mV]","im(rEPhi) [mV]","re(rETheta) [mV]","im(rETheta) [mV]"
1.6371,180,90,180,90,3.68777706015514e-18,-3.47339539517806e-18,1.45388336712911e-15,-3.67602456955263e-16
"Freq [GHz]","IWavePhi [deg]","IWaveTheta [deg]","Phi [deg]","Theta [deg]","re(rEPhi) [mV]","im(rEPhi) [mV]","re(rETheta) [mV]","im(rETheta) [mV]"
1.6371,180,90,90,90,-4.19642209373647e-18,1.22954506582581e-19,-4.22186365956281e-15,4.76061075546729e-15
"Freq [GHz]","IWavePhi [deg]","IWaveTheta [deg]","Phi [deg]","Theta [deg]","re(rEPhi) [mV]","im(rEPhi) [mV]","re(rETheta) [mV]","im(rETheta) [mV]"
1.6371,180,90,-90,90,5.5301394505634e-18,2.32769218903415e-18,3.15195210802418e-15,-5.57170421269422e-15
"Freq [GHz]","IWavePhi [deg]","IWaveTheta [deg]","Phi [deg]","Theta [deg]","re(rEPhi) [mV]","im(rEPhi) [mV]","re(rETheta) [mV]","im(rETheta) [mV]"
1.6371,180,90,0,0,3.54941419549344e-15,-3.24099967390983e-15,-2.55682876099063e-18,-2.76157247860637e-18
"Freq [GHz]","IWavePhi [deg]","IWaveTheta [deg]","Phi [deg]","Theta [deg]","re(rEPhi) [mV]","im(rEPhi) [mV]","re(rETheta) [mV]","im(rETheta) [mV]"
1.6371,180,90,0,180,-3.57476214234124e-15,3.24617273029846e-15,-2.74609971996797e-19,-9.82969618403683e-20
"Freq [GHz]","IWavePhi [deg]","IWaveTheta [deg]","Phi [deg]","Theta [deg]","re(rEPhi) [mV]","im(rEPhi) [mV]","re(rETheta) [mV]","im(rETheta) [mV]"
1.6371,180,90,0,90,12.5866823476842,43.8951485341584,-0.0584316372307106,0.046153537086852
"Freq [GHz]","IWavePhi [deg]","IWaveTheta [deg]","Phi [deg]","Theta [deg]","re(rEPhi) [mV]","im(rEPhi) [mV]","re(rETheta) [mV]","im(rETheta) [mV]"
1.6371,180,90,180,90,-12.6444053321252,-44.159553413849,-0.165519637546046,0.01673193302617
"Freq [GHz]","IWavePhi [deg]","IWaveTheta [deg]","Phi [deg]","Theta [deg]","re(rEPhi) [mV]","im(rEPhi) [mV]","re(rETheta) [mV]","im(rETheta) [mV]"
1.6371,180,90,90,90,0.0320243181650741,-0.00373902113867228,22.1565923892711,-20.2311153235985
"Freq [GHz]","IWavePhi [deg]","IWaveTheta [deg]","Phi [deg]","Theta [deg]","re(rEPhi) [mV]","im(rEPhi) [mV]","re(rETheta) [mV]","im(rETheta) [mV]"
1.6371,180,90,-90,90,0.00068342478311409,-0.00322549707693646,-22.101751795098,20.3098709699065
"Freq [GHz]","IWavePhi [deg]","IWaveTheta [deg]","Phi [deg]","Theta [deg]","re(rEPhi) [mV]","im(rEPhi) [mV]","re(rETheta) [mV]","im(rETheta) [mV]"
1.6371,180,90,0,0,32.705370384633,56.9216623334306,0.0201627291294498,0.0251396848007967
"Freq [GHz]","IWavePhi [deg]","IWaveTheta [deg]","Phi [deg]","Theta [deg]","re(rEPhi) [mV]","im(rEPhi) [mV]","re(rETheta) [mV]","im(rETheta) [mV]"
1.6371,180,90,0,180,-6.40984728556072,0.175346029855665,-0.0091348139199091,0.0169004537922035
"Freq [GHz]","IWavePhi [deg]","IWaveTheta [deg]","Phi [deg]","Theta [deg]","re(rEPhi) [mV]","im(rEPhi) [mV]","re(rETheta) [mV]","im(rETheta) [mV]"
1.6371,180,90,0,90,12.5689418188313,44.1389787518032,0.0195666849299129,-0.086741730243776
"Freq [GHz]","IWavePhi [deg]","IWaveTheta [deg]","Phi [deg]","Theta [deg]","re(rEPhi) [mV]","im(rEPhi) [mV]","re(rETheta) [mV]","im(rETheta) [mV]"
1.6371,180,90,180,90,-12.5293829807508,-44.0437297260578,0.157227146867082,0.00781145408948243
"Freq [GHz]","IWavePhi [deg]","IWaveTheta [deg]","Phi [deg]","Theta [deg]","re(rEPhi) [mV]","im(rEPhi) [mV]","re(rETheta) [mV]","im(rETheta) [mV]"
1.6371,180,90,90,90,-0.0416005581147647,-0.0182040765113834,-22.1176643991582,20.1549407375177
"Freq [GHz]","IWavePhi [deg]","IWaveTheta [deg]","Phi [deg]","Theta [deg]","re(rEPhi) [mV]","im(rEPhi) [mV]","re(rETheta) [mV]","im(rETheta) [mV]"
1.6371,180,90,-90,90,0.0532319766640482,-0.0112659072547009,22.091196672976,-20.1964019508015
"Freq [GHz]","IWavePhi [deg]","IWaveTheta [deg]","Phi [deg]","Theta [deg]","re(rEPhi) [mV]","im(rEPhi) [mV]","re(rETheta) [mV]","im(rETheta) [mV]"
1.6371,180,90,0,0,-6.34010645773348,0.349315890361782,-0.0280356328602575,-0.0167992091904571
"Freq [GHz]","IWavePhi [deg]","IWaveTheta [deg]","Phi [deg]","Theta [deg]","re(rEPhi) [mV]","im(rEPhi) [mV]","re(rETheta) [mV]","im(rETheta) [mV]"
1.6371,180,90,0,180,32.4825285629558,57.1614978617888,0.00248364217808478,0.0279439068225909
"Freq [GHz]","IWavePhi [deg]","IWaveTheta [deg]","Phi [deg]","Theta [deg]","re(rEPhi) [mV]","im(rEPhi) [mV]","re(rETheta) [mV]","im(rETheta) [mV]"
1.6371,180,90,0,90,0.104873838063042,0.00357953799480024,51.188820675129,-86.9216455490801
"Freq [GHz]","IWavePhi [deg]","IWaveTheta [deg]","Phi [deg]","Theta [deg]","re(rEPhi) [mV]","im(rEPhi) [mV]","re(rETheta) [mV]","im(rETheta) [mV]"
1.6371,180,90,180,90,-0.0831166119323274,0.0528696689484685,51.1599399481004,-86.9187785038569
"Freq [GHz]","IWavePhi [deg]","IWaveTheta [deg]","Phi [deg]","Theta [deg]","re(rEPhi) [mV]","im(rEPhi) [mV]","re(rETheta) [mV]","im(rETheta) [mV]"
1.6371,180,90,90,90,0.00304963500341909,0.0133218932182502,8.69292492461033,-2.13100771345415
"Freq [GHz]","IWavePhi [deg]","IWaveTheta [deg]","Phi [deg]","Theta [deg]","re(rEPhi) [mV]","im(rEPhi) [mV]","re(rETheta) [mV]","im(rETheta) [mV]"
1.6371,180,90,-90,90,0.0379145025354601,0.0245002705914028,8.42510728421037,-2.1860729137462
"Freq [GHz]","IWavePhi [deg]","IWaveTheta [deg]","Phi [deg]","Theta [deg]","re(rEPhi) [mV]","im(rEPhi) [mV]","re(rETheta) [mV]","im(rETheta) [mV]"
1.6371,180,90,0,0,0.00205132872192766,0.0792868963228699,-0.0160106913357013,-0.0681809243202402
"Freq [GHz]","IWavePhi [deg]","IWaveTheta [deg]","Phi [deg]","Theta [deg]","re(rEPhi) [mV]","im(rEPhi) [mV]","re(rETheta) [mV]","im(rETheta) [mV]"
1.6371,180,90,0,180,0.114896806722902,0.0052852486552825,0.0804482758498072,0.0249291934046207
"Freq [GHz]","IWavePhi [deg]","IWaveTheta [deg]","Phi [deg]","Theta [deg]","re(rEPhi) [mV]","im(rEPhi) [mV]","re(rETheta) [mV]","im(rETheta) [mV]"
1.6371,180,90,0,90,0.104873838063042,0.00357953799480024,51.188820675129,-86.9216455490801
"Freq [GHz]","IWavePhi [deg]","IWaveTheta [deg]","Phi [deg]","Theta [deg]","re(rEPhi) [mV]","im(rEPhi) [mV]","re(rETheta) [mV]","im(rETheta) [mV]"
1.6371,180,90,180,90,-0.0831166119323274,0.0528696689484685,51.1599399481004,-86.9187785038569
"Freq [GHz]","IWavePhi [deg]","IWaveTheta [deg]","Phi [deg]","Theta [deg]","re(rEPhi) [mV]","im(rEPhi) [mV]","re(rETheta) [mV]","im(rETheta) [mV]"
1.6371,180,90,90,90,0.00304963500341909,0.0133218932182502,8.69292492461033,-2.13100771345415
"Freq [GHz]","IWavePhi [deg]","IWaveTheta [deg]","Phi [deg]","Theta [deg]","re(rEPhi) [mV]","im(rEPhi) [mV]","re(rETheta) [mV]","im(rETheta) [mV]"
1.6371,180,90,-90,90,0.0379145025354601,0.0245002705914028,8.42510728421037,-2.1860729137462
"Freq [GHz]","IWavePhi [deg]","IWaveTheta [deg]","Phi [deg]","Theta [deg]","re(rEPhi) [mV]","im(rEPhi) [mV]","re(rETheta) [mV]","im(rETheta) [mV]"
1.6371,180,90,0,0,0.00205132872192766,0.0792868963228699,-0.0160106913357013,-0.0681809243202402
"Freq [GHz]","IWavePhi [deg]","IWaveTheta [deg]","Phi [deg]","Theta [deg]","re(rEPhi) [mV]","im(rEPhi) [mV]","re(rETheta) [mV]","im(rETheta) [mV]"
1.6371,180,90,0,180,0.114896806722902,0.0052852486552825,0.0804482758498072,0.0249291934046207
"Freq [GHz]","IWavePhi [deg]","IWaveTheta [deg]","Phi [deg]","Theta [deg]","re(rEPhi) [mV]","im(rEPhi) [mV]","re(rETheta) [mV]","im(rETheta) [mV]"
1.6371,180,90,0,90,0.100243275957278,-0.104068707180839,8.79227231467278,-2.20957005008173
"Freq [GHz]","IWavePhi [deg]","IWaveTheta [deg]","Phi [deg]","Theta [deg]","re(rEPhi) [mV]","im(rEPhi) [mV]","re(rETheta) [mV]","im(rETheta) [mV]"
1.6371,180,90,180,90,-0.0315603592997174,0.0509788214725311,8.61190969666903,-2.19190804900755
"Freq [GHz]","IWavePhi [deg]","IWaveTheta [deg]","Phi [deg]","Theta [deg]","re(rEPhi) [mV]","im(rEPhi) [mV]","re(rETheta) [mV]","im(rETheta) [mV]"
1.6371,180,90,90,90,0.0311067081584633,-0.0233903550737339,19.5771855493652,-34.6703342131776
"Freq [GHz]","IWavePhi [deg]","IWaveTheta [deg]","Phi [deg]","Theta [deg]","re(rEPhi) [mV]","im(rEPhi) [mV]","re(rETheta) [mV]","im(rETheta) [mV]"
1.6371,180,90,-90,90,-0.0318654353415184,0.00199898773651158,-26.0078756948841,29.7818437148105
"Freq [GHz]","IWavePhi [deg]","IWaveTheta [deg]","Phi [deg]","Theta [deg]","re(rEPhi) [mV]","im(rEPhi) [mV]","re(rETheta) [mV]","im(rETheta) [mV]"
1.6371,180,90,0,0,-22.0106750881775,20.1908468963677,0.0334432670625919,0.00237341515247112
"Freq [GHz]","IWavePhi [deg]","IWaveTheta [deg]","Phi [deg]","Theta [deg]","re(rEPhi) [mV]","im(rEPhi) [mV]","re(rETheta) [mV]","im(rETheta) [mV]"
1.6371,180,90,0,180,22.0952535423837,-20.2420210658918,0.00629712825882226,0.013119088254285
"Freq [GHz]","IWavePhi [deg]","IWaveTheta [deg]","Phi [deg]","Theta [deg]","re(rEPhi) [mV]","im(rEPhi) [mV]","re(rETheta) [mV]","im(rETheta) [mV]"
1.6371,180,90,0,90,-0.0870714085779776,0.0653985825969945,8.87196674651511,-2.31704512341184
"Freq [GHz]","IWavePhi [deg]","IWaveTheta [deg]","Phi [deg]","Theta [deg]","re(rEPhi) [mV]","im(rEPhi) [mV]","re(rETheta) [mV]","im(rETheta) [mV]"
1.6371,180,90,180,90,0.0229321236674603,-0.0215991037415428,9.04087379469087,-2.28591062126421
"Freq [GHz]","IWavePhi [deg]","IWaveTheta [deg]","Phi [deg]","Theta [deg]","re(rEPhi) [mV]","im(rEPhi) [mV]","re(rETheta) [mV]","im(rETheta) [mV]"
1.6371,180,90,90,90,-0.0260951555858414,0.000764525680151362,-26.253368746097,29.6035302146342
"Freq [GHz]","IWavePhi [deg]","IWaveTheta [deg]","Phi [deg]","Theta [deg]","re(rEPhi) [mV]","im(rEPhi) [mV]","re(rETheta) [mV]","im(rETheta) [mV]"
1.6371,180,90,-90,90,0.0343887772743335,0.0144745812012418,19.6001974085933,-34.6472591559364
"Freq [GHz]","IWavePhi [deg]","IWaveTheta [deg]","Phi [deg]","Theta [deg]","re(rEPhi) [mV]","im(rEPhi) [mV]","re(rETheta) [mV]","im(rETheta) [mV]"
1.6371,180,90,0,0,22.0717877581348,-20.1539332848405,-0.0158994722392041,-0.0171726386512991
"Freq [GHz]","IWavePhi [deg]","IWaveTheta [deg]","Phi [deg]","Theta [deg]","re(rEPhi) [mV]","im(rEPhi) [mV]","re(rETheta) [mV]","im(rETheta) [mV]"
1.6371,180,90,0,180,-22.2294123704662,20.1861015226044,-0.0017076289294183,-0.000611290077707614
"Freq [GHz]","IWavePhi [deg]","IWaveTheta [deg]","Phi [deg]","Theta [deg]","re(rEPhi) [mV]","im(rEPhi) [mV]","re(rETheta) [mV]","im(rETheta) [mV]"
1.6371,180,90,0,90,7.67050091042228e-16,2.68797821136972e-15,-1.5960544920002e-15,2.72333082955018e-15
"Freq [GHz]","IWavePhi [deg]","IWaveTheta [deg]","Phi [deg]","Theta [deg]","re(rEPhi) [mV]","im(rEPhi) [mV]","re(rETheta) [mV]","im(rETheta) [mV]"
1.6371,180,90,180,90,-7.71246097243358e-16,-2.70583381780958e-15,-1.60156364437456e-15,2.72090332973897e-15
"Freq [GHz]","IWavePhi [deg]","IWaveTheta [deg]","Phi [deg]","Theta [deg]","re(rEPhi) [mV]","im(rEPhi) [mV]","re(rETheta) [mV]","im(rETheta) [mV]"
1.6371,180,90,90,90,1.96706972479095e-18,-7.62023788392102e-19,1.09145792559889e-15,-1.1711977712422e-15
"Freq [GHz]","IWavePhi [deg]","IWaveTheta [deg]","Phi [deg]","Theta [deg]","re(rEPhi) [mV]","im(rEPhi) [mV]","re(rETheta) [mV]","im(rETheta) [mV]"
1.6371,180,90,-90,90,-9.16960207711045e-19,-9.65084339136157e-19,-1.60576607893156e-15,1.30746492172717e-15
"Freq [GHz]","IWavePhi [deg]","IWaveTheta [deg]","Phi [deg]","Theta [deg]","re(rEPhi) [mV]","im(rEPhi) [mV]","re(rETheta) [mV]","im(rETheta) [mV]"
1.6371,180,90,0,0,2.00369550068081e-15,3.48087707111914e-15,1.46784178139306e-18,4.16707336986046e-18
"Freq [GHz]","IWavePhi [deg]","IWaveTheta [deg]","Phi [deg]","Theta [deg]","re(rEPhi) [mV]","im(rEPhi) [mV]","re(rETheta) [mV]","im(rETheta) [mV]"
1.6371,180,90,0,180,-3.96441201211307e-16,1.32903553809204e-17,-2.82810836475822e-18,-1.9184871553343e-19
"Freq [GHz]","IWavePhi [deg]","IWaveTheta [deg]","Phi [deg]","Theta [deg]","re(rEPhi) [mV]","im(rEPhi) [mV]","re(rETheta) [mV]","im(rETheta) [mV]"
1.6371,180,90,0,90,-7.586968952068e-16,-2.70347744012951e-15,6.69353318889889e-15,-1.13883733936526e-14
"Freq [GHz]","IWavePhi [deg]","IWaveTheta [deg]","Phi [deg]","Theta [deg]","re(rEPhi) [mV]","im(rEPhi) [mV]","re(rETheta) [mV]","im(rETheta) [mV]"
1.6371,180,90,180,90,7.59200320394042e-16,2.70553018546151e-15,6.68190447709382e-15,-1.13959367796139e-14
"Freq [GHz]","IWavePhi [deg]","IWaveTheta [deg]","Phi [deg]","Theta [deg]","re(rEPhi) [mV]","im(rEPhi) [mV]","re(rETheta) [mV]","im(rETheta) [mV]"
1.6371,180,90,90,90,3.32619479693391e-18,2.38975453615808e-18,2.44734200084296e-15,-1.50698434586646e-15
"Freq [GHz]","IWavePhi [deg]","IWaveTheta [deg]","Phi [deg]","Theta [deg]","re(rEPhi) [mV]","im(rEPhi) [mV]","re(rETheta) [mV]","im(rETheta) [mV]"
1.6371,180,90,-90,90,2.70443790073917e-18,3.91413471671058e-18,-2.70461439156471e-16,9.37772417323232e-16
"Freq [GHz]","IWavePhi [deg]","IWaveTheta [deg]","Phi [deg]","Theta [deg]","re(rEPhi) [mV]","im(rEPhi) [mV]","re(rETheta) [mV]","im(rETheta) [mV]"
1.6371,180,90,0,0,3.94280875396167e-16,-1.99267947227273e-17,-1.46357361848588e-18,-5.87527233166389e-18
"Freq [GHz]","IWavePhi [deg]","IWaveTheta [deg]","Phi [deg]","Theta [deg]","re(rEPhi) [mV]","im(rEPhi) [mV]","re(rETheta) [mV]","im(rETheta) [mV]"
1.6371,180,90,0,180,-1.9787366857486e-15,-3.49109292539862e-15,1.14398365613817e-17,-1.8522511043314e-19
