"Freq [GHz]","IWavePhi [deg]","IWaveTheta [deg]","Phi [deg]","Theta [deg]","re(rEPhi) [mV]","im(rEPhi) [mV]","re(rETheta) [mV]","im(rETheta) [mV]"
0.9253,180,90,0,90,10.3457220789967,93.5851340901011,-0.0212383303832351,-0.0136783041011747
"Freq [GHz]","IWavePhi [deg]","IWaveTheta [deg]","Phi [deg]","Theta [deg]","re(rEPhi) [mV]","im(rEPhi) [mV]","re(rETheta) [mV]","im(rETheta) [mV]"
0.9253,180,90,180,90,-10.398277845761,-93.6582258868228,0.00487434682438371,0.00403480360400855
"Freq [GHz]","IWavePhi [deg]","IWaveTheta [deg]","Phi [deg]","Theta [deg]","re(rEPhi) [mV]","im(rEPhi) [mV]","re(rETheta) [mV]","im(rETheta) [mV]"
0.9253,180,90,90,90,0.0057772700014801,-0.0129158619813036,0.0009508043430667,-0.0131617187902155
"Freq [GHz]","IWavePhi [deg]","IWaveTheta [deg]","Phi [deg]","Theta [deg]","re(rEPhi) [mV]","im(rEPhi) [mV]","re(rETheta) [mV]","im(rETheta) [mV]"
0.9253,180,90,-90,90,-0.000650965715137457,-0.0102292727229013,-0.0109640432157265,0.0100846774731285
"Freq [GHz]","IWavePhi [deg]","IWaveTheta [deg]","Phi [deg]","Theta [deg]","re(rEPhi) [mV]","im(rEPhi) [mV]","re(rETheta) [mV]","im(rETheta) [mV]"
0.9253,180,90,0,0,8.39750204299646,81.6409470861344,0.00934100961279556,0.000352577286242043
"Freq [GHz]","IWavePhi [deg]","IWaveTheta [deg]","Phi [deg]","Theta [deg]","re(rEPhi) [mV]","im(rEPhi) [mV]","re(rETheta) [mV]","im(rETheta) [mV]"
0.9253,180,90,0,180,8.38048917411236,81.6876468051148,0.00507010235673739,0.00922416130621411
"Freq [GHz]","IWavePhi [deg]","IWaveTheta [deg]","Phi [deg]","Theta [deg]","re(rEPhi) [mV]","im(rEPhi) [mV]","re(rETheta) [mV]","im(rETheta) [mV]"
0.9253,180,90,0,90,-10.3457220789967,-93.5851340901011,0.0212383303833968,0.0136783041013527
"Freq [GHz]","IWavePhi [deg]","IWaveTheta [deg]","Phi [deg]","Theta [deg]","re(rEPhi) [mV]","im(rEPhi) [mV]","re(rETheta) [mV]","im(rETheta) [mV]"
0.9253,180,90,180,90,10.398277845761,93.6582258868228,-0.00487434682422208,-0.00403480360418658
"Freq [GHz]","IWavePhi [deg]","IWaveTheta [deg]","Phi [deg]","Theta [deg]","re(rEPhi) [mV]","im(rEPhi) [mV]","re(rETheta) [mV]","im(rETheta) [mV]"
0.9253,180,90,90,90,-0.0057772700014801,0.0129158619813036,-0.000950804343189846,0.0131617187904216
"Freq [GHz]","IWavePhi [deg]","IWaveTheta [deg]","Phi [deg]","Theta [deg]","re(rEPhi) [mV]","im(rEPhi) [mV]","re(rETheta) [mV]","im(rETheta) [mV]"
0.9253,180,90,-90,90,0.000650965715137457,0.0102292727229013,0.0109640432156034,-0.0100846774733349
"Freq [GHz]","IWavePhi [deg]","IWaveTheta [deg]","Phi [deg]","Theta [deg]","re(rEPhi) [mV]","im(rEPhi) [mV]","re(rETheta) [mV]","im(rETheta) [mV]"
0.9253,180,90,0,0,-8.39750204299646,-81.6409470861344,-0.00934100961279556,-0.000352577286242043
"Freq [GHz]","IWavePhi [deg]","IWaveTheta [deg]","Phi [deg]","Theta [deg]","re(rEPhi) [mV]","im(rEPhi) [mV]","re(rETheta) [mV]","im(rETheta) [mV]"
0.9253,180,90,0,180,-8.38048917411236,-81.6876468051148,-0.00507010235673739,-0.00922416130621411
"Freq [GHz]","IWavePhi [deg]","IWaveTheta [deg]","Phi [deg]","Theta [deg]","re(rEPhi) [mV]","im(rEPhi) [mV]","re(rETheta) [mV]","im(rETheta) [mV]"
0.9253,180,90,0,90,1.01403860836303e-15,8.92923655694591e-15,-3.03546290494134e-15,7.88827072116641e-16
"Freq [GHz]","IWavePhi [deg]","IWaveTheta [deg]","Phi [deg]","Theta [deg]","re(rEPhi) [mV]","im(rEPhi) [mV]","re(rETheta) [mV]","im(rETheta) [mV]"
0.9253,180,90,180,90,-1.01924122344092e-15,-8.93591653225713e-15,-3.03390566051535e-15,7.89036172880835e-16
"Freq [GHz]","IWavePhi [deg]","IWaveTheta [deg]","Phi [deg]","Theta [deg]","re(rEPhi) [mV]","im(rEPhi) [mV]","re(rETheta) [mV]","im(rETheta) [mV]"
0.9253,180,90,90,90,9.49285496739746e-19,-1.32588572454737e-18,-1.50170213406017e-15,5.57744754778672e-16
"Freq [GHz]","IWavePhi [deg]","IWaveTheta [deg]","Phi [deg]","Theta [deg]","re(rEPhi) [mV]","im(rEPhi) [mV]","re(rETheta) [mV]","im(rETheta) [mV]"
0.9253,180,90,-90,90,-1.28569493224102e-19,-7.17822230949967e-19,-9.0874710372512e-16,2.88385308566902e-16
"Freq [GHz]","IWavePhi [deg]","IWaveTheta [deg]","Phi [deg]","Theta [deg]","re(rEPhi) [mV]","im(rEPhi) [mV]","re(rETheta) [mV]","im(rETheta) [mV]"
0.9253,180,90,0,0,2.95980875213839e-15,7.89828809705353e-15,4.43229118826628e-19,5.31037274523152e-19
"Freq [GHz]","IWavePhi [deg]","IWaveTheta [deg]","Phi [deg]","Theta [deg]","re(rEPhi) [mV]","im(rEPhi) [mV]","re(rETheta) [mV]","im(rETheta) [mV]"
0.9253,180,90,0,180,-1.30715530724978e-15,7.68545878256402e-15,-7.44573113991339e-20,8.47068878086832e-19
"Freq [GHz]","IWavePhi [deg]","IWaveTheta [deg]","Phi [deg]","Theta [deg]","re(rEPhi) [mV]","im(rEPhi) [mV]","re(rETheta) [mV]","im(rETheta) [mV]"
0.9253,180,90,0,90,2.97670443112959e-19,1.94948928599816e-18,3.03547994681887e-15,-7.82590373196875e-16
"Freq [GHz]","IWavePhi [deg]","IWaveTheta [deg]","Phi [deg]","Theta [deg]","re(rEPhi) [mV]","im(rEPhi) [mV]","re(rETheta) [mV]","im(rETheta) [mV]"
0.9253,180,90,180,90,-9.79638877952434e-19,-1.25443085844007e-18,3.0362723303103e-15,-7.81094968217259e-16
"Freq [GHz]","IWavePhi [deg]","IWaveTheta [deg]","Phi [deg]","Theta [deg]","re(rEPhi) [mV]","im(rEPhi) [mV]","re(rETheta) [mV]","im(rETheta) [mV]"
0.9253,180,90,90,90,-7.09863692732929e-19,1.40230936488063e-19,9.08558373239194e-16,-2.79183938772243e-16
"Freq [GHz]","IWavePhi [deg]","IWaveTheta [deg]","Phi [deg]","Theta [deg]","re(rEPhi) [mV]","im(rEPhi) [mV]","re(rETheta) [mV]","im(rETheta) [mV]"
0.9253,180,90,-90,90,2.47629350620511e-19,-2.06764332511929e-19,1.50272335994453e-15,-5.58423839596853e-16
"Freq [GHz]","IWavePhi [deg]","IWaveTheta [deg]","Phi [deg]","Theta [deg]","re(rEPhi) [mV]","im(rEPhi) [mV]","re(rETheta) [mV]","im(rETheta) [mV]"
0.9253,180,90,0,0,2.13276221585803e-15,1.09608366897843e-16,3.65584150221192e-19,-2.74629745645232e-19
"Freq [GHz]","IWavePhi [deg]","IWaveTheta [deg]","Phi [deg]","Theta [deg]","re(rEPhi) [mV]","im(rEPhi) [mV]","re(rETheta) [mV]","im(rETheta) [mV]"
0.9253,180,90,0,180,-2.13124792190622e-15,-1.06923330088451e-16,5.25492905613066e-19,-2.1440641307741e-19
"Freq [GHz]","IWavePhi [deg]","IWaveTheta [deg]","Phi [deg]","Theta [deg]","re(rEPhi) [mV]","im(rEPhi) [mV]","re(rETheta) [mV]","im(rETheta) [mV]"
0.9253,180,90,0,90,8.46314183914826,81.590374783006,-0.0227229759494347,-0.0197552822722359
"Freq [GHz]","IWavePhi [deg]","IWaveTheta [deg]","Phi [deg]","Theta [deg]","re(rEPhi) [mV]","im(rEPhi) [mV]","re(rETheta) [mV]","im(rETheta) [mV]"
0.9253,180,90,180,90,-8.51129054514638,-81.6514116462315,-0.00486189528981776,0.000730238820280101
"Freq [GHz]","IWavePhi [deg]","IWaveTheta [deg]","Phi [deg]","Theta [deg]","re(rEPhi) [mV]","im(rEPhi) [mV]","re(rETheta) [mV]","im(rETheta) [mV]"
0.9253,180,90,90,90,0.00482342522102459,-0.0107476879101676,13.2775288289981,0.660310897584176
"Freq [GHz]","IWavePhi [deg]","IWaveTheta [deg]","Phi [deg]","Theta [deg]","re(rEPhi) [mV]","im(rEPhi) [mV]","re(rETheta) [mV]","im(rETheta) [mV]"
0.9253,180,90,-90,90,0.000244960449801775,-0.00802787051303839,-13.2822389995816,-0.657434364506055
"Freq [GHz]","IWavePhi [deg]","IWaveTheta [deg]","Phi [deg]","Theta [deg]","re(rEPhi) [mV]","im(rEPhi) [mV]","re(rETheta) [mV]","im(rETheta) [mV]"
0.9253,180,90,0,0,17.4894686647259,73.0848832651431,0.00676475281131161,0.00128429846136708
"Freq [GHz]","IWavePhi [deg]","IWaveTheta [deg]","Phi [deg]","Theta [deg]","re(rEPhi) [mV]","im(rEPhi) [mV]","re(rETheta) [mV]","im(rETheta) [mV]"
0.9253,180,90,0,180,-1.71172915596022,69.322473030551,0.00550540768832916,0.00701280388915405
"Freq [GHz]","IWavePhi [deg]","IWaveTheta [deg]","Phi [deg]","Theta [deg]","re(rEPhi) [mV]","im(rEPhi) [mV]","re(rETheta) [mV]","im(rETheta) [mV]"
0.9253,180,90,0,90,8.46126170236083,81.576307408257,-0.0140393783231247,-0.00430630469146832
"Freq [GHz]","IWavePhi [deg]","IWaveTheta [deg]","Phi [deg]","Theta [deg]","re(rEPhi) [mV]","im(rEPhi) [mV]","re(rETheta) [mV]","im(rETheta) [mV]"
0.9253,180,90,180,90,-8.50495335332374,-81.6424689738629,0.013614672283812,0.00593704044061568
"Freq [GHz]","IWavePhi [deg]","IWaveTheta [deg]","Phi [deg]","Theta [deg]","re(rEPhi) [mV]","im(rEPhi) [mV]","re(rETheta) [mV]","im(rETheta) [mV]"
0.9253,180,90,90,90,0.00528557624471278,-0.0116747079750244,-13.2745445280364,-0.684669614479126
"Freq [GHz]","IWavePhi [deg]","IWaveTheta [deg]","Phi [deg]","Theta [deg]","re(rEPhi) [mV]","im(rEPhi) [mV]","re(rETheta) [mV]","im(rETheta) [mV]"
0.9253,180,90,-90,90,-0.00153578908163041,-0.00963799766333284,13.2646003044596,0.676101947704345
"Freq [GHz]","IWavePhi [deg]","IWaveTheta [deg]","Phi [deg]","Theta [deg]","re(rEPhi) [mV]","im(rEPhi) [mV]","re(rETheta) [mV]","im(rETheta) [mV]"
0.9253,180,90,0,0,-1.70212774329531,69.2702971981548,0.00957705820243524,-0.000603886162440649
"Freq [GHz]","IWavePhi [deg]","IWaveTheta [deg]","Phi [deg]","Theta [deg]","re(rEPhi) [mV]","im(rEPhi) [mV]","re(rETheta) [mV]","im(rETheta) [mV]"
0.9253,180,90,0,180,17.4687755837167,73.114748930975,0.00326955463862581,0.00922859523234516
"Freq [GHz]","IWavePhi [deg]","IWaveTheta [deg]","Phi [deg]","Theta [deg]","re(rEPhi) [mV]","im(rEPhi) [mV]","re(rETheta) [mV]","im(rETheta) [mV]"
0.9253,180,90,0,90,0.0100396899245146,0.0129733760834939,31.3859267776977,-9.31672745096518
"Freq [GHz]","IWavePhi [deg]","IWaveTheta [deg]","Phi [deg]","Theta [deg]","re(rEPhi) [mV]","im(rEPhi) [mV]","re(rETheta) [mV]","im(rETheta) [mV]"
0.9253,180,90,180,90,-0.012592075993646,-0.00701124520129086,31.3926823631591,-9.29594153193101
"Freq [GHz]","IWavePhi [deg]","IWaveTheta [deg]","Phi [deg]","Theta [deg]","re(rEPhi) [mV]","im(rEPhi) [mV]","re(rETheta) [mV]","im(rETheta) [mV]"
0.9253,180,90,90,90,-0.00567111651904146,0.00112467112519716,18.8783883789163,-4.83326677409143
"Freq [GHz]","IWavePhi [deg]","IWaveTheta [deg]","Phi [deg]","Theta [deg]","re(rEPhi) [mV]","im(rEPhi) [mV]","re(rETheta) [mV]","im(rETheta) [mV]"
0.9253,180,90,-90,90,0.00211293586416799,-0.00320173213006614,18.8711200357737,-4.87457549209515
"Freq [GHz]","IWavePhi [deg]","IWaveTheta [deg]","Phi [deg]","Theta [deg]","re(rEPhi) [mV]","im(rEPhi) [mV]","re(rETheta) [mV]","im(rETheta) [mV]"
0.9253,180,90,0,0,0.00845338105396835,-0.00705443297708474,0.00437723804702277,-0.00392398663475517
"Freq [GHz]","IWavePhi [deg]","IWaveTheta [deg]","Phi [deg]","Theta [deg]","re(rEPhi) [mV]","im(rEPhi) [mV]","re(rETheta) [mV]","im(rETheta) [mV]"
0.9253,180,90,0,180,0.0165061902766266,0.0188820993266335,0.00474180566821992,-0.00136882223127794
"Freq [GHz]","IWavePhi [deg]","IWaveTheta [deg]","Phi [deg]","Theta [deg]","re(rEPhi) [mV]","im(rEPhi) [mV]","re(rETheta) [mV]","im(rETheta) [mV]"
0.9253,180,90,0,90,0.0100396899245143,0.0129733760834937,31.3859267776977,-9.31672745096518
"Freq [GHz]","IWavePhi [deg]","IWaveTheta [deg]","Phi [deg]","Theta [deg]","re(rEPhi) [mV]","im(rEPhi) [mV]","re(rETheta) [mV]","im(rETheta) [mV]"
0.9253,180,90,180,90,-0.0125920759936462,-0.00701124520129061,31.3926823631591,-9.29594153193101
"Freq [GHz]","IWavePhi [deg]","IWaveTheta [deg]","Phi [deg]","Theta [deg]","re(rEPhi) [mV]","im(rEPhi) [mV]","re(rETheta) [mV]","im(rETheta) [mV]"
0.9253,180,90,90,90,-0.00567111651904045,0.00112467112519589,18.8783883789163,-4.83326677409143
"Freq [GHz]","IWavePhi [deg]","IWaveTheta [deg]","Phi [deg]","Theta [deg]","re(rEPhi) [mV]","im(rEPhi) [mV]","re(rETheta) [mV]","im(rETheta) [mV]"
0.9253,180,90,-90,90,0.00211293586416684,-0.00320173213006739,18.8711200357737,-4.87457549209515
"Freq [GHz]","IWavePhi [deg]","IWaveTheta [deg]","Phi [deg]","Theta [deg]","re(rEPhi) [mV]","im(rEPhi) [mV]","re(rETheta) [mV]","im(rETheta) [mV]"
0.9253,180,90,0,0,0.0084533810539681,-0.0070544329770849,0.0043772380470211,-0.00392398663475484
"Freq [GHz]","IWavePhi [deg]","IWaveTheta [deg]","Phi [deg]","Theta [deg]","re(rEPhi) [mV]","im(rEPhi) [mV]","re(rETheta) [mV]","im(rETheta) [mV]"
0.9253,180,90,0,180,0.0165061902766269,0.0188820993266333,0.00474180566822159,-0.00136882223127769
"Freq [GHz]","IWavePhi [deg]","IWaveTheta [deg]","Phi [deg]","Theta [deg]","re(rEPhi) [mV]","im(rEPhi) [mV]","re(rETheta) [mV]","im(rETheta) [mV]"
0.9253,180,90,0,90,0.0091802881098927,0.00138789902485967,18.8623468476777,-4.9143829316941
"Freq [GHz]","IWavePhi [deg]","IWaveTheta [deg]","Phi [deg]","Theta [deg]","re(rEPhi) [mV]","im(rEPhi) [mV]","re(rETheta) [mV]","im(rETheta) [mV]"
0.9253,180,90,180,90,-0.0078054005344834,-0.000660080325756405,18.8668066084435,-4.90495594922523
"Freq [GHz]","IWavePhi [deg]","IWaveTheta [deg]","Phi [deg]","Theta [deg]","re(rEPhi) [mV]","im(rEPhi) [mV]","re(rETheta) [mV]","im(rETheta) [mV]"
0.9253,180,90,90,90,-0.00237024727099477,0.000723678040041262,9.34139034489797,-3.47587168973592
"Freq [GHz]","IWavePhi [deg]","IWaveTheta [deg]","Phi [deg]","Theta [deg]","re(rEPhi) [mV]","im(rEPhi) [mV]","re(rETheta) [mV]","im(rETheta) [mV]"
0.9253,180,90,-90,90,0.00133238444367867,-0.00221333290485355,5.64147254715552,-1.78809173738122
"Freq [GHz]","IWavePhi [deg]","IWaveTheta [deg]","Phi [deg]","Theta [deg]","re(rEPhi) [mV]","im(rEPhi) [mV]","re(rETheta) [mV]","im(rETheta) [mV]"
0.9253,180,90,0,0,-13.2560572532848,-0.67848333899814,0.00257043094719958,-0.0025460396384055
"Freq [GHz]","IWavePhi [deg]","IWaveTheta [deg]","Phi [deg]","Theta [deg]","re(rEPhi) [mV]","im(rEPhi) [mV]","re(rETheta) [mV]","im(rETheta) [mV]"
0.9253,180,90,0,180,13.2700668614607,0.673875410348303,0.00201353270026473,-0.000182231543401112
"Freq [GHz]","IWavePhi [deg]","IWaveTheta [deg]","Phi [deg]","Theta [deg]","re(rEPhi) [mV]","im(rEPhi) [mV]","re(rETheta) [mV]","im(rETheta) [mV]"
0.9253,180,90,0,90,0.00185105730317138,0.0121227600334503,18.8759231108189,-4.8664843740457
"Freq [GHz]","IWavePhi [deg]","IWaveTheta [deg]","Phi [deg]","Theta [deg]","re(rEPhi) [mV]","im(rEPhi) [mV]","re(rETheta) [mV]","im(rETheta) [mV]"
0.9253,180,90,180,90,-0.00609179914257982,-0.00780058478316612,18.8808505010674,-4.85718530089459
"Freq [GHz]","IWavePhi [deg]","IWaveTheta [deg]","Phi [deg]","Theta [deg]","re(rEPhi) [mV]","im(rEPhi) [mV]","re(rETheta) [mV]","im(rETheta) [mV]"
0.9253,180,90,90,90,-0.00441423581492522,0.000872017410308863,5.64980765950379,-1.73608612492649
"Freq [GHz]","IWavePhi [deg]","IWaveTheta [deg]","Phi [deg]","Theta [deg]","re(rEPhi) [mV]","im(rEPhi) [mV]","re(rETheta) [mV]","im(rETheta) [mV]"
0.9253,180,90,-90,90,0.00153987770312849,-0.00128574084955504,9.34458174776733,-3.47252023091392
"Freq [GHz]","IWavePhi [deg]","IWaveTheta [deg]","Phi [deg]","Theta [deg]","re(rEPhi) [mV]","im(rEPhi) [mV]","re(rETheta) [mV]","im(rETheta) [mV]"
0.9253,180,90,0,0,13.2624350650478,0.681592106094014,0.00227335814384999,-0.00170774686100053
"Freq [GHz]","IWavePhi [deg]","IWaveTheta [deg]","Phi [deg]","Theta [deg]","re(rEPhi) [mV]","im(rEPhi) [mV]","re(rETheta) [mV]","im(rETheta) [mV]"
0.9253,180,90,0,180,-13.2530184941175,-0.664895370328396,0.0032677441450091,-0.00133324496107055
"Freq [GHz]","IWavePhi [deg]","IWaveTheta [deg]","Phi [deg]","Theta [deg]","re(rEPhi) [mV]","im(rEPhi) [mV]","re(rETheta) [mV]","im(rETheta) [mV]"
0.9253,180,90,0,90,5.17496207783813e-16,4.99556813905761e-15,-1.12827124098052e-15,3.3341129063927e-16
"Freq [GHz]","IWavePhi [deg]","IWaveTheta [deg]","Phi [deg]","Theta [deg]","re(rEPhi) [mV]","im(rEPhi) [mV]","re(rETheta) [mV]","im(rETheta) [mV]"
0.9253,180,90,180,90,-5.20353314061414e-16,-4.9995130173232e-15,-1.1274311465634e-15,3.33924585826868e-16
"Freq [GHz]","IWavePhi [deg]","IWaveTheta [deg]","Phi [deg]","Theta [deg]","re(rEPhi) [mV]","im(rEPhi) [mV]","re(rETheta) [mV]","im(rETheta) [mV]"
0.9253,180,90,90,90,5.02184570361588e-19,-7.01353698493453e-19,1.35406556245557e-16,2.14067062655803e-16
"Freq [GHz]","IWavePhi [deg]","IWaveTheta [deg]","Phi [deg]","Theta [deg]","re(rEPhi) [mV]","im(rEPhi) [mV]","re(rETheta) [mV]","im(rETheta) [mV]"
0.9253,180,90,-90,90,-5.19315233952504e-20,-3.84251769559921e-19,-1.49054932533891e-15,1.34789602786726e-16
"Freq [GHz]","IWavePhi [deg]","IWaveTheta [deg]","Phi [deg]","Theta [deg]","re(rEPhi) [mV]","im(rEPhi) [mV]","re(rETheta) [mV]","im(rETheta) [mV]"
0.9253,180,90,0,0,1.0703180126025e-15,4.47544383485768e-15,2.53036454312014e-19,2.14807244858485e-19
"Freq [GHz]","IWavePhi [deg]","IWaveTheta [deg]","Phi [deg]","Theta [deg]","re(rEPhi) [mV]","im(rEPhi) [mV]","re(rETheta) [mV]","im(rETheta) [mV]"
0.9253,180,90,0,180,-1.05743253175253e-16,4.24416864605694e-15,1.67000727605557e-19,4.81255749383372e-19
"Freq [GHz]","IWavePhi [deg]","IWaveTheta [deg]","Phi [deg]","Theta [deg]","re(rEPhi) [mV]","im(rEPhi) [mV]","re(rETheta) [mV]","im(rETheta) [mV]"
0.9253,180,90,0,90,-5.18122083805198e-16,-4.99300468687461e-15,4.72665602304946e-15,-1.40251749941506e-15
"Freq [GHz]","IWavePhi [deg]","IWaveTheta [deg]","Phi [deg]","Theta [deg]","re(rEPhi) [mV]","im(rEPhi) [mV]","re(rETheta) [mV]","im(rETheta) [mV]"
0.9253,180,90,180,90,5.20411655997416e-16,4.99798244301555e-15,4.72593383401415e-15,-1.39999326601412e-15
"Freq [GHz]","IWavePhi [deg]","IWaveTheta [deg]","Phi [deg]","Theta [deg]","re(rEPhi) [mV]","im(rEPhi) [mV]","re(rETheta) [mV]","im(rETheta) [mV]"
0.9253,180,90,90,90,-1.16467089139738e-18,8.72386405169038e-19,3.65407836965166e-15,-6.85918458038084e-16
"Freq [GHz]","IWavePhi [deg]","IWaveTheta [deg]","Phi [deg]","Theta [deg]","re(rEPhi) [mV]","im(rEPhi) [mV]","re(rETheta) [mV]","im(rETheta) [mV]"
0.9253,180,90,-90,90,4.50225120869987e-19,7.53662404305949e-20,2.02836052099053e-15,-7.75203524254945e-16
"Freq [GHz]","IWavePhi [deg]","IWaveTheta [deg]","Phi [deg]","Theta [deg]","re(rEPhi) [mV]","im(rEPhi) [mV]","re(rETheta) [mV]","im(rETheta) [mV]"
0.9253,180,90,0,0,1.04246205385303e-16,-4.24251058678471e-15,5.64744116031804e-20,-5.74229140977958e-19
"Freq [GHz]","IWavePhi [deg]","IWaveTheta [deg]","Phi [deg]","Theta [deg]","re(rEPhi) [mV]","im(rEPhi) [mV]","re(rETheta) [mV]","im(rETheta) [mV]"
0.9253,180,90,0,180,-1.06861814706141e-15,-4.47406279993921e-15,5.15002527215456e-19,-7.60650064511097e-19
