"Freq [GHz]","IWavePhi [deg]","IWaveTheta [deg]","Phi [deg]","Theta [deg]","re(rEPhi) [mV]","im(rEPhi) [mV]","re(rETheta) [mV]","im(rETheta) [mV]"
1.3523,180,90,0,90,28.3639304140847,67.6702211957667,-0.0501923790437692,-0.0098007371091531
"Freq [GHz]","IWavePhi [deg]","IWaveTheta [deg]","Phi [deg]","Theta [deg]","re(rEPhi) [mV]","im(rEPhi) [mV]","re(rETheta) [mV]","im(rETheta) [mV]"
1.3523,180,90,180,90,-28.3337865064697,-67.6100003140517,-0.0338548310034626,-0.0144330415140536
"Freq [GHz]","IWavePhi [deg]","IWaveTheta [deg]","Phi [deg]","Theta [deg]","re(rEPhi) [mV]","im(rEPhi) [mV]","re(rETheta) [mV]","im(rETheta) [mV]"
1.3523,180,90,90,90,0.0158003763477479,-0.000934311720640324,0.046822206851286,-0.0573367078867199
"Freq [GHz]","IWavePhi [deg]","IWaveTheta [deg]","Phi [deg]","Theta [deg]","re(rEPhi) [mV]","im(rEPhi) [mV]","re(rETheta) [mV]","im(rETheta) [mV]"
1.3523,180,90,-90,90,0.0087084374333268,-0.0188951234637432,-0.0125701603164064,0.0174923802937919
"Freq [GHz]","IWavePhi [deg]","IWaveTheta [deg]","Phi [deg]","Theta [deg]","re(rEPhi) [mV]","im(rEPhi) [mV]","re(rETheta) [mV]","im(rETheta) [mV]"
1.3523,180,90,0,0,18.9509425064744,50.3667862592988,0.00186366701787681,0.0321167669142112
"Freq [GHz]","IWavePhi [deg]","IWaveTheta [deg]","Phi [deg]","Theta [deg]","re(rEPhi) [mV]","im(rEPhi) [mV]","re(rETheta) [mV]","im(rETheta) [mV]"
1.3523,180,90,0,180,18.7281209041469,50.4221928847235,-0.0254094733834962,0.00305662349323249
"Freq [GHz]","IWavePhi [deg]","IWaveTheta [deg]","Phi [deg]","Theta [deg]","re(rEPhi) [mV]","im(rEPhi) [mV]","re(rETheta) [mV]","im(rETheta) [mV]"
1.3523,180,90,0,90,-28.3639304140847,-67.6702211957667,0.0501923790437692,0.0098007371091531
"Freq [GHz]","IWavePhi [deg]","IWaveTheta [deg]","Phi [deg]","Theta [deg]","re(rEPhi) [mV]","im(rEPhi) [mV]","re(rETheta) [mV]","im(rETheta) [mV]"
1.3523,180,90,180,90,28.3337865064697,67.6100003140517,0.0338548310034626,0.0144330415140536
"Freq [GHz]","IWavePhi [deg]","IWaveTheta [deg]","Phi [deg]","Theta [deg]","re(rEPhi) [mV]","im(rEPhi) [mV]","re(rETheta) [mV]","im(rETheta) [mV]"
1.3523,180,90,90,90,-0.015800376347319,0.000934311720300427,-0.046822206851286,0.0573367078867199
"Freq [GHz]","IWavePhi [deg]","IWaveTheta [deg]","Phi [deg]","Theta [deg]","re(rEPhi) [mV]","im(rEPhi) [mV]","re(rETheta) [mV]","im(rETheta) [mV]"
1.3523,180,90,-90,90,-0.00870843743289888,0.0188951234640768,0.0125701603164064,-0.0174923802937919
"Freq [GHz]","IWavePhi [deg]","IWaveTheta [deg]","Phi [deg]","Theta [deg]","re(rEPhi) [mV]","im(rEPhi) [mV]","re(rETheta) [mV]","im(rETheta) [mV]"
1.3523,180,90,0,0,-18.9509425064744,-50.3667862592988,-0.0018636670173342,-0.032116766914274
"Freq [GHz]","IWavePhi [deg]","IWaveTheta [deg]","Phi [deg]","Theta [deg]","re(rEPhi) [mV]","im(rEPhi) [mV]","re(rETheta) [mV]","im(rETheta) [mV]"
1.3523,180,90,0,180,-18.7281209041469,-50.4221928847235,0.0254094733840378,-0.00305662349317527
"Freq [GHz]","IWavePhi [deg]","IWaveTheta [deg]","Phi [deg]","Theta [deg]","re(rEPhi) [mV]","im(rEPhi) [mV]","re(rETheta) [mV]","im(rETheta) [mV]"
1.3523,180,90,0,90,2.30960041198962e-15,4.94464323296367e-15,-2.80069999774505e-15,1.65540060976019e-15
"Freq [GHz]","IWavePhi [deg]","IWaveTheta [deg]","Phi [deg]","Theta [deg]","re(rEPhi) [mV]","im(rEPhi) [mV]","re(rETheta) [mV]","im(rETheta) [mV]"
1.3523,180,90,180,90,-2.29967906754403e-15,-4.94079171572474e-15,-2.79927742347305e-15,1.65460069631094e-15
"Freq [GHz]","IWavePhi [deg]","IWaveTheta [deg]","Phi [deg]","Theta [deg]","re(rEPhi) [mV]","im(rEPhi) [mV]","re(rETheta) [mV]","im(rETheta) [mV]"
1.3523,180,90,90,90,6.0200868159929e-19,-1.85375801571632e-18,-3.68846941616748e-15,2.3285203884718e-15
"Freq [GHz]","IWavePhi [deg]","IWaveTheta [deg]","Phi [deg]","Theta [deg]","re(rEPhi) [mV]","im(rEPhi) [mV]","re(rETheta) [mV]","im(rETheta) [mV]"
1.3523,180,90,-90,90,1.41840087023596e-18,-2.59623242674607e-18,4.36631656200782e-15,-1.41284117035659e-15
"Freq [GHz]","IWavePhi [deg]","IWaveTheta [deg]","Phi [deg]","Theta [deg]","re(rEPhi) [mV]","im(rEPhi) [mV]","re(rETheta) [mV]","im(rETheta) [mV]"
1.3523,180,90,0,0,6.03310388403434e-15,2.73013897674247e-15,-1.39367227454625e-18,4.46173325351657e-18
"Freq [GHz]","IWavePhi [deg]","IWaveTheta [deg]","Phi [deg]","Theta [deg]","re(rEPhi) [mV]","im(rEPhi) [mV]","re(rETheta) [mV]","im(rETheta) [mV]"
1.3523,180,90,0,180,-2.88676243867877e-15,4.63410680244075e-15,-4.73356539394637e-18,1.17246394928904e-18
"Freq [GHz]","IWavePhi [deg]","IWaveTheta [deg]","Phi [deg]","Theta [deg]","re(rEPhi) [mV]","im(rEPhi) [mV]","re(rETheta) [mV]","im(rETheta) [mV]"
1.3523,180,90,0,90,-1.29309719435019e-18,-3.39033834619435e-18,2.83278320308941e-15,-1.63299376120545e-15
"Freq [GHz]","IWavePhi [deg]","IWaveTheta [deg]","Phi [deg]","Theta [deg]","re(rEPhi) [mV]","im(rEPhi) [mV]","re(rETheta) [mV]","im(rETheta) [mV]"
1.3523,180,90,180,90,3.72439833111255e-18,9.86995256547024e-19,2.82744600416288e-15,-1.6349009837638e-15
"Freq [GHz]","IWavePhi [deg]","IWaveTheta [deg]","Phi [deg]","Theta [deg]","re(rEPhi) [mV]","im(rEPhi) [mV]","re(rETheta) [mV]","im(rETheta) [mV]"
1.3523,180,90,90,90,-3.24151290064842e-18,-3.03528191795602e-19,-4.36755784207757e-15,1.42049774060543e-15
"Freq [GHz]","IWavePhi [deg]","IWaveTheta [deg]","Phi [deg]","Theta [deg]","re(rEPhi) [mV]","im(rEPhi) [mV]","re(rETheta) [mV]","im(rETheta) [mV]"
1.3523,180,90,-90,90,-2.64664525935547e-18,3.37823009432914e-18,3.6944261304699e-15,-2.33699072502008e-15
"Freq [GHz]","IWavePhi [deg]","IWaveTheta [deg]","Phi [deg]","Theta [deg]","re(rEPhi) [mV]","im(rEPhi) [mV]","re(rETheta) [mV]","im(rETheta) [mV]"
1.3523,180,90,0,0,4.44698256862382e-15,-9.45423854575613e-16,-4.51566109847466e-19,1.39412137554803e-18
"Freq [GHz]","IWavePhi [deg]","IWaveTheta [deg]","Phi [deg]","Theta [deg]","re(rEPhi) [mV]","im(rEPhi) [mV]","re(rETheta) [mV]","im(rETheta) [mV]"
1.3523,180,90,0,180,-4.44734263368059e-15,9.42984781109634e-16,6.9460465169131e-19,-3.93222765836922e-19
"Freq [GHz]","IWavePhi [deg]","IWaveTheta [deg]","Phi [deg]","Theta [deg]","re(rEPhi) [mV]","im(rEPhi) [mV]","re(rETheta) [mV]","im(rETheta) [mV]"
1.3523,180,90,0,90,18.8204857636445,50.3557081391707,-0.112445057170764,-0.0413557849509915
"Freq [GHz]","IWavePhi [deg]","IWaveTheta [deg]","Phi [deg]","Theta [deg]","re(rEPhi) [mV]","im(rEPhi) [mV]","re(rETheta) [mV]","im(rETheta) [mV]"
1.3523,180,90,180,90,-18.785306122469,-50.2905530489976,-0.0667861532474758,-0.0236713843891374
"Freq [GHz]","IWavePhi [deg]","IWaveTheta [deg]","Phi [deg]","Theta [deg]","re(rEPhi) [mV]","im(rEPhi) [mV]","re(rETheta) [mV]","im(rETheta) [mV]"
1.3523,180,90,90,90,0.0219735731544614,-0.00468878518670503,27.7793490463725,-5.99019306324868
"Freq [GHz]","IWavePhi [deg]","IWaveTheta [deg]","Phi [deg]","Theta [deg]","re(rEPhi) [mV]","im(rEPhi) [mV]","re(rETheta) [mV]","im(rETheta) [mV]"
1.3523,180,90,-90,90,0.0179310269777335,-0.0238457789426448,-27.7602753944904,6.01459288588809
"Freq [GHz]","IWavePhi [deg]","IWaveTheta [deg]","Phi [deg]","Theta [deg]","re(rEPhi) [mV]","im(rEPhi) [mV]","re(rETheta) [mV]","im(rETheta) [mV]"
1.3523,180,90,0,0,28.2234386468011,50.527270208162,0.00863776749456038,0.00730899400941374
"Freq [GHz]","IWavePhi [deg]","IWaveTheta [deg]","Phi [deg]","Theta [deg]","re(rEPhi) [mV]","im(rEPhi) [mV]","re(rETheta) [mV]","im(rETheta) [mV]"
1.3523,180,90,0,180,4.67368844719515,24.5850077232894,-0.0126386489194109,0.000388934397033071
"Freq [GHz]","IWavePhi [deg]","IWaveTheta [deg]","Phi [deg]","Theta [deg]","re(rEPhi) [mV]","im(rEPhi) [mV]","re(rETheta) [mV]","im(rETheta) [mV]"
1.3523,180,90,0,90,18.8342415717622,50.3726883491875,0.0348010690323277,0.0319037636256901
"Freq [GHz]","IWavePhi [deg]","IWaveTheta [deg]","Phi [deg]","Theta [deg]","re(rEPhi) [mV]","im(rEPhi) [mV]","re(rETheta) [mV]","im(rETheta) [mV]"
1.3523,180,90,180,90,-18.8219296256515,-50.3472895306352,0.00855406675014793,0.00828755230647221
"Freq [GHz]","IWavePhi [deg]","IWaveTheta [deg]","Phi [deg]","Theta [deg]","re(rEPhi) [mV]","im(rEPhi) [mV]","re(rETheta) [mV]","im(rETheta) [mV]"
1.3523,180,90,90,90,0.000503249528343931,0.00450779918342708,-27.7073030606624,5.91437421676444
"Freq [GHz]","IWavePhi [deg]","IWaveTheta [deg]","Phi [deg]","Theta [deg]","re(rEPhi) [mV]","im(rEPhi) [mV]","re(rETheta) [mV]","im(rETheta) [mV]"
1.3523,180,90,-90,90,-0.00443758386901132,-0.00535309627712297,27.7449177606881,-5.99695622614916
"Freq [GHz]","IWavePhi [deg]","IWaveTheta [deg]","Phi [deg]","Theta [deg]","re(rEPhi) [mV]","im(rEPhi) [mV]","re(rETheta) [mV]","im(rETheta) [mV]"
1.3523,180,90,0,0,4.85670887871859,24.56104773886,-0.00569341412583583,0.0413176688174372
"Freq [GHz]","IWavePhi [deg]","IWaveTheta [deg]","Phi [deg]","Theta [deg]","re(rEPhi) [mV]","im(rEPhi) [mV]","re(rETheta) [mV]","im(rETheta) [mV]"
1.3523,180,90,0,180,28.0998879308564,50.5884101364044,-0.0245846341715886,0.004097852482214
"Freq [GHz]","IWavePhi [deg]","IWaveTheta [deg]","Phi [deg]","Theta [deg]","re(rEPhi) [mV]","im(rEPhi) [mV]","re(rETheta) [mV]","im(rETheta) [mV]"
1.3523,180,90,0,90,0.0090544428410289,0.0430086201731275,55.2678762399641,-49.7306154182828
"Freq [GHz]","IWavePhi [deg]","IWaveTheta [deg]","Phi [deg]","Theta [deg]","re(rEPhi) [mV]","im(rEPhi) [mV]","re(rETheta) [mV]","im(rETheta) [mV]"
1.3523,180,90,180,90,-0.0234067610802416,-0.0358293271989556,55.2757090706002,-49.7456982124693
"Freq [GHz]","IWavePhi [deg]","IWaveTheta [deg]","Phi [deg]","Theta [deg]","re(rEPhi) [mV]","im(rEPhi) [mV]","re(rETheta) [mV]","im(rETheta) [mV]"
1.3523,180,90,90,90,0.00472340059769442,0.0011537827116554,17.5811386673105,-10.0417206515087
"Freq [GHz]","IWavePhi [deg]","IWaveTheta [deg]","Phi [deg]","Theta [deg]","re(rEPhi) [mV]","im(rEPhi) [mV]","re(rETheta) [mV]","im(rETheta) [mV]"
1.3523,180,90,-90,90,-0.00422527347638146,0.024642203448778,17.3783730454408,-10.1897695206051
"Freq [GHz]","IWavePhi [deg]","IWaveTheta [deg]","Phi [deg]","Theta [deg]","re(rEPhi) [mV]","im(rEPhi) [mV]","re(rETheta) [mV]","im(rETheta) [mV]"
1.3523,180,90,0,0,-0.0831648428420774,0.00687004789983605,0.0275955030689559,-0.0167390212270313
"Freq [GHz]","IWavePhi [deg]","IWaveTheta [deg]","Phi [deg]","Theta [deg]","re(rEPhi) [mV]","im(rEPhi) [mV]","re(rETheta) [mV]","im(rETheta) [mV]"
1.3523,180,90,0,180,0.108290006293233,0.0299194101709304,0.036933314724516,-0.00433510430855428
"Freq [GHz]","IWavePhi [deg]","IWaveTheta [deg]","Phi [deg]","Theta [deg]","re(rEPhi) [mV]","im(rEPhi) [mV]","re(rETheta) [mV]","im(rETheta) [mV]"
1.3523,180,90,0,90,0.00905444284237162,0.0430086201729791,55.2678762399641,-49.7306154182828
"Freq [GHz]","IWavePhi [deg]","IWaveTheta [deg]","Phi [deg]","Theta [deg]","re(rEPhi) [mV]","im(rEPhi) [mV]","re(rETheta) [mV]","im(rETheta) [mV]"
1.3523,180,90,180,90,-0.0234067610815844,-0.035829327199104,55.2757090706002,-49.7456982124693
"Freq [GHz]","IWavePhi [deg]","IWaveTheta [deg]","Phi [deg]","Theta [deg]","re(rEPhi) [mV]","im(rEPhi) [mV]","re(rETheta) [mV]","im(rETheta) [mV]"
1.3523,180,90,90,90,0.00472340059900046,0.00115378271200068,17.5811386673105,-10.0417206515087
"Freq [GHz]","IWavePhi [deg]","IWaveTheta [deg]","Phi [deg]","Theta [deg]","re(rEPhi) [mV]","im(rEPhi) [mV]","re(rETheta) [mV]","im(rETheta) [mV]"
1.3523,180,90,-90,90,-0.0042252734776875,0.0246422034491233,17.3783730454408,-10.1897695206051
"Freq [GHz]","IWavePhi [deg]","IWaveTheta [deg]","Phi [deg]","Theta [deg]","re(rEPhi) [mV]","im(rEPhi) [mV]","re(rETheta) [mV]","im(rETheta) [mV]"
1.3523,180,90,0,0,-0.0831648428420774,0.00687004789983605,0.0275955030689559,-0.0167390212270313
"Freq [GHz]","IWavePhi [deg]","IWaveTheta [deg]","Phi [deg]","Theta [deg]","re(rEPhi) [mV]","im(rEPhi) [mV]","re(rETheta) [mV]","im(rETheta) [mV]"
1.3523,180,90,0,180,0.108290006293233,0.0299194101709304,0.036933314724516,-0.00433510430855428
"Freq [GHz]","IWavePhi [deg]","IWaveTheta [deg]","Phi [deg]","Theta [deg]","re(rEPhi) [mV]","im(rEPhi) [mV]","re(rETheta) [mV]","im(rETheta) [mV]"
1.3523,180,90,0,90,0.00923488992437153,0.0309206457996803,17.3799410287321,-10.2988350810824
"Freq [GHz]","IWavePhi [deg]","IWaveTheta [deg]","Phi [deg]","Theta [deg]","re(rEPhi) [mV]","im(rEPhi) [mV]","re(rETheta) [mV]","im(rETheta) [mV]"
1.3523,180,90,180,90,-0.0361013051671573,0.00513087811537694,17.399906569253,-10.2873310155209
"Freq [GHz]","IWavePhi [deg]","IWaveTheta [deg]","Phi [deg]","Theta [deg]","re(rEPhi) [mV]","im(rEPhi) [mV]","re(rETheta) [mV]","im(rETheta) [mV]"
1.3523,180,90,90,90,0.0140893598025969,0.000855118490177423,23.0013663410656,-14.5258024440413
"Freq [GHz]","IWavePhi [deg]","IWaveTheta [deg]","Phi [deg]","Theta [deg]","re(rEPhi) [mV]","im(rEPhi) [mV]","re(rETheta) [mV]","im(rETheta) [mV]"
1.3523,180,90,-90,90,0.0129610801876447,-0.0045162313255868,-27.1913840751693,8.81829661758334
"Freq [GHz]","IWavePhi [deg]","IWaveTheta [deg]","Phi [deg]","Theta [deg]","re(rEPhi) [mV]","im(rEPhi) [mV]","re(rETheta) [mV]","im(rETheta) [mV]"
1.3523,180,90,0,0,-27.7023495782784,5.92389417492757,0.0136620349575224,-0.0108362783891222
"Freq [GHz]","IWavePhi [deg]","IWaveTheta [deg]","Phi [deg]","Theta [deg]","re(rEPhi) [mV]","im(rEPhi) [mV]","re(rETheta) [mV]","im(rETheta) [mV]"
1.3523,180,90,0,180,27.6975238763104,-5.91725851291388,0.0135791309091981,-0.00175150875607311
"Freq [GHz]","IWavePhi [deg]","IWaveTheta [deg]","Phi [deg]","Theta [deg]","re(rEPhi) [mV]","im(rEPhi) [mV]","re(rETheta) [mV]","im(rETheta) [mV]"
1.3523,180,90,0,90,-0.00804102786574114,-0.0210826351133075,17.6154673557844,-10.154659242383
"Freq [GHz]","IWavePhi [deg]","IWaveTheta [deg]","Phi [deg]","Theta [deg]","re(rEPhi) [mV]","im(rEPhi) [mV]","re(rETheta) [mV]","im(rETheta) [mV]"
1.3523,180,90,180,90,0.0231598971356105,0.00613757127009891,17.5822784022952,-10.1665192744894
"Freq [GHz]","IWavePhi [deg]","IWaveTheta [deg]","Phi [deg]","Theta [deg]","re(rEPhi) [mV]","im(rEPhi) [mV]","re(rETheta) [mV]","im(rETheta) [mV]"
1.3523,180,90,90,90,-0.0201570911210716,-0.00188747165016206,-27.1593576871375,8.83326743160037
"Freq [GHz]","IWavePhi [deg]","IWaveTheta [deg]","Phi [deg]","Theta [deg]","re(rEPhi) [mV]","im(rEPhi) [mV]","re(rETheta) [mV]","im(rETheta) [mV]"
1.3523,180,90,-90,90,-0.0164580607250059,0.02100728796789,22.9735344731338,-14.5324158679057
"Freq [GHz]","IWavePhi [deg]","IWaveTheta [deg]","Phi [deg]","Theta [deg]","re(rEPhi) [mV]","im(rEPhi) [mV]","re(rETheta) [mV]","im(rETheta) [mV]"
1.3523,180,90,0,0,27.6532549449554,-5.87905322240076,-0.0028079955044095,0.00866928717998173
"Freq [GHz]","IWavePhi [deg]","IWaveTheta [deg]","Phi [deg]","Theta [deg]","re(rEPhi) [mV]","im(rEPhi) [mV]","re(rETheta) [mV]","im(rETheta) [mV]"
1.3523,180,90,0,180,-27.655494111201,5.86388600804763,0.00431932648794066,-0.00244517008137738
"Freq [GHz]","IWavePhi [deg]","IWaveTheta [deg]","Phi [deg]","Theta [deg]","re(rEPhi) [mV]","im(rEPhi) [mV]","re(rETheta) [mV]","im(rETheta) [mV]"
1.3523,180,90,0,90,1.15164704547423e-15,3.08243181727531e-15,-1.84738373031594e-15,1.65493032113775e-15
"Freq [GHz]","IWavePhi [deg]","IWaveTheta [deg]","Phi [deg]","Theta [deg]","re(rEPhi) [mV]","im(rEPhi) [mV]","re(rETheta) [mV]","im(rETheta) [mV]"
1.3523,180,90,180,90,-1.14891629147718e-15,-3.07865952794041e-15,-1.84499034963763e-15,1.65659548901185e-15
"Freq [GHz]","IWavePhi [deg]","IWaveTheta [deg]","Phi [deg]","Theta [deg]","re(rEPhi) [mV]","im(rEPhi) [mV]","re(rETheta) [mV]","im(rETheta) [mV]"
1.3523,180,90,90,90,1.21130474496078e-18,-3.34888430111282e-19,1.11736231527322e-15,-3.18319619292942e-17
"Freq [GHz]","IWavePhi [deg]","IWaveTheta [deg]","Phi [deg]","Theta [deg]","re(rEPhi) [mV]","im(rEPhi) [mV]","re(rETheta) [mV]","im(rETheta) [mV]"
1.3523,180,90,-90,90,1.18537282701197e-18,-2.25347072476549e-18,-2.27577316872739e-15,7.07158255666156e-16
"Freq [GHz]","IWavePhi [deg]","IWaveTheta [deg]","Phi [deg]","Theta [deg]","re(rEPhi) [mV]","im(rEPhi) [mV]","re(rETheta) [mV]","im(rETheta) [mV]"
1.3523,180,90,0,0,1.73076568328438e-15,3.09370397603913e-15,-3.26549498402486e-19,9.13581745082223e-19
"Freq [GHz]","IWavePhi [deg]","IWaveTheta [deg]","Phi [deg]","Theta [deg]","re(rEPhi) [mV]","im(rEPhi) [mV]","re(rETheta) [mV]","im(rETheta) [mV]"
1.3523,180,90,0,180,2.81897758733027e-16,1.50504388719402e-15,-1.94187479187543e-18,1.41624171162421e-19
"Freq [GHz]","IWavePhi [deg]","IWaveTheta [deg]","Phi [deg]","Theta [deg]","re(rEPhi) [mV]","im(rEPhi) [mV]","re(rETheta) [mV]","im(rETheta) [mV]"
1.3523,180,90,0,90,-1.15414062689317e-15,-3.07692773436119e-15,7.71490175649525e-15,-6.95456954907119e-15
"Freq [GHz]","IWavePhi [deg]","IWaveTheta [deg]","Phi [deg]","Theta [deg]","re(rEPhi) [mV]","im(rEPhi) [mV]","re(rETheta) [mV]","im(rETheta) [mV]"
1.3523,180,90,180,90,1.15177240849679e-15,3.07644267160846e-15,7.71698994949355e-15,-6.95491417609148e-15
"Freq [GHz]","IWavePhi [deg]","IWaveTheta [deg]","Phi [deg]","Theta [deg]","re(rEPhi) [mV]","im(rEPhi) [mV]","re(rETheta) [mV]","im(rETheta) [mV]"
1.3523,180,90,90,90,7.29759295005289e-19,-1.49640240084432e-19,4.13900762602894e-15,-1.76714965055776e-15
"Freq [GHz]","IWavePhi [deg]","IWaveTheta [deg]","Phi [deg]","Theta [deg]","re(rEPhi) [mV]","im(rEPhi) [mV]","re(rETheta) [mV]","im(rETheta) [mV]"
1.3523,180,90,-90,90,-5.48133939176126e-19,3.89856769738196e-18,7.20711150352103e-16,-1.05791220386631e-15
"Freq [GHz]","IWavePhi [deg]","IWaveTheta [deg]","Phi [deg]","Theta [deg]","re(rEPhi) [mV]","im(rEPhi) [mV]","re(rETheta) [mV]","im(rETheta) [mV]"
1.3523,180,90,0,0,-3.09187173337156e-16,-1.50228899428483e-15,4.49390383051292e-18,-5.25972267828492e-18
"Freq [GHz]","IWavePhi [deg]","IWaveTheta [deg]","Phi [deg]","Theta [deg]","re(rEPhi) [mV]","im(rEPhi) [mV]","re(rETheta) [mV]","im(rETheta) [mV]"
1.3523,180,90,0,180,-1.70920481673529e-15,-3.09200125834499e-15,6.94871817168252e-18,-9.7844214046921e-19
