"Freq [GHz]","IWavePhi [deg]","IWaveTheta [deg]","Phi [deg]","Theta [deg]","re(rEPhi) [mV]","im(rEPhi) [mV]","re(rETheta) [mV]","im(rETheta) [mV]"
0.9965,180,90,0,90,21.3379638675954,86.6769557313549,-0.0195540595927449,-0.0407981287136027
"Freq [GHz]","IWavePhi [deg]","IWaveTheta [deg]","Phi [deg]","Theta [deg]","re(rEPhi) [mV]","im(rEPhi) [mV]","re(rETheta) [mV]","im(rETheta) [mV]"
0.9965,180,90,180,90,-21.3144586493438,-86.56288034818,-0.0608508655032709,-0.0575072795980813
"Freq [GHz]","IWavePhi [deg]","IWaveTheta [deg]","Phi [deg]","Theta [deg]","re(rEPhi) [mV]","im(rEPhi) [mV]","re(rETheta) [mV]","im(rETheta) [mV]"
0.9965,180,90,90,90,0.00836544627073235,-0.0637163297376726,-0.0281644211390739,-0.102060881759139
"Freq [GHz]","IWavePhi [deg]","IWaveTheta [deg]","Phi [deg]","Theta [deg]","re(rEPhi) [mV]","im(rEPhi) [mV]","re(rETheta) [mV]","im(rETheta) [mV]"
0.9965,180,90,-90,90,-0.0369573825284568,-0.0936504873491388,-0.0453384924382384,0.0453546007887116
"Freq [GHz]","IWavePhi [deg]","IWaveTheta [deg]","Phi [deg]","Theta [deg]","re(rEPhi) [mV]","im(rEPhi) [mV]","re(rETheta) [mV]","im(rETheta) [mV]"
0.9965,180,90,0,0,17.2337527162023,73.7296935528805,-0.114713207145061,0.00061154191436591
"Freq [GHz]","IWavePhi [deg]","IWaveTheta [deg]","Phi [deg]","Theta [deg]","re(rEPhi) [mV]","im(rEPhi) [mV]","re(rETheta) [mV]","im(rETheta) [mV]"
0.9965,180,90,0,180,17.3484483566605,73.7862286193034,0.166391723087349,-0.0172642459372132
"Freq [GHz]","IWavePhi [deg]","IWaveTheta [deg]","Phi [deg]","Theta [deg]","re(rEPhi) [mV]","im(rEPhi) [mV]","re(rETheta) [mV]","im(rETheta) [mV]"
0.9965,180,90,45,54.736,12.9690408030661,52.8669473732651,7.27472214215087,30.3012839487162
"Freq [GHz]","IWavePhi [deg]","IWaveTheta [deg]","Phi [deg]","Theta [deg]","re(rEPhi) [mV]","im(rEPhi) [mV]","re(rETheta) [mV]","im(rETheta) [mV]"
0.9965,180,90,135,54.736,-12.9912412968771,-53.0120018064151,7.21574907947157,30.2519346949559
"Freq [GHz]","IWavePhi [deg]","IWaveTheta [deg]","Phi [deg]","Theta [deg]","re(rEPhi) [mV]","im(rEPhi) [mV]","re(rETheta) [mV]","im(rETheta) [mV]"
0.9965,180,90,-45,54.736,12.9683682098331,52.8841849558202,-7.24698483886434,-30.3149131313013
"Freq [GHz]","IWavePhi [deg]","IWaveTheta [deg]","Phi [deg]","Theta [deg]","re(rEPhi) [mV]","im(rEPhi) [mV]","re(rETheta) [mV]","im(rETheta) [mV]"
0.9965,180,90,45,125.264,12.9530683174346,52.9450173165141,-7.20675076799296,-30.4490585421776
"Freq [GHz]","IWavePhi [deg]","IWaveTheta [deg]","Phi [deg]","Theta [deg]","re(rEPhi) [mV]","im(rEPhi) [mV]","re(rETheta) [mV]","im(rETheta) [mV]"
0.9965,180,90,-135,54.736,-12.9579979255011,-52.9218813934847,-7.23754601326101,-30.294756374309
"Freq [GHz]","IWavePhi [deg]","IWaveTheta [deg]","Phi [deg]","Theta [deg]","re(rEPhi) [mV]","im(rEPhi) [mV]","re(rETheta) [mV]","im(rETheta) [mV]"
0.9965,180,90,-45,125.264,12.9943964118312,52.7859308305164,7.22710339929272,30.3162610155345
"Freq [GHz]","IWavePhi [deg]","IWaveTheta [deg]","Phi [deg]","Theta [deg]","re(rEPhi) [mV]","im(rEPhi) [mV]","re(rETheta) [mV]","im(rETheta) [mV]"
0.9965,180,90,135,125.264,-12.9898206848001,-52.9271705568577,-7.26023111211221,-30.4172999558981
"Freq [GHz]","IWavePhi [deg]","IWaveTheta [deg]","Phi [deg]","Theta [deg]","re(rEPhi) [mV]","im(rEPhi) [mV]","re(rETheta) [mV]","im(rETheta) [mV]"
0.9965,180,90,-135,125.264,-13.0104802608204,-52.9520578542153,7.27093065915796,30.2774085293672
"Freq [GHz]","IWavePhi [deg]","IWaveTheta [deg]","Phi [deg]","Theta [deg]","re(rEPhi) [mV]","im(rEPhi) [mV]","re(rETheta) [mV]","im(rETheta) [mV]"
0.9965,360,90,0,90,-21.3379638676378,-86.676955731404,0.0195540594774402,0.0407981286893607
"Freq [GHz]","IWavePhi [deg]","IWaveTheta [deg]","Phi [deg]","Theta [deg]","re(rEPhi) [mV]","im(rEPhi) [mV]","re(rETheta) [mV]","im(rETheta) [mV]"
0.9965,360,90,180,90,21.3144586493863,86.5628803481308,0.0608508653877815,0.057507279622605
"Freq [GHz]","IWavePhi [deg]","IWaveTheta [deg]","Phi [deg]","Theta [deg]","re(rEPhi) [mV]","im(rEPhi) [mV]","re(rETheta) [mV]","im(rETheta) [mV]"
0.9965,360,90,90,90,-0.00836544624193406,0.0637163296793782,0.0281644204109648,0.102060881510385
"Freq [GHz]","IWavePhi [deg]","IWaveTheta [deg]","Phi [deg]","Theta [deg]","re(rEPhi) [mV]","im(rEPhi) [mV]","re(rETheta) [mV]","im(rETheta) [mV]"
0.9965,360,90,-90,90,0.0369573824995837,0.093650487290976,0.0453384917098953,-0.0453546005399956
"Freq [GHz]","IWavePhi [deg]","IWaveTheta [deg]","Phi [deg]","Theta [deg]","re(rEPhi) [mV]","im(rEPhi) [mV]","re(rETheta) [mV]","im(rETheta) [mV]"
0.9965,360,90,0,0,-17.2337527157023,-73.7296935534652,0.114713207243046,-0.000611541986165982
"Freq [GHz]","IWavePhi [deg]","IWaveTheta [deg]","Phi [deg]","Theta [deg]","re(rEPhi) [mV]","im(rEPhi) [mV]","re(rETheta) [mV]","im(rETheta) [mV]"
0.9965,360,90,0,180,-17.3484483561605,-73.7862286187188,-0.166391723185447,0.0172642458653869
"Freq [GHz]","IWavePhi [deg]","IWaveTheta [deg]","Phi [deg]","Theta [deg]","re(rEPhi) [mV]","im(rEPhi) [mV]","re(rETheta) [mV]","im(rETheta) [mV]"
0.9965,360,90,45,54.736,-12.9690408032511,-52.8669473733678,-7.27472214281833,-30.3012839488427
"Freq [GHz]","IWavePhi [deg]","IWaveTheta [deg]","Phi [deg]","Theta [deg]","re(rEPhi) [mV]","im(rEPhi) [mV]","re(rETheta) [mV]","im(rETheta) [mV]"
0.9965,360,90,135,54.736,12.9912412967771,53.012001806088,-7.215749079241,-30.2519346945672
"Freq [GHz]","IWavePhi [deg]","IWaveTheta [deg]","Phi [deg]","Theta [deg]","re(rEPhi) [mV]","im(rEPhi) [mV]","re(rETheta) [mV]","im(rETheta) [mV]"
0.9965,360,90,-45,54.736,-12.9683682094804,-52.8841849557705,7.2469848384623,30.3149131312423
"Freq [GHz]","IWavePhi [deg]","IWaveTheta [deg]","Phi [deg]","Theta [deg]","re(rEPhi) [mV]","im(rEPhi) [mV]","re(rETheta) [mV]","im(rETheta) [mV]"
0.9965,360,90,45,125.264,-12.9530683175605,-52.9450173163272,7.20675076831361,30.4490585416339
"Freq [GHz]","IWavePhi [deg]","IWaveTheta [deg]","Phi [deg]","Theta [deg]","re(rEPhi) [mV]","im(rEPhi) [mV]","re(rETheta) [mV]","im(rETheta) [mV]"
0.9965,360,90,-135,54.736,12.957997925627,52.9218813936716,7.23754601358139,30.2947563748524
"Freq [GHz]","IWavePhi [deg]","IWaveTheta [deg]","Phi [deg]","Theta [deg]","re(rEPhi) [mV]","im(rEPhi) [mV]","re(rETheta) [mV]","im(rETheta) [mV]"
0.9965,360,90,-45,125.264,-12.9943964117313,-52.7859308308433,-7.22710339906207,-30.3162610159233
"Freq [GHz]","IWavePhi [deg]","IWaveTheta [deg]","Phi [deg]","Theta [deg]","re(rEPhi) [mV]","im(rEPhi) [mV]","re(rETheta) [mV]","im(rETheta) [mV]"
0.9965,360,90,135,125.264,12.9898206844474,52.9271705569072,7.26023111170989,30.4172999559571
"Freq [GHz]","IWavePhi [deg]","IWaveTheta [deg]","Phi [deg]","Theta [deg]","re(rEPhi) [mV]","im(rEPhi) [mV]","re(rETheta) [mV]","im(rETheta) [mV]"
0.9965,360,90,-135,125.264,13.0104802610055,52.9520578541125,-7.27093065982545,-30.2774085292408
"Freq [GHz]","IWavePhi [deg]","IWaveTheta [deg]","Phi [deg]","Theta [deg]","re(rEPhi) [mV]","im(rEPhi) [mV]","re(rETheta) [mV]","im(rETheta) [mV]"
0.9965,270,90,0,90,3.04778658104194e-15,1.18205267965329e-14,-1.32726224811151e-17,-1.8294995996544e-17
"Freq [GHz]","IWavePhi [deg]","IWaveTheta [deg]","Phi [deg]","Theta [deg]","re(rEPhi) [mV]","im(rEPhi) [mV]","re(rETheta) [mV]","im(rETheta) [mV]"
0.9965,270,90,180,90,-3.03562059616637e-15,-1.18021454028049e-14,-2.0147846179427e-17,-1.99912194418211e-17
"Freq [GHz]","IWavePhi [deg]","IWaveTheta [deg]","Phi [deg]","Theta [deg]","re(rEPhi) [mV]","im(rEPhi) [mV]","re(rETheta) [mV]","im(rETheta) [mV]"
0.9965,270,90,90,90,-2.37680392009787e-19,-8.83361618113348e-18,-1.30606068898735e-17,-6.53819035797484e-18
"Freq [GHz]","IWavePhi [deg]","IWaveTheta [deg]","Phi [deg]","Theta [deg]","re(rEPhi) [mV]","im(rEPhi) [mV]","re(rETheta) [mV]","im(rETheta) [mV]"
0.9965,270,90,-90,90,-2.76921064490068e-18,-1.37200973264886e-17,-1.25779971513754e-17,-2.54928788279183e-18
"Freq [GHz]","IWavePhi [deg]","IWaveTheta [deg]","Phi [deg]","Theta [deg]","re(rEPhi) [mV]","im(rEPhi) [mV]","re(rETheta) [mV]","im(rETheta) [mV]"
0.9965,270,90,0,0,2.46305511790311e-15,1.00362589329423e-14,-1.96882168866169e-17,-2.75946669434674e-19
"Freq [GHz]","IWavePhi [deg]","IWaveTheta [deg]","Phi [deg]","Theta [deg]","re(rEPhi) [mV]","im(rEPhi) [mV]","re(rETheta) [mV]","im(rETheta) [mV]"
0.9965,270,90,0,180,2.48623696114132e-15,1.00423683573527e-14,2.06185052778106e-17,-5.1956438279149e-18
"Freq [GHz]","IWavePhi [deg]","IWaveTheta [deg]","Phi [deg]","Theta [deg]","re(rEPhi) [mV]","im(rEPhi) [mV]","re(rETheta) [mV]","im(rETheta) [mV]"
0.9965,270,90,45,54.736,3.18381026828723e-16,7.27144658545679e-15,1.21898003358426e-16,4.17255396998643e-15
"Freq [GHz]","IWavePhi [deg]","IWaveTheta [deg]","Phi [deg]","Theta [deg]","re(rEPhi) [mV]","im(rEPhi) [mV]","re(rETheta) [mV]","im(rETheta) [mV]"
0.9965,270,90,135,54.736,-3.29327792990191e-16,-7.27422253098489e-15,1.13532640140754e-16,4.16319473071289e-15
"Freq [GHz]","IWavePhi [deg]","IWaveTheta [deg]","Phi [deg]","Theta [deg]","re(rEPhi) [mV]","im(rEPhi) [mV]","re(rETheta) [mV]","im(rETheta) [mV]"
0.9965,270,90,-45,54.736,3.24978780539461e-15,7.13002589054454e-15,-1.87288870972013e-15,-4.09862019255915e-15
"Freq [GHz]","IWavePhi [deg]","IWaveTheta [deg]","Phi [deg]","Theta [deg]","re(rEPhi) [mV]","im(rEPhi) [mV]","re(rETheta) [mV]","im(rETheta) [mV]"
0.9965,270,90,45,125.264,3.24515984935464e-16,7.27093990390001e-15,-1.38754164623265e-16,-4.1957160596779e-15
"Freq [GHz]","IWavePhi [deg]","IWaveTheta [deg]","Phi [deg]","Theta [deg]","re(rEPhi) [mV]","im(rEPhi) [mV]","re(rETheta) [mV]","im(rETheta) [mV]"
0.9965,270,90,-135,54.736,-3.26040429515076e-15,-7.13526735240904e-15,-1.87884323083041e-15,-4.0903984718665e-15
"Freq [GHz]","IWavePhi [deg]","IWaveTheta [deg]","Phi [deg]","Theta [deg]","re(rEPhi) [mV]","im(rEPhi) [mV]","re(rETheta) [mV]","im(rETheta) [mV]"
0.9965,270,90,-45,125.264,3.262309792583e-15,7.11769285123266e-15,1.85567308058957e-15,4.07417615515171e-15
"Freq [GHz]","IWavePhi [deg]","IWaveTheta [deg]","Phi [deg]","Theta [deg]","re(rEPhi) [mV]","im(rEPhi) [mV]","re(rETheta) [mV]","im(rETheta) [mV]"
0.9965,270,90,135,125.264,-3.18194745458872e-16,-7.28803544531491e-15,-1.3308279374157e-16,-4.20094103141336e-15
"Freq [GHz]","IWavePhi [deg]","IWaveTheta [deg]","Phi [deg]","Theta [deg]","re(rEPhi) [mV]","im(rEPhi) [mV]","re(rETheta) [mV]","im(rETheta) [mV]"
0.9965,270,90,-135,125.264,-3.25950632104363e-15,-7.1351500893974e-15,1.85988673728473e-15,4.07461872208331e-15
"Freq [GHz]","IWavePhi [deg]","IWaveTheta [deg]","Phi [deg]","Theta [deg]","re(rEPhi) [mV]","im(rEPhi) [mV]","re(rETheta) [mV]","im(rETheta) [mV]"
0.9965,90,90,0,90,-1.01829691284465e-15,-3.93852092591066e-15,5.98042396530571e-19,1.05087142464502e-18
"Freq [GHz]","IWavePhi [deg]","IWaveTheta [deg]","Phi [deg]","Theta [deg]","re(rEPhi) [mV]","im(rEPhi) [mV]","re(rETheta) [mV]","im(rETheta) [mV]"
0.9965,90,90,180,90,1.02156644872172e-15,3.93184743462899e-15,3.0935831495713e-18,1.25609777442809e-18
"Freq [GHz]","IWavePhi [deg]","IWaveTheta [deg]","Phi [deg]","Theta [deg]","re(rEPhi) [mV]","im(rEPhi) [mV]","re(rETheta) [mV]","im(rETheta) [mV]"
0.9965,90,90,90,90,-1.09584484633817e-18,3.2004367446769e-18,3.17843343425786e-18,3.91791464136151e-18
"Freq [GHz]","IWavePhi [deg]","IWaveTheta [deg]","Phi [deg]","Theta [deg]","re(rEPhi) [mV]","im(rEPhi) [mV]","re(rETheta) [mV]","im(rETheta) [mV]"
0.9965,90,90,-90,90,1.37217725733865e-18,3.39232731690039e-18,2.76126267800784e-18,-2.29176875354537e-18
"Freq [GHz]","IWavePhi [deg]","IWaveTheta [deg]","Phi [deg]","Theta [deg]","re(rEPhi) [mV]","im(rEPhi) [mV]","re(rETheta) [mV]","im(rETheta) [mV]"
0.9965,90,90,0,0,-8.26823166021929e-16,-3.33988253483715e-15,5.78387674093617e-18,1.41731198853795e-18
"Freq [GHz]","IWavePhi [deg]","IWaveTheta [deg]","Phi [deg]","Theta [deg]","re(rEPhi) [mV]","im(rEPhi) [mV]","re(rETheta) [mV]","im(rETheta) [mV]"
0.9965,90,90,0,180,-8.26908135923343e-16,-3.34560664599789e-15,-7.28381904038075e-18,7.38307939588235e-19
"Freq [GHz]","IWavePhi [deg]","IWaveTheta [deg]","Phi [deg]","Theta [deg]","re(rEPhi) [mV]","im(rEPhi) [mV]","re(rETheta) [mV]","im(rETheta) [mV]"
0.9965,90,90,45,54.736,-1.09194852555967e-15,-2.37211964518932e-15,-6.27017246518008e-16,-1.35698786342754e-15
"Freq [GHz]","IWavePhi [deg]","IWaveTheta [deg]","Phi [deg]","Theta [deg]","re(rEPhi) [mV]","im(rEPhi) [mV]","re(rETheta) [mV]","im(rETheta) [mV]"
0.9965,90,90,135,54.736,1.09186853522557e-15,2.37906916643369e-15,-6.25740583763999e-16,-1.35717818618075e-15
"Freq [GHz]","IWavePhi [deg]","IWaveTheta [deg]","Phi [deg]","Theta [deg]","re(rEPhi) [mV]","im(rEPhi) [mV]","re(rETheta) [mV]","im(rETheta) [mV]"
0.9965,90,90,-45,54.736,-1.02799470761704e-16,-2.42083510660466e-15,3.91185453140399e-17,1.38978281316678e-15
"Freq [GHz]","IWavePhi [deg]","IWaveTheta [deg]","Phi [deg]","Theta [deg]","re(rEPhi) [mV]","im(rEPhi) [mV]","re(rETheta) [mV]","im(rETheta) [mV]"
0.9965,90,90,45,125.264,-1.09073688326969e-15,-2.37471188051249e-15,6.29095161381772e-16,1.36421301156575e-15
"Freq [GHz]","IWavePhi [deg]","IWaveTheta [deg]","Phi [deg]","Theta [deg]","re(rEPhi) [mV]","im(rEPhi) [mV]","re(rETheta) [mV]","im(rETheta) [mV]"
0.9965,90,90,-135,54.736,1.09672293368685e-16,2.42584841038114e-15,4.4798624106885e-17,1.38993842486286e-15
"Freq [GHz]","IWavePhi [deg]","IWaveTheta [deg]","Phi [deg]","Theta [deg]","re(rEPhi) [mV]","im(rEPhi) [mV]","re(rETheta) [mV]","im(rETheta) [mV]"
0.9965,90,90,-45,125.264,-1.08161998935358e-16,-2.42057088823444e-15,-3.97998897630061e-17,-1.39383087199247e-15
"Freq [GHz]","IWavePhi [deg]","IWaveTheta [deg]","Phi [deg]","Theta [deg]","re(rEPhi) [mV]","im(rEPhi) [mV]","re(rETheta) [mV]","im(rETheta) [mV]"
0.9965,90,90,135,125.264,1.08788311296371e-15,2.37816890335597e-15,6.26578819355937e-16,1.36414993869036e-15
"Freq [GHz]","IWavePhi [deg]","IWaveTheta [deg]","Phi [deg]","Theta [deg]","re(rEPhi) [mV]","im(rEPhi) [mV]","re(rETheta) [mV]","im(rETheta) [mV]"
0.9965,90,90,-135,125.264,1.05638837630405e-16,2.42755803966045e-15,-4.16583949570383e-17,-1.39322656578804e-15
"Freq [GHz]","IWavePhi [deg]","IWaveTheta [deg]","Phi [deg]","Theta [deg]","re(rEPhi) [mV]","im(rEPhi) [mV]","re(rETheta) [mV]","im(rETheta) [mV]"
0.9965,180,180,0,90,17.2206511356736,73.9597044969956,-0.0136597646549831,-0.058454448884095
"Freq [GHz]","IWavePhi [deg]","IWaveTheta [deg]","Phi [deg]","Theta [deg]","re(rEPhi) [mV]","im(rEPhi) [mV]","re(rETheta) [mV]","im(rETheta) [mV]"
0.9965,180,180,180,90,-17.187167573861,-73.7998994371214,0.0140947737927708,-0.0572680065830137
"Freq [GHz]","IWavePhi [deg]","IWaveTheta [deg]","Phi [deg]","Theta [deg]","re(rEPhi) [mV]","im(rEPhi) [mV]","re(rETheta) [mV]","im(rETheta) [mV]"
0.9965,180,180,90,90,0.0215224670410341,-0.0456120551803452,15.678535648674,0.67200752670956
"Freq [GHz]","IWavePhi [deg]","IWaveTheta [deg]","Phi [deg]","Theta [deg]","re(rEPhi) [mV]","im(rEPhi) [mV]","re(rETheta) [mV]","im(rETheta) [mV]"
0.9965,180,180,-90,90,-0.0308686836972817,-0.0658041989318062,-15.7463301403891,-0.717589623253885
"Freq [GHz]","IWavePhi [deg]","IWaveTheta [deg]","Phi [deg]","Theta [deg]","re(rEPhi) [mV]","im(rEPhi) [mV]","re(rETheta) [mV]","im(rETheta) [mV]"
0.9965,180,180,0,0,25.8085502155348,65.5891008338448,-0.110524271493317,0.0183869450216441
"Freq [GHz]","IWavePhi [deg]","IWaveTheta [deg]","Phi [deg]","Theta [deg]","re(rEPhi) [mV]","im(rEPhi) [mV]","re(rETheta) [mV]","im(rETheta) [mV]"
0.9965,180,180,0,180,4.95893232709408,60.1553284860157,0.156105110749492,-0.013894040359021
"Freq [GHz]","IWavePhi [deg]","IWaveTheta [deg]","Phi [deg]","Theta [deg]","re(rEPhi) [mV]","im(rEPhi) [mV]","re(rETheta) [mV]","im(rETheta) [mV]"
0.9965,180,180,45,54.736,14.8931627090036,46.1226999642172,17.8968270697952,26.8398779980058
"Freq [GHz]","IWavePhi [deg]","IWaveTheta [deg]","Phi [deg]","Theta [deg]","re(rEPhi) [mV]","im(rEPhi) [mV]","re(rETheta) [mV]","im(rETheta) [mV]"
0.9965,180,180,135,54.736,-14.8942429452036,-46.2382656939027,17.8228831416528,26.8375953304472
"Freq [GHz]","IWavePhi [deg]","IWaveTheta [deg]","Phi [deg]","Theta [deg]","re(rEPhi) [mV]","im(rEPhi) [mV]","re(rETheta) [mV]","im(rETheta) [mV]"
0.9965,180,180,-45,54.736,14.90761760835,46.1273408744938,-17.8674720978556,-26.8746451307446
"Freq [GHz]","IWavePhi [deg]","IWaveTheta [deg]","Phi [deg]","Theta [deg]","re(rEPhi) [mV]","im(rEPhi) [mV]","re(rETheta) [mV]","im(rETheta) [mV]"
0.9965,180,180,45,125.264,6.9103175129126,44.0591450249848,4.94949140192378,-24.9109795115014
"Freq [GHz]","IWavePhi [deg]","IWaveTheta [deg]","Phi [deg]","Theta [deg]","re(rEPhi) [mV]","im(rEPhi) [mV]","re(rETheta) [mV]","im(rETheta) [mV]"
0.9965,180,180,-135,54.736,-14.8759495218195,-46.1315222109239,-17.876196496525,-26.8107698830179
"Freq [GHz]","IWavePhi [deg]","IWaveTheta [deg]","Phi [deg]","Theta [deg]","re(rEPhi) [mV]","im(rEPhi) [mV]","re(rETheta) [mV]","im(rETheta) [mV]"
0.9965,180,180,-45,125.264,6.88974206346939,43.9483875088725,-4.95528561543971,24.8305065608663
"Freq [GHz]","IWavePhi [deg]","IWaveTheta [deg]","Phi [deg]","Theta [deg]","re(rEPhi) [mV]","im(rEPhi) [mV]","re(rETheta) [mV]","im(rETheta) [mV]"
0.9965,180,180,135,125.264,-6.92720123918354,-44.0516556020463,4.91540852893517,-24.9121719690016
"Freq [GHz]","IWavePhi [deg]","IWaveTheta [deg]","Phi [deg]","Theta [deg]","re(rEPhi) [mV]","im(rEPhi) [mV]","re(rETheta) [mV]","im(rETheta) [mV]"
0.9965,180,180,-135,125.264,-6.91388434705404,-44.0881244908266,-4.89545811364713,24.8239463151359
"Freq [GHz]","IWavePhi [deg]","IWaveTheta [deg]","Phi [deg]","Theta [deg]","re(rEPhi) [mV]","im(rEPhi) [mV]","re(rETheta) [mV]","im(rETheta) [mV]"
0.9965,180,0,0,90,17.4319935963624,73.8630978583646,-0.00852852960986493,-0.0718250877908303
"Freq [GHz]","IWavePhi [deg]","IWaveTheta [deg]","Phi [deg]","Theta [deg]","re(rEPhi) [mV]","im(rEPhi) [mV]","re(rETheta) [mV]","im(rETheta) [mV]"
0.9965,180,0,180,90,-17.4291747743538,-73.7417418727567,-0.0828301387618697,-0.027836848989892
"Freq [GHz]","IWavePhi [deg]","IWaveTheta [deg]","Phi [deg]","Theta [deg]","re(rEPhi) [mV]","im(rEPhi) [mV]","re(rETheta) [mV]","im(rETheta) [mV]"
0.9965,180,0,90,90,0.021088471029687,-0.0582474396254851,-15.7508546957687,-0.771372323056868
"Freq [GHz]","IWavePhi [deg]","IWaveTheta [deg]","Phi [deg]","Theta [deg]","re(rEPhi) [mV]","im(rEPhi) [mV]","re(rETheta) [mV]","im(rETheta) [mV]"
0.9965,180,0,-90,90,-0.0534528473636178,-0.0708669637611656,15.672859987839,0.715987193000327
"Freq [GHz]","IWavePhi [deg]","IWaveTheta [deg]","Phi [deg]","Theta [deg]","re(rEPhi) [mV]","im(rEPhi) [mV]","re(rETheta) [mV]","im(rETheta) [mV]"
0.9965,180,0,0,0,4.9848207203592,60.0786079766578,-0.117595863996144,-0.0285430641429054
"Freq [GHz]","IWavePhi [deg]","IWaveTheta [deg]","Phi [deg]","Theta [deg]","re(rEPhi) [mV]","im(rEPhi) [mV]","re(rETheta) [mV]","im(rETheta) [mV]"
0.9965,180,0,0,180,25.9240467906623,65.6810901447279,0.138717422750106,-0.0224403782959156
"Freq [GHz]","IWavePhi [deg]","IWaveTheta [deg]","Phi [deg]","Theta [deg]","re(rEPhi) [mV]","im(rEPhi) [mV]","re(rETheta) [mV]","im(rETheta) [mV]"
0.9965,180,0,45,54.736,6.8068210504032,43.9938744558922,-4.98101351234191,24.7928048118748
"Freq [GHz]","IWavePhi [deg]","IWaveTheta [deg]","Phi [deg]","Theta [deg]","re(rEPhi) [mV]","im(rEPhi) [mV]","re(rETheta) [mV]","im(rETheta) [mV]"
0.9965,180,0,135,54.736,-6.925367169179,-44.0388917331181,-4.95781997975951,24.7178973222253
"Freq [GHz]","IWavePhi [deg]","IWaveTheta [deg]","Phi [deg]","Theta [deg]","re(rEPhi) [mV]","im(rEPhi) [mV]","re(rETheta) [mV]","im(rETheta) [mV]"
0.9965,180,0,-45,54.736,6.78658074003058,44.0430443078581,4.98708741142009,-24.8366657057999
"Freq [GHz]","IWavePhi [deg]","IWaveTheta [deg]","Phi [deg]","Theta [deg]","re(rEPhi) [mV]","im(rEPhi) [mV]","re(rETheta) [mV]","im(rETheta) [mV]"
0.9965,180,0,45,125.264,14.8540868300806,46.1947837548863,-17.8998985952981,-26.9882975136679
"Freq [GHz]","IWavePhi [deg]","IWaveTheta [deg]","Phi [deg]","Theta [deg]","re(rEPhi) [mV]","im(rEPhi) [mV]","re(rETheta) [mV]","im(rETheta) [mV]"
0.9965,180,0,-135,54.736,-6.86374057999297,-44.0358358754488,4.91730571396206,-24.7934893401087
