"Freq [GHz]","IWavePhi [deg]","IWaveTheta [deg]","Phi [deg]","Theta [deg]","re(rEPhi) [mV]","im(rEPhi) [mV]","re(rETheta) [mV]","im(rETheta) [mV]"
1.3523,180,90,0,90,28.3634126121307,67.6528542337639,-0.0516703713943899,-0.0142592956136359
"Freq [GHz]","IWavePhi [deg]","IWaveTheta [deg]","Phi [deg]","Theta [deg]","re(rEPhi) [mV]","im(rEPhi) [mV]","re(rETheta) [mV]","im(rETheta) [mV]"
1.3523,180,90,180,90,-28.330497429841,-67.594657212854,-0.0366956499305685,-0.0139299244092682
"Freq [GHz]","IWavePhi [deg]","IWaveTheta [deg]","Phi [deg]","Theta [deg]","re(rEPhi) [mV]","im(rEPhi) [mV]","re(rETheta) [mV]","im(rETheta) [mV]"
1.3523,180,90,90,90,0.0157615802326555,0.00169537815410861,0.0340906154484384,-0.0463207129320964
"Freq [GHz]","IWavePhi [deg]","IWaveTheta [deg]","Phi [deg]","Theta [deg]","re(rEPhi) [mV]","im(rEPhi) [mV]","re(rETheta) [mV]","im(rETheta) [mV]"
1.3523,180,90,-90,90,0.00369061007061427,-0.0196573833995383,-0.00807045335871016,0.011796418739606
"Freq [GHz]","IWavePhi [deg]","IWaveTheta [deg]","Phi [deg]","Theta [deg]","re(rEPhi) [mV]","im(rEPhi) [mV]","re(rETheta) [mV]","im(rETheta) [mV]"
1.3523,180,90,0,0,18.9489269374334,50.3520112098237,0.00171827953156915,0.0311533818300542
"Freq [GHz]","IWavePhi [deg]","IWaveTheta [deg]","Phi [deg]","Theta [deg]","re(rEPhi) [mV]","im(rEPhi) [mV]","re(rETheta) [mV]","im(rETheta) [mV]"
1.3523,180,90,0,180,18.7341314135303,50.4081429560794,-0.0236245227860811,0.000413238171838191
"Freq [GHz]","IWavePhi [deg]","IWaveTheta [deg]","Phi [deg]","Theta [deg]","re(rEPhi) [mV]","im(rEPhi) [mV]","re(rETheta) [mV]","im(rETheta) [mV]"
1.3523,180,90,45,54.736,15.6194127172127,36.94312118703,8.62805851823259,21.207383505466
"Freq [GHz]","IWavePhi [deg]","IWaveTheta [deg]","Phi [deg]","Theta [deg]","re(rEPhi) [mV]","im(rEPhi) [mV]","re(rETheta) [mV]","im(rETheta) [mV]"
1.3523,180,90,135,54.736,-15.6666566135918,-37.0849657915394,8.66489057359201,21.2985568599195
"Freq [GHz]","IWavePhi [deg]","IWaveTheta [deg]","Phi [deg]","Theta [deg]","re(rEPhi) [mV]","im(rEPhi) [mV]","re(rETheta) [mV]","im(rETheta) [mV]"
1.3523,180,90,-45,54.736,15.7029899287758,37.090815654714,-8.68337884591531,-21.3144491556073
"Freq [GHz]","IWavePhi [deg]","IWaveTheta [deg]","Phi [deg]","Theta [deg]","re(rEPhi) [mV]","im(rEPhi) [mV]","re(rETheta) [mV]","im(rETheta) [mV]"
1.3523,180,90,45,125.264,15.6918045880435,37.0934670427271,-8.65935755293004,-21.3228396462537
"Freq [GHz]","IWavePhi [deg]","IWaveTheta [deg]","Phi [deg]","Theta [deg]","re(rEPhi) [mV]","im(rEPhi) [mV]","re(rETheta) [mV]","im(rETheta) [mV]"
1.3523,180,90,-135,54.736,-15.7167504123646,-37.0408444319629,-8.69842585653072,-21.2824451248092
"Freq [GHz]","IWavePhi [deg]","IWaveTheta [deg]","Phi [deg]","Theta [deg]","re(rEPhi) [mV]","im(rEPhi) [mV]","re(rETheta) [mV]","im(rETheta) [mV]"
1.3523,180,90,-45,125.264,15.696346488585,36.9755888187251,8.64202646747092,21.2559069605452
"Freq [GHz]","IWavePhi [deg]","IWaveTheta [deg]","Phi [deg]","Theta [deg]","re(rEPhi) [mV]","im(rEPhi) [mV]","re(rETheta) [mV]","im(rETheta) [mV]"
1.3523,180,90,135,125.264,-15.6089794697592,-36.98624934573,-8.6421171041811,-21.2522515292987
"Freq [GHz]","IWavePhi [deg]","IWaveTheta [deg]","Phi [deg]","Theta [deg]","re(rEPhi) [mV]","im(rEPhi) [mV]","re(rETheta) [mV]","im(rETheta) [mV]"
1.3523,180,90,-135,125.264,-15.5252290743666,-37.0653347256477,8.53091163399427,21.3017557450308
"Freq [GHz]","IWavePhi [deg]","IWaveTheta [deg]","Phi [deg]","Theta [deg]","re(rEPhi) [mV]","im(rEPhi) [mV]","re(rETheta) [mV]","im(rETheta) [mV]"
1.3523,180,90,0,90,-28.3634126121307,-67.6528542337639,0.0516703713943899,0.0142592956136359
"Freq [GHz]","IWavePhi [deg]","IWaveTheta [deg]","Phi [deg]","Theta [deg]","re(rEPhi) [mV]","im(rEPhi) [mV]","re(rETheta) [mV]","im(rETheta) [mV]"
1.3523,180,90,180,90,28.330497429841,67.594657212854,0.0366956499305685,0.0139299244092682
"Freq [GHz]","IWavePhi [deg]","IWaveTheta [deg]","Phi [deg]","Theta [deg]","re(rEPhi) [mV]","im(rEPhi) [mV]","re(rETheta) [mV]","im(rETheta) [mV]"
1.3523,180,90,90,90,-0.0157615802239972,-0.00169537814734882,-0.0340906154484384,0.0463207129320964
"Freq [GHz]","IWavePhi [deg]","IWaveTheta [deg]","Phi [deg]","Theta [deg]","re(rEPhi) [mV]","im(rEPhi) [mV]","re(rETheta) [mV]","im(rETheta) [mV]"
1.3523,180,90,-90,90,-0.00369061006992176,0.0196573834002445,0.00807045335871016,-0.011796418739606
"Freq [GHz]","IWavePhi [deg]","IWaveTheta [deg]","Phi [deg]","Theta [deg]","re(rEPhi) [mV]","im(rEPhi) [mV]","re(rETheta) [mV]","im(rETheta) [mV]"
1.3523,180,90,0,0,-18.9489269374334,-50.3520112098237,-0.00171827953650499,-0.0311533818240828
"Freq [GHz]","IWavePhi [deg]","IWaveTheta [deg]","Phi [deg]","Theta [deg]","re(rEPhi) [mV]","im(rEPhi) [mV]","re(rETheta) [mV]","im(rETheta) [mV]"
1.3523,180,90,0,180,-18.7341314135303,-50.4081429560794,0.0236245227799259,-0.000413238167093815
"Freq [GHz]","IWavePhi [deg]","IWaveTheta [deg]","Phi [deg]","Theta [deg]","re(rEPhi) [mV]","im(rEPhi) [mV]","re(rETheta) [mV]","im(rETheta) [mV]"
1.3523,180,90,45,54.736,-15.6194127172182,-36.9431211870262,-8.62805851822944,-21.2073835054682
"Freq [GHz]","IWavePhi [deg]","IWaveTheta [deg]","Phi [deg]","Theta [deg]","re(rEPhi) [mV]","im(rEPhi) [mV]","re(rETheta) [mV]","im(rETheta) [mV]"
1.3523,180,90,135,54.736,15.6666566135869,37.0849657915453,-8.66489057359486,-21.2985568599161
"Freq [GHz]","IWavePhi [deg]","IWaveTheta [deg]","Phi [deg]","Theta [deg]","re(rEPhi) [mV]","im(rEPhi) [mV]","re(rETheta) [mV]","im(rETheta) [mV]"
1.3523,180,90,-45,54.736,-15.7029899287756,-37.090815654714,8.68337884591543,21.3144491556073
"Freq [GHz]","IWavePhi [deg]","IWaveTheta [deg]","Phi [deg]","Theta [deg]","re(rEPhi) [mV]","im(rEPhi) [mV]","re(rETheta) [mV]","im(rETheta) [mV]"
1.3523,180,90,45,125.264,-15.6918045880391,-37.093467042732,8.65935755293261,21.3228396462509
"Freq [GHz]","IWavePhi [deg]","IWaveTheta [deg]","Phi [deg]","Theta [deg]","re(rEPhi) [mV]","im(rEPhi) [mV]","re(rETheta) [mV]","im(rETheta) [mV]"
1.3523,180,90,-135,54.736,15.7167504123675,37.0408444319603,8.69842585652909,21.2824451248107
"Freq [GHz]","IWavePhi [deg]","IWaveTheta [deg]","Phi [deg]","Theta [deg]","re(rEPhi) [mV]","im(rEPhi) [mV]","re(rETheta) [mV]","im(rETheta) [mV]"
1.3523,180,90,-45,125.264,-15.6963464885852,-36.975588818725,-8.64202646747082,-21.2559069605452
"Freq [GHz]","IWavePhi [deg]","IWaveTheta [deg]","Phi [deg]","Theta [deg]","re(rEPhi) [mV]","im(rEPhi) [mV]","re(rETheta) [mV]","im(rETheta) [mV]"
1.3523,180,90,135,125.264,15.6089794697626,36.9862493457232,8.6421171041791,21.2522515293026
"Freq [GHz]","IWavePhi [deg]","IWaveTheta [deg]","Phi [deg]","Theta [deg]","re(rEPhi) [mV]","im(rEPhi) [mV]","re(rETheta) [mV]","im(rETheta) [mV]"
1.3523,180,90,-135,125.264,15.5252290743644,37.0653347256508,-8.53091163399551,-21.301755745029
"Freq [GHz]","IWavePhi [deg]","IWaveTheta [deg]","Phi [deg]","Theta [deg]","re(rEPhi) [mV]","im(rEPhi) [mV]","re(rETheta) [mV]","im(rETheta) [mV]"
1.3523,180,90,0,90,2.308021327636e-15,4.94326403669066e-15,-2.80105889560134e-15,1.6523808851677e-15
"Freq [GHz]","IWavePhi [deg]","IWaveTheta [deg]","Phi [deg]","Theta [deg]","re(rEPhi) [mV]","im(rEPhi) [mV]","re(rETheta) [mV]","im(rETheta) [mV]"
1.3523,180,90,180,90,-2.29831781900073e-15,-4.93912857021497e-15,-2.8003118415837e-15,1.65184936562161e-15
"Freq [GHz]","IWavePhi [deg]","IWaveTheta [deg]","Phi [deg]","Theta [deg]","re(rEPhi) [mV]","im(rEPhi) [mV]","re(rETheta) [mV]","im(rETheta) [mV]"
1.3523,180,90,90,90,2.14870510442951e-19,-1.07397173396505e-18,-3.68932980602875e-15,2.32490849554958e-15
"Freq [GHz]","IWavePhi [deg]","IWaveTheta [deg]","Phi [deg]","Theta [deg]","re(rEPhi) [mV]","im(rEPhi) [mV]","re(rETheta) [mV]","im(rETheta) [mV]"
1.3523,180,90,-90,90,2.79745145727894e-19,-2.66556931829765e-18,4.36696390219964e-15,-1.40930247560215e-15
"Freq [GHz]","IWavePhi [deg]","IWaveTheta [deg]","Phi [deg]","Theta [deg]","re(rEPhi) [mV]","im(rEPhi) [mV]","re(rETheta) [mV]","im(rETheta) [mV]"
1.3523,180,90,0,0,6.03108317603647e-15,2.73097819199249e-15,-1.5831047377413e-18,4.97279988254825e-18
"Freq [GHz]","IWavePhi [deg]","IWaveTheta [deg]","Phi [deg]","Theta [deg]","re(rEPhi) [mV]","im(rEPhi) [mV]","re(rETheta) [mV]","im(rETheta) [mV]"
1.3523,180,90,0,180,-2.88458142745749e-15,4.63043019258509e-15,-4.60611303837605e-18,8.19794641979728e-19
"Freq [GHz]","IWavePhi [deg]","IWaveTheta [deg]","Phi [deg]","Theta [deg]","re(rEPhi) [mV]","im(rEPhi) [mV]","re(rETheta) [mV]","im(rETheta) [mV]"
1.3523,180,90,45,54.736,2.9582854476294e-16,3.33183906562056e-15,-3.90226649527799e-15,4.14314210357718e-15
"Freq [GHz]","IWavePhi [deg]","IWaveTheta [deg]","Phi [deg]","Theta [deg]","re(rEPhi) [mV]","im(rEPhi) [mV]","re(rETheta) [mV]","im(rETheta) [mV]"
1.3523,180,90,135,54.736,-2.99364432608004e-16,-3.33872667775956e-15,-3.90977078978983e-15,4.15568731743235e-15
"Freq [GHz]","IWavePhi [deg]","IWaveTheta [deg]","Phi [deg]","Theta [deg]","re(rEPhi) [mV]","im(rEPhi) [mV]","re(rETheta) [mV]","im(rETheta) [mV]"
1.3523,180,90,-45,54.736,5.28253914198493e-15,1.31737432478176e-15,-1.38773654678318e-15,-1.08840606833494e-15
"Freq [GHz]","IWavePhi [deg]","IWaveTheta [deg]","Phi [deg]","Theta [deg]","re(rEPhi) [mV]","im(rEPhi) [mV]","re(rETheta) [mV]","im(rETheta) [mV]"
1.3523,180,90,45,125.264,-4.86990178964314e-15,4.14439536633979e-15,-1.1130128176678e-15,-2.18832887192143e-16
"Freq [GHz]","IWavePhi [deg]","IWaveTheta [deg]","Phi [deg]","Theta [deg]","re(rEPhi) [mV]","im(rEPhi) [mV]","re(rETheta) [mV]","im(rETheta) [mV]"
1.3523,180,90,-135,54.736,-5.28335316482e-15,-1.32015575181326e-15,-1.38647585653192e-15,-1.08666584527723e-15
"Freq [GHz]","IWavePhi [deg]","IWaveTheta [deg]","Phi [deg]","Theta [deg]","re(rEPhi) [mV]","im(rEPhi) [mV]","re(rETheta) [mV]","im(rETheta) [mV]"
1.3523,180,90,-45,125.264,3.38555433405998e-15,2.03251263478364e-15,3.60021254910333e-15,7.87279855667901e-16
"Freq [GHz]","IWavePhi [deg]","IWaveTheta [deg]","Phi [deg]","Theta [deg]","re(rEPhi) [mV]","im(rEPhi) [mV]","re(rETheta) [mV]","im(rETheta) [mV]"
1.3523,180,90,135,125.264,4.87595443149639e-15,-4.13693029530382e-15,-1.10782975012624e-15,-2.14535815606688e-16
"Freq [GHz]","IWavePhi [deg]","IWaveTheta [deg]","Phi [deg]","Theta [deg]","re(rEPhi) [mV]","im(rEPhi) [mV]","re(rETheta) [mV]","im(rETheta) [mV]"
1.3523,180,90,-135,125.264,-3.37166295692804e-15,-2.03211670793847e-15,3.58826441355874e-15,7.85480036226327e-16
"Freq [GHz]","IWavePhi [deg]","IWaveTheta [deg]","Phi [deg]","Theta [deg]","re(rEPhi) [mV]","im(rEPhi) [mV]","re(rETheta) [mV]","im(rETheta) [mV]"
1.3523,180,90,0,90,-1.47994418745701e-18,-3.93013782694252e-18,2.83110099007256e-15,-1.63164102449163e-15
"Freq [GHz]","IWavePhi [deg]","IWaveTheta [deg]","Phi [deg]","Theta [deg]","re(rEPhi) [mV]","im(rEPhi) [mV]","re(rETheta) [mV]","im(rETheta) [mV]"
1.3523,180,90,180,90,3.86857992653319e-18,1.30356556121503e-18,2.82638973042457e-15,-1.63319691037878e-15
"Freq [GHz]","IWavePhi [deg]","IWaveTheta [deg]","Phi [deg]","Theta [deg]","re(rEPhi) [mV]","im(rEPhi) [mV]","re(rETheta) [mV]","im(rETheta) [mV]"
1.3523,180,90,90,90,-3.33700230549444e-18,-2.50556371876394e-19,-4.36854522448109e-15,1.42007241842644e-15
"Freq [GHz]","IWavePhi [deg]","IWaveTheta [deg]","Phi [deg]","Theta [deg]","re(rEPhi) [mV]","im(rEPhi) [mV]","re(rETheta) [mV]","im(rETheta) [mV]"
1.3523,180,90,-90,90,-2.95171677418749e-18,3.37738683837415e-18,3.69330732163192e-15,-2.33546071948159e-15
"Freq [GHz]","IWavePhi [deg]","IWaveTheta [deg]","Phi [deg]","Theta [deg]","re(rEPhi) [mV]","im(rEPhi) [mV]","re(rETheta) [mV]","im(rETheta) [mV]"
1.3523,180,90,0,0,4.44557579346521e-15,-9.45768820409921e-16,-6.73416740334218e-19,1.69393597762588e-18
"Freq [GHz]","IWavePhi [deg]","IWaveTheta [deg]","Phi [deg]","Theta [deg]","re(rEPhi) [mV]","im(rEPhi) [mV]","re(rETheta) [mV]","im(rETheta) [mV]"
1.3523,180,90,0,180,-4.44581058919637e-15,9.43430604038952e-16,8.10957966693477e-19,-2.09052921247939e-19
"Freq [GHz]","IWavePhi [deg]","IWaveTheta [deg]","Phi [deg]","Theta [deg]","re(rEPhi) [mV]","im(rEPhi) [mV]","re(rETheta) [mV]","im(rETheta) [mV]"
1.3523,180,90,45,54.736,9.5365972292749e-16,-3.57894602262427e-16,-1.09414273505058e-15,1.68829450999881e-16
"Freq [GHz]","IWavePhi [deg]","IWaveTheta [deg]","Phi [deg]","Theta [deg]","re(rEPhi) [mV]","im(rEPhi) [mV]","re(rETheta) [mV]","im(rETheta) [mV]"
1.3523,180,90,135,54.736,-9.50812072923223e-16,3.58757008736395e-16,-1.09130369812242e-15,1.66889167556433e-16
"Freq [GHz]","IWavePhi [deg]","IWaveTheta [deg]","Phi [deg]","Theta [deg]","re(rEPhi) [mV]","im(rEPhi) [mV]","re(rETheta) [mV]","im(rETheta) [mV]"
1.3523,180,90,-45,54.736,2.58335338166091e-15,-4.02213155578322e-16,2.52669146057151e-15,-1.96672337900572e-15
"Freq [GHz]","IWavePhi [deg]","IWaveTheta [deg]","Phi [deg]","Theta [deg]","re(rEPhi) [mV]","im(rEPhi) [mV]","re(rETheta) [mV]","im(rETheta) [mV]"
1.3523,180,90,45,125.264,-9.47216324363816e-16,3.54174844159824e-16,-1.09663323335655e-15,1.63551815745215e-16
"Freq [GHz]","IWavePhi [deg]","IWaveTheta [deg]","Phi [deg]","Theta [deg]","re(rEPhi) [mV]","im(rEPhi) [mV]","re(rETheta) [mV]","im(rETheta) [mV]"
1.3523,180,90,-135,54.736,-2.58546374950385e-15,4.01509754902706e-16,2.52072384859204e-15,-1.96377171581297e-15
"Freq [GHz]","IWavePhi [deg]","IWaveTheta [deg]","Phi [deg]","Theta [deg]","re(rEPhi) [mV]","im(rEPhi) [mV]","re(rETheta) [mV]","im(rETheta) [mV]"
1.3523,180,90,-45,125.264,-2.59229389372834e-15,4.06785740929602e-16,2.5205788601977e-15,-1.96617622477842e-15
"Freq [GHz]","IWavePhi [deg]","IWaveTheta [deg]","Phi [deg]","Theta [deg]","re(rEPhi) [mV]","im(rEPhi) [mV]","re(rETheta) [mV]","im(rETheta) [mV]"
1.3523,180,90,135,125.264,9.45575265170447e-16,-3.50362961197585e-16,-1.09605863343114e-15,1.69152135306749e-16
"Freq [GHz]","IWavePhi [deg]","IWaveTheta [deg]","Phi [deg]","Theta [deg]","re(rEPhi) [mV]","im(rEPhi) [mV]","re(rETheta) [mV]","im(rETheta) [mV]"
1.3523,180,90,-135,125.264,2.59402333155628e-15,-4.04230860795122e-16,2.52507222401968e-15,-1.95278933532362e-15
"Freq [GHz]","IWavePhi [deg]","IWaveTheta [deg]","Phi [deg]","Theta [deg]","re(rEPhi) [mV]","im(rEPhi) [mV]","re(rETheta) [mV]","im(rETheta) [mV]"
1.3523,180,90,0,90,18.8284986330234,50.3457831520565,-0.112531943760374,-0.0423291705671298
"Freq [GHz]","IWavePhi [deg]","IWaveTheta [deg]","Phi [deg]","Theta [deg]","re(rEPhi) [mV]","im(rEPhi) [mV]","re(rETheta) [mV]","im(rETheta) [mV]"
1.3523,180,90,180,90,-18.7916465687669,-50.2849909595296,-0.0705360859370123,-0.0250096324951848
"Freq [GHz]","IWavePhi [deg]","IWaveTheta [deg]","Phi [deg]","Theta [deg]","re(rEPhi) [mV]","im(rEPhi) [mV]","re(rETheta) [mV]","im(rETheta) [mV]"
1.3523,180,90,90,90,0.0228642367944549,-0.00294451333824213,27.7598649841545,-5.98141082325454
"Freq [GHz]","IWavePhi [deg]","IWaveTheta [deg]","Phi [deg]","Theta [deg]","re(rEPhi) [mV]","im(rEPhi) [mV]","re(rETheta) [mV]","im(rETheta) [mV]"
1.3523,180,90,-90,90,0.0153523760436228,-0.0232171534651972,-27.739850391383,6.00342364598449
"Freq [GHz]","IWavePhi [deg]","IWaveTheta [deg]","Phi [deg]","Theta [deg]","re(rEPhi) [mV]","im(rEPhi) [mV]","re(rETheta) [mV]","im(rETheta) [mV]"
1.3523,180,90,0,0,28.2295936861127,50.5105058950139,0.0107762668608488,0.00326395764176526
"Freq [GHz]","IWavePhi [deg]","IWaveTheta [deg]","Phi [deg]","Theta [deg]","re(rEPhi) [mV]","im(rEPhi) [mV]","re(rETheta) [mV]","im(rETheta) [mV]"
1.3523,180,90,0,180,4.67500030466456,24.5867031866572,-0.0104129018132457,-0.000488567246449113
"Freq [GHz]","IWavePhi [deg]","IWaveTheta [deg]","Phi [deg]","Theta [deg]","re(rEPhi) [mV]","im(rEPhi) [mV]","re(rETheta) [mV]","im(rETheta) [mV]"
1.3523,180,90,45,54.736,15.3213065128856,32.5058847970375,29.0930230393295,14.738077243971
"Freq [GHz]","IWavePhi [deg]","IWaveTheta [deg]","Phi [deg]","Theta [deg]","re(rEPhi) [mV]","im(rEPhi) [mV]","re(rETheta) [mV]","im(rETheta) [mV]"
1.3523,180,90,135,54.736,-15.3484980606083,-32.5969480759253,29.1221488954988,14.7797641606212
"Freq [GHz]","IWavePhi [deg]","IWaveTheta [deg]","Phi [deg]","Theta [deg]","re(rEPhi) [mV]","im(rEPhi) [mV]","re(rETheta) [mV]","im(rETheta) [mV]"
1.3523,180,90,-45,54.736,15.397806047141,32.6033241759021,-29.2108732106962,-14.8066332603247
"Freq [GHz]","IWavePhi [deg]","IWaveTheta [deg]","Phi [deg]","Theta [deg]","re(rEPhi) [mV]","im(rEPhi) [mV]","re(rETheta) [mV]","im(rETheta) [mV]"
1.3523,180,90,45,125.264,7.21466969241509,22.6677589188823,14.3347415415688,-16.9487195161922
"Freq [GHz]","IWavePhi [deg]","IWaveTheta [deg]","Phi [deg]","Theta [deg]","re(rEPhi) [mV]","im(rEPhi) [mV]","re(rETheta) [mV]","im(rETheta) [mV]"
1.3523,180,90,-135,54.736,-15.3976920905958,-32.5525099952444,-29.1883853400752,-14.771630120419
"Freq [GHz]","IWavePhi [deg]","IWaveTheta [deg]","Phi [deg]","Theta [deg]","re(rEPhi) [mV]","im(rEPhi) [mV]","re(rETheta) [mV]","im(rETheta) [mV]"
1.3523,180,90,-45,125.264,7.2480118672258,22.5009935298729,-14.3971466083764,16.8806804226581
"Freq [GHz]","IWavePhi [deg]","IWaveTheta [deg]","Phi [deg]","Theta [deg]","re(rEPhi) [mV]","im(rEPhi) [mV]","re(rETheta) [mV]","im(rETheta) [mV]"
1.3523,180,90,135,125.264,-7.16516211805332,-22.5987653989939,14.3387088809778,-16.8930060085713
"Freq [GHz]","IWavePhi [deg]","IWaveTheta [deg]","Phi [deg]","Theta [deg]","re(rEPhi) [mV]","im(rEPhi) [mV]","re(rETheta) [mV]","im(rETheta) [mV]"
1.3523,180,90,-135,125.264,-7.11068785303878,-22.5845574371616,-14.4749195973989,16.8689946086728
"Freq [GHz]","IWavePhi [deg]","IWaveTheta [deg]","Phi [deg]","Theta [deg]","re(rEPhi) [mV]","im(rEPhi) [mV]","re(rETheta) [mV]","im(rETheta) [mV]"
1.3523,180,90,0,90,18.8313050201297,50.3660435589516,0.0327042120058842,0.0247658414069932
"Freq [GHz]","IWavePhi [deg]","IWaveTheta [deg]","Phi [deg]","Theta [deg]","re(rEPhi) [mV]","im(rEPhi) [mV]","re(rETheta) [mV]","im(rETheta) [mV]"
1.3523,180,90,180,90,-18.8164885112656,-50.3390978870426,0.00872955309472797,0.00866499841349835
"Freq [GHz]","IWavePhi [deg]","IWaveTheta [deg]","Phi [deg]","Theta [deg]","re(rEPhi) [mV]","im(rEPhi) [mV]","re(rETheta) [mV]","im(rETheta) [mV]"
1.3523,180,90,90,90,-0.000458219377034604,0.0067645449155477,-27.7042784113513,5.92022558701628
"Freq [GHz]","IWavePhi [deg]","IWaveTheta [deg]","Phi [deg]","Theta [deg]","re(rEPhi) [mV]","im(rEPhi) [mV]","re(rETheta) [mV]","im(rETheta) [mV]"
1.3523,180,90,-90,90,-0.00915035822455968,-0.00711633293419357,27.7342994148767,-5.99271006254865
"Freq [GHz]","IWavePhi [deg]","IWaveTheta [deg]","Phi [deg]","Theta [deg]","re(rEPhi) [mV]","im(rEPhi) [mV]","re(rETheta) [mV]","im(rETheta) [mV]"
1.3523,180,90,0,0,4.84803906725041,24.5610707595884,-0.00815851172376618,0.0438243173112517
"Freq [GHz]","IWavePhi [deg]","IWaveTheta [deg]","Phi [deg]","Theta [deg]","re(rEPhi) [mV]","im(rEPhi) [mV]","re(rETheta) [mV]","im(rETheta) [mV]"
1.3523,180,90,0,180,28.1063468737772,50.5736847135312,-0.0244707731453465,0.000841136170655614
"Freq [GHz]","IWavePhi [deg]","IWaveTheta [deg]","Phi [deg]","Theta [deg]","re(rEPhi) [mV]","im(rEPhi) [mV]","re(rETheta) [mV]","im(rETheta) [mV]"
1.3523,180,90,45,54.736,7.187965360201,22.5318452675691,-14.3615977667363,16.8765730664964
"Freq [GHz]","IWavePhi [deg]","IWaveTheta [deg]","Phi [deg]","Theta [deg]","re(rEPhi) [mV]","im(rEPhi) [mV]","re(rETheta) [mV]","im(rETheta) [mV]"
1.3523,180,90,135,54.736,-7.22701775902144,-22.6511598533259,-14.3393968102982,16.9712603201843
"Freq [GHz]","IWavePhi [deg]","IWaveTheta [deg]","Phi [deg]","Theta [deg]","re(rEPhi) [mV]","im(rEPhi) [mV]","re(rETheta) [mV]","im(rETheta) [mV]"
1.3523,180,90,-45,54.736,7.22821310056936,22.6182703029048,14.4013219644603,-16.9402704877933
"Freq [GHz]","IWavePhi [deg]","IWaveTheta [deg]","Phi [deg]","Theta [deg]","re(rEPhi) [mV]","im(rEPhi) [mV]","re(rETheta) [mV]","im(rETheta) [mV]"
1.3523,180,90,45,125.264,15.4055354886058,32.5883017247062,-29.1145602584981,-14.8243891792032
"Freq [GHz]","IWavePhi [deg]","IWaveTheta [deg]","Phi [deg]","Theta [deg]","re(rEPhi) [mV]","im(rEPhi) [mV]","re(rETheta) [mV]","im(rETheta) [mV]"
1.3523,180,90,-135,54.736,-7.24906853150071,-22.594951154545,14.3576155784614,-16.9272546236042
