"Freq [GHz]","IWavePhi [deg]","IWaveTheta [deg]","Phi [deg]","Theta [deg]","re(rEPhi) [mV]","im(rEPhi) [mV]","re(rETheta) [mV]","im(rETheta) [mV]"
0.5694,180,90,0,90,-41.9272257530173,14.4695439724735,0.000971440077065148,0.000754137542922724
"Freq [GHz]","IWavePhi [deg]","IWaveTheta [deg]","Phi [deg]","Theta [deg]","re(rEPhi) [mV]","im(rEPhi) [mV]","re(rETheta) [mV]","im(rETheta) [mV]"
0.5694,180,90,180,90,41.9285889421988,-14.4625308534558,-0.00159296566841716,-0.00139995199845468
"Freq [GHz]","IWavePhi [deg]","IWaveTheta [deg]","Phi [deg]","Theta [deg]","re(rEPhi) [mV]","im(rEPhi) [mV]","re(rETheta) [mV]","im(rETheta) [mV]"
0.5694,180,90,90,90,0.00107392178232661,0.000169042790034415,0.00151729014874755,0.00369688791411437
"Freq [GHz]","IWavePhi [deg]","IWaveTheta [deg]","Phi [deg]","Theta [deg]","re(rEPhi) [mV]","im(rEPhi) [mV]","re(rETheta) [mV]","im(rETheta) [mV]"
0.5694,180,90,-90,90,-0.000933838631108762,0.000800061881206639,0.00053293387840079,0.000141339270841242
"Freq [GHz]","IWavePhi [deg]","IWaveTheta [deg]","Phi [deg]","Theta [deg]","re(rEPhi) [mV]","im(rEPhi) [mV]","re(rETheta) [mV]","im(rETheta) [mV]"
0.5694,180,90,0,0,-39.899391074319,13.7362085541906,0.00120243837002208,-0.00122516790507381
"Freq [GHz]","IWavePhi [deg]","IWaveTheta [deg]","Phi [deg]","Theta [deg]","re(rEPhi) [mV]","im(rEPhi) [mV]","re(rETheta) [mV]","im(rETheta) [mV]"
0.5694,180,90,0,180,-39.903898508169,13.7335686838221,0.00114941615035792,-0.00118522081941529
"Freq [GHz]","IWavePhi [deg]","IWaveTheta [deg]","Phi [deg]","Theta [deg]","re(rEPhi) [mV]","im(rEPhi) [mV]","re(rETheta) [mV]","im(rETheta) [mV]"
0.5694,180,90,45,54.736,-28.2171033773128,9.73152140229775,-16.2484710976891,5.59868253919523
"Freq [GHz]","IWavePhi [deg]","IWaveTheta [deg]","Phi [deg]","Theta [deg]","re(rEPhi) [mV]","im(rEPhi) [mV]","re(rETheta) [mV]","im(rETheta) [mV]"
0.5694,180,90,135,54.736,28.2174413026791,-9.72767498029422,-16.2474849975317,5.59512772403056
"Freq [GHz]","IWavePhi [deg]","IWaveTheta [deg]","Phi [deg]","Theta [deg]","re(rEPhi) [mV]","im(rEPhi) [mV]","re(rETheta) [mV]","im(rETheta) [mV]"
0.5694,180,90,-45,54.736,-28.2164219549345,9.72328381731374,16.2471098913789,-5.59351069184722
"Freq [GHz]","IWavePhi [deg]","IWaveTheta [deg]","Phi [deg]","Theta [deg]","re(rEPhi) [mV]","im(rEPhi) [mV]","re(rETheta) [mV]","im(rETheta) [mV]"
0.5694,180,90,45,125.264,-28.2216544502931,9.72721187518361,16.2479932444962,-5.59516533953814
"Freq [GHz]","IWavePhi [deg]","IWaveTheta [deg]","Phi [deg]","Theta [deg]","re(rEPhi) [mV]","im(rEPhi) [mV]","re(rETheta) [mV]","im(rETheta) [mV]"
0.5694,180,90,-135,54.736,28.2204918371657,-9.73238764018633,16.2514340675446,-5.59824122594192
"Freq [GHz]","IWavePhi [deg]","IWaveTheta [deg]","Phi [deg]","Theta [deg]","re(rEPhi) [mV]","im(rEPhi) [mV]","re(rETheta) [mV]","im(rETheta) [mV]"
0.5694,180,90,-45,125.264,-28.2173026826456,9.73002757654477,-16.2484883070949,5.59741997960118
"Freq [GHz]","IWavePhi [deg]","IWaveTheta [deg]","Phi [deg]","Theta [deg]","re(rEPhi) [mV]","im(rEPhi) [mV]","re(rETheta) [mV]","im(rETheta) [mV]"
0.5694,180,90,135,125.264,28.2137711756603,-9.7313014131882,16.2474338624548,-5.59706164493526
"Freq [GHz]","IWavePhi [deg]","IWaveTheta [deg]","Phi [deg]","Theta [deg]","re(rEPhi) [mV]","im(rEPhi) [mV]","re(rETheta) [mV]","im(rETheta) [mV]"
0.5694,180,90,-135,125.264,28.2143197172595,-9.72972231451865,-16.2449760688176,5.59652318667328
"Freq [GHz]","IWavePhi [deg]","IWaveTheta [deg]","Phi [deg]","Theta [deg]","re(rEPhi) [mV]","im(rEPhi) [mV]","re(rETheta) [mV]","im(rETheta) [mV]"
0.5694,180,90,0,90,41.9272257530173,-14.4695439724735,-0.000971440077065354,-0.000754137542922776
"Freq [GHz]","IWavePhi [deg]","IWaveTheta [deg]","Phi [deg]","Theta [deg]","re(rEPhi) [mV]","im(rEPhi) [mV]","re(rETheta) [mV]","im(rETheta) [mV]"
0.5694,180,90,180,90,-41.9285889421988,14.4625308534558,0.00159296566841701,0.00139995199845473
"Freq [GHz]","IWavePhi [deg]","IWaveTheta [deg]","Phi [deg]","Theta [deg]","re(rEPhi) [mV]","im(rEPhi) [mV]","re(rETheta) [mV]","im(rETheta) [mV]"
0.5694,180,90,90,90,-0.00107392178233979,-0.000169042790229836,-0.00151729014874739,-0.00369688791411437
"Freq [GHz]","IWavePhi [deg]","IWaveTheta [deg]","Phi [deg]","Theta [deg]","re(rEPhi) [mV]","im(rEPhi) [mV]","re(rETheta) [mV]","im(rETheta) [mV]"
0.5694,180,90,-90,90,0.00093383863111947,-0.000800061881404738,-0.000532933878400584,-0.000141339270841345
"Freq [GHz]","IWavePhi [deg]","IWaveTheta [deg]","Phi [deg]","Theta [deg]","re(rEPhi) [mV]","im(rEPhi) [mV]","re(rETheta) [mV]","im(rETheta) [mV]"
0.5694,180,90,0,0,39.899391074319,-13.7362085541906,-0.00120243836982892,0.00122516790511345
"Freq [GHz]","IWavePhi [deg]","IWaveTheta [deg]","Phi [deg]","Theta [deg]","re(rEPhi) [mV]","im(rEPhi) [mV]","re(rETheta) [mV]","im(rETheta) [mV]"
0.5694,180,90,0,180,39.903898508169,-13.7335686838221,-0.0011494161505502,0.00118522081945864
"Freq [GHz]","IWavePhi [deg]","IWaveTheta [deg]","Phi [deg]","Theta [deg]","re(rEPhi) [mV]","im(rEPhi) [mV]","re(rETheta) [mV]","im(rETheta) [mV]"
0.5694,180,90,45,54.736,28.2171033773127,-9.73152140229771,16.2484710976892,-5.59868253919526
"Freq [GHz]","IWavePhi [deg]","IWaveTheta [deg]","Phi [deg]","Theta [deg]","re(rEPhi) [mV]","im(rEPhi) [mV]","re(rETheta) [mV]","im(rETheta) [mV]"
0.5694,180,90,135,54.736,-28.217441302679,9.72767498029412,16.2474849975318,-5.59512772403062
"Freq [GHz]","IWavePhi [deg]","IWaveTheta [deg]","Phi [deg]","Theta [deg]","re(rEPhi) [mV]","im(rEPhi) [mV]","re(rETheta) [mV]","im(rETheta) [mV]"
0.5694,180,90,-45,54.736,28.2164219549345,-9.72328381731361,-16.2471098913789,5.5935106918473
"Freq [GHz]","IWavePhi [deg]","IWaveTheta [deg]","Phi [deg]","Theta [deg]","re(rEPhi) [mV]","im(rEPhi) [mV]","re(rETheta) [mV]","im(rETheta) [mV]"
0.5694,180,90,45,125.264,28.2216544502932,-9.72721187518374,-16.2479932444962,5.59516533953807
"Freq [GHz]","IWavePhi [deg]","IWaveTheta [deg]","Phi [deg]","Theta [deg]","re(rEPhi) [mV]","im(rEPhi) [mV]","re(rETheta) [mV]","im(rETheta) [mV]"
0.5694,180,90,-135,54.736,-28.2204918371658,9.73238764018621,-16.2514340675445,5.59824122594199
"Freq [GHz]","IWavePhi [deg]","IWaveTheta [deg]","Phi [deg]","Theta [deg]","re(rEPhi) [mV]","im(rEPhi) [mV]","re(rETheta) [mV]","im(rETheta) [mV]"
0.5694,180,90,-45,125.264,28.2173026826455,-9.73002757654487,16.2484883070949,-5.59741997960113
"Freq [GHz]","IWavePhi [deg]","IWaveTheta [deg]","Phi [deg]","Theta [deg]","re(rEPhi) [mV]","im(rEPhi) [mV]","re(rETheta) [mV]","im(rETheta) [mV]"
0.5694,180,90,135,125.264,-28.2137711756604,9.73130141318834,-16.2474338624548,5.59706164493518
"Freq [GHz]","IWavePhi [deg]","IWaveTheta [deg]","Phi [deg]","Theta [deg]","re(rEPhi) [mV]","im(rEPhi) [mV]","re(rETheta) [mV]","im(rETheta) [mV]"
0.5694,180,90,-135,125.264,-28.2143197172594,9.72972231451869,16.2449760688177,-5.59652318667326
"Freq [GHz]","IWavePhi [deg]","IWaveTheta [deg]","Phi [deg]","Theta [deg]","re(rEPhi) [mV]","im(rEPhi) [mV]","re(rETheta) [mV]","im(rETheta) [mV]"
0.5694,180,90,0,90,-4.6643429055625e-15,1.60968568453101e-15,-1.39359693540117e-15,9.44171857247126e-17
"Freq [GHz]","IWavePhi [deg]","IWaveTheta [deg]","Phi [deg]","Theta [deg]","re(rEPhi) [mV]","im(rEPhi) [mV]","re(rETheta) [mV]","im(rETheta) [mV]"
0.5694,180,90,180,90,4.6644845826262e-15,-1.60884816888049e-15,-1.39394638777617e-15,9.41445900269232e-17
"Freq [GHz]","IWavePhi [deg]","IWaveTheta [deg]","Phi [deg]","Theta [deg]","re(rEPhi) [mV]","im(rEPhi) [mV]","re(rETheta) [mV]","im(rETheta) [mV]"
0.5694,180,90,90,90,1.26194775963727e-19,1.18044738548779e-20,-5.85751946458463e-16,9.74447134407118e-17
"Freq [GHz]","IWavePhi [deg]","IWaveTheta [deg]","Phi [deg]","Theta [deg]","re(rEPhi) [mV]","im(rEPhi) [mV]","re(rETheta) [mV]","im(rETheta) [mV]"
0.5694,180,90,-90,90,-1.38634659523528e-19,8.8573768467498e-20,-1.48246873006255e-15,5.2664814980027e-17
"Freq [GHz]","IWavePhi [deg]","IWaveTheta [deg]","Phi [deg]","Theta [deg]","re(rEPhi) [mV]","im(rEPhi) [mV]","re(rETheta) [mV]","im(rETheta) [mV]"
0.5694,180,90,0,0,-3.59421726508065e-15,1.55457222065291e-15,1.75254993972688e-19,-1.94566777980357e-19
"Freq [GHz]","IWavePhi [deg]","IWaveTheta [deg]","Phi [deg]","Theta [deg]","re(rEPhi) [mV]","im(rEPhi) [mV]","re(rETheta) [mV]","im(rETheta) [mV]"
0.5694,180,90,0,180,-5.28356908076286e-15,1.5013490627342e-15,6.95987212685141e-20,-6.85311916980644e-20
"Freq [GHz]","IWavePhi [deg]","IWaveTheta [deg]","Phi [deg]","Theta [deg]","re(rEPhi) [mV]","im(rEPhi) [mV]","re(rETheta) [mV]","im(rETheta) [mV]"
0.5694,180,90,45,54.736,-2.85896161572493e-15,1.09192026163337e-15,-2.44822044913889e-15,7.09977646177925e-16
"Freq [GHz]","IWavePhi [deg]","IWaveTheta [deg]","Phi [deg]","Theta [deg]","re(rEPhi) [mV]","im(rEPhi) [mV]","re(rETheta) [mV]","im(rETheta) [mV]"
0.5694,180,90,135,54.736,2.8590736242884e-15,-1.09142719548629e-15,-2.44803473410121e-15,7.09601600708696e-16
"Freq [GHz]","IWavePhi [deg]","IWaveTheta [deg]","Phi [deg]","Theta [deg]","re(rEPhi) [mV]","im(rEPhi) [mV]","re(rETheta) [mV]","im(rETheta) [mV]"
0.5694,180,90,-45,54.736,-2.74311752851622e-15,1.09308272887535e-15,3.25132082632387e-16,-5.68965993492715e-16
"Freq [GHz]","IWavePhi [deg]","IWaveTheta [deg]","Phi [deg]","Theta [deg]","re(rEPhi) [mV]","im(rEPhi) [mV]","re(rETheta) [mV]","im(rETheta) [mV]"
0.5694,180,90,45,125.264,-3.61863490922272e-15,1.07336923885583e-15,1.28465566499183e-15,-5.35672962939826e-16
"Freq [GHz]","IWavePhi [deg]","IWaveTheta [deg]","Phi [deg]","Theta [deg]","re(rEPhi) [mV]","im(rEPhi) [mV]","re(rETheta) [mV]","im(rETheta) [mV]"
0.5694,180,90,-135,54.736,2.74367553026019e-15,-1.09408560716646e-15,3.25454714456075e-16,-5.6937262247687e-16
"Freq [GHz]","IWavePhi [deg]","IWaveTheta [deg]","Phi [deg]","Theta [deg]","re(rEPhi) [mV]","im(rEPhi) [mV]","re(rETheta) [mV]","im(rETheta) [mV]"
0.5694,180,90,-45,125.264,-3.34269686134886e-15,1.07046483372683e-15,-3.17650586946776e-15,6.75701557560896e-16
"Freq [GHz]","IWavePhi [deg]","IWaveTheta [deg]","Phi [deg]","Theta [deg]","re(rEPhi) [mV]","im(rEPhi) [mV]","re(rETheta) [mV]","im(rETheta) [mV]"
0.5694,180,90,135,125.264,3.61773261801636e-15,-1.07385323789639e-15,1.2845208259412e-15,-5.35696330838198e-16
"Freq [GHz]","IWavePhi [deg]","IWaveTheta [deg]","Phi [deg]","Theta [deg]","re(rEPhi) [mV]","im(rEPhi) [mV]","re(rETheta) [mV]","im(rETheta) [mV]"
0.5694,180,90,-135,125.264,3.34243866468535e-15,-1.07049680860443e-15,-3.17596974410439e-15,6.75667611704955e-16
"Freq [GHz]","IWavePhi [deg]","IWaveTheta [deg]","Phi [deg]","Theta [deg]","re(rEPhi) [mV]","im(rEPhi) [mV]","re(rETheta) [mV]","im(rETheta) [mV]"
0.5694,180,90,0,90,-1.43345454116784e-20,-2.92456194529878e-19,1.39367101739002e-15,-9.43736167563937e-17
"Freq [GHz]","IWavePhi [deg]","IWaveTheta [deg]","Phi [deg]","Theta [deg]","re(rEPhi) [mV]","im(rEPhi) [mV]","re(rETheta) [mV]","im(rETheta) [mV]"
0.5694,180,90,180,90,1.00515199186616e-19,3.62473725053481e-19,1.3937525846644e-15,-9.44220928391537e-17
"Freq [GHz]","IWavePhi [deg]","IWaveTheta [deg]","Phi [deg]","Theta [deg]","re(rEPhi) [mV]","im(rEPhi) [mV]","re(rETheta) [mV]","im(rETheta) [mV]"
0.5694,180,90,90,90,-2.57595398663956e-21,-2.22958181557724e-20,1.48265726515586e-15,-5.26825733826931e-17
"Freq [GHz]","IWavePhi [deg]","IWaveTheta [deg]","Phi [deg]","Theta [deg]","re(rEPhi) [mV]","im(rEPhi) [mV]","re(rETheta) [mV]","im(rETheta) [mV]"
0.5694,180,90,-90,90,-1.94912057496479e-20,2.49702189321924e-20,5.85871715274074e-16,-9.72345321007822e-17
"Freq [GHz]","IWavePhi [deg]","IWaveTheta [deg]","Phi [deg]","Theta [deg]","re(rEPhi) [mV]","im(rEPhi) [mV]","re(rETheta) [mV]","im(rETheta) [mV]"
0.5694,180,90,0,0,8.44372930807788e-16,2.61498477154843e-17,-5.70810878446908e-20,4.14952975919897e-20
"Freq [GHz]","IWavePhi [deg]","IWaveTheta [deg]","Phi [deg]","Theta [deg]","re(rEPhi) [mV]","im(rEPhi) [mV]","re(rETheta) [mV]","im(rETheta) [mV]"
0.5694,180,90,0,180,-8.44615224653712e-16,-2.65388469822895e-17,5.92590334164543e-20,-7.82497045338236e-20
"Freq [GHz]","IWavePhi [deg]","IWaveTheta [deg]","Phi [deg]","Theta [deg]","re(rEPhi) [mV]","im(rEPhi) [mV]","re(rETheta) [mV]","im(rETheta) [mV]"
0.5694,180,90,45,54.736,2.99704384059156e-16,1.12982730350377e-17,1.42564830374317e-15,-5.3379620416953e-17
"Freq [GHz]","IWavePhi [deg]","IWaveTheta [deg]","Phi [deg]","Theta [deg]","re(rEPhi) [mV]","im(rEPhi) [mV]","re(rETheta) [mV]","im(rETheta) [mV]"
0.5694,180,90,135,54.736,-2.99660694603981e-16,-1.14747932379877e-17,1.42551140642843e-15,-5.34294117298404e-17
"Freq [GHz]","IWavePhi [deg]","IWaveTheta [deg]","Phi [deg]","Theta [deg]","re(rEPhi) [mV]","im(rEPhi) [mV]","re(rETheta) [mV]","im(rETheta) [mV]"
0.5694,180,90,-45,54.736,3.79328317135069e-16,8.73370526007634e-18,5.8173062181093e-16,-8.68298803019378e-17
"Freq [GHz]","IWavePhi [deg]","IWaveTheta [deg]","Phi [deg]","Theta [deg]","re(rEPhi) [mV]","im(rEPhi) [mV]","re(rETheta) [mV]","im(rETheta) [mV]"
0.5694,180,90,45,125.264,-2.99796180012282e-16,-1.18687817883897e-17,1.42574719315608e-15,-5.30669653980797e-17
"Freq [GHz]","IWavePhi [deg]","IWaveTheta [deg]","Phi [deg]","Theta [deg]","re(rEPhi) [mV]","im(rEPhi) [mV]","re(rETheta) [mV]","im(rETheta) [mV]"
0.5694,180,90,-135,54.736,-3.7940914840583e-16,-8.7784624837124e-18,5.81999573878154e-16,-8.68820540138472e-17
"Freq [GHz]","IWavePhi [deg]","IWaveTheta [deg]","Phi [deg]","Theta [deg]","re(rEPhi) [mV]","im(rEPhi) [mV]","re(rETheta) [mV]","im(rETheta) [mV]"
0.5694,180,90,-45,125.264,-3.79598215777315e-16,-9.14899136180689e-18,5.81777546991766e-16,-8.70770509630157e-17
"Freq [GHz]","IWavePhi [deg]","IWaveTheta [deg]","Phi [deg]","Theta [deg]","re(rEPhi) [mV]","im(rEPhi) [mV]","re(rETheta) [mV]","im(rETheta) [mV]"
0.5694,180,90,135,125.264,2.99892010589513e-16,1.18476787038778e-17,1.42569011617569e-15,-5.32716939730578e-17
"Freq [GHz]","IWavePhi [deg]","IWaveTheta [deg]","Phi [deg]","Theta [deg]","re(rEPhi) [mV]","im(rEPhi) [mV]","re(rETheta) [mV]","im(rETheta) [mV]"
0.5694,180,90,-135,125.264,3.79637734156961e-16,9.10857994025191e-18,5.81613882385028e-16,-8.7137066550879e-17
"Freq [GHz]","IWavePhi [deg]","IWaveTheta [deg]","Phi [deg]","Theta [deg]","re(rEPhi) [mV]","im(rEPhi) [mV]","re(rETheta) [mV]","im(rETheta) [mV]"
0.5694,180,90,0,90,-39.8979021060533,13.7403709173597,0.000763311593162946,0.000385302704725915
"Freq [GHz]","IWavePhi [deg]","IWaveTheta [deg]","Phi [deg]","Theta [deg]","re(rEPhi) [mV]","im(rEPhi) [mV]","re(rETheta) [mV]","im(rETheta) [mV]"
0.5694,180,90,180,90,39.8993828521697,-13.7332239577526,-0.00161152522768997,-0.00208479313173981
"Freq [GHz]","IWavePhi [deg]","IWaveTheta [deg]","Phi [deg]","Theta [deg]","re(rEPhi) [mV]","im(rEPhi) [mV]","re(rETheta) [mV]","im(rETheta) [mV]"
0.5694,180,90,90,90,0.00100760225539224,-3.16387191715467e-05,5.25238573411005,0.167182744099329
"Freq [GHz]","IWavePhi [deg]","IWaveTheta [deg]","Phi [deg]","Theta [deg]","re(rEPhi) [mV]","im(rEPhi) [mV]","re(rETheta) [mV]","im(rETheta) [mV]"
0.5694,180,90,-90,90,-0.00104891855884849,0.00091675064454086,-5.25005691432305,-0.164964367277551
"Freq [GHz]","IWavePhi [deg]","IWaveTheta [deg]","Phi [deg]","Theta [deg]","re(rEPhi) [mV]","im(rEPhi) [mV]","re(rETheta) [mV]","im(rETheta) [mV]"
0.5694,180,90,0,0,-32.98390936374,13.2538708641984,0.00109826896201202,-0.00120058261780227
"Freq [GHz]","IWavePhi [deg]","IWaveTheta [deg]","Phi [deg]","Theta [deg]","re(rEPhi) [mV]","im(rEPhi) [mV]","re(rETheta) [mV]","im(rETheta) [mV]"
0.5694,180,90,0,180,-42.6281920456312,12.8320259134906,0.0010625679083027,-0.00119495632131375
"Freq [GHz]","IWavePhi [deg]","IWaveTheta [deg]","Phi [deg]","Theta [deg]","re(rEPhi) [mV]","im(rEPhi) [mV]","re(rETheta) [mV]","im(rETheta) [mV]"
0.5694,180,90,45,54.736,-24.8810772570474,9.32312572354279,-11.6345953864613,5.44376280639604
"Freq [GHz]","IWavePhi [deg]","IWaveTheta [deg]","Phi [deg]","Theta [deg]","re(rEPhi) [mV]","im(rEPhi) [mV]","re(rETheta) [mV]","im(rETheta) [mV]"
0.5694,180,90,135,54.736,24.8817167973834,-9.3199080934233,-11.6338671050746,5.44037435726782
"Freq [GHz]","IWavePhi [deg]","IWaveTheta [deg]","Phi [deg]","Theta [deg]","re(rEPhi) [mV]","im(rEPhi) [mV]","re(rETheta) [mV]","im(rETheta) [mV]"
0.5694,180,90,-45,54.736,-24.8808631884293,9.31557303837497,11.6334122037156,-5.43960740602106
"Freq [GHz]","IWavePhi [deg]","IWaveTheta [deg]","Phi [deg]","Theta [deg]","re(rEPhi) [mV]","im(rEPhi) [mV]","re(rETheta) [mV]","im(rETheta) [mV]"
0.5694,180,90,45,125.264,-28.7502603554978,9.15449797591358,19.1560342237086,-5.18584620751308
"Freq [GHz]","IWavePhi [deg]","IWaveTheta [deg]","Phi [deg]","Theta [deg]","re(rEPhi) [mV]","im(rEPhi) [mV]","re(rETheta) [mV]","im(rETheta) [mV]"
0.5694,180,90,-135,54.736,24.884787873295,-9.3242493125989,11.6381171122123,-5.44381642832027
"Freq [GHz]","IWavePhi [deg]","IWaveTheta [deg]","Phi [deg]","Theta [deg]","re(rEPhi) [mV]","im(rEPhi) [mV]","re(rETheta) [mV]","im(rETheta) [mV]"
0.5694,180,90,-45,125.264,-28.7459405610526,9.15703261247946,-19.1561553819463,5.18757246735254
"Freq [GHz]","IWavePhi [deg]","IWaveTheta [deg]","Phi [deg]","Theta [deg]","re(rEPhi) [mV]","im(rEPhi) [mV]","re(rETheta) [mV]","im(rETheta) [mV]"
0.5694,180,90,135,125.264,28.7430992389084,-9.15853846236936,19.1549095278105,-5.18759764373246
"Freq [GHz]","IWavePhi [deg]","IWaveTheta [deg]","Phi [deg]","Theta [deg]","re(rEPhi) [mV]","im(rEPhi) [mV]","re(rETheta) [mV]","im(rETheta) [mV]"
0.5694,180,90,-135,125.264,28.7435000718463,-9.15717284826736,-19.1526327000404,5.18660478189641
"Freq [GHz]","IWavePhi [deg]","IWaveTheta [deg]","Phi [deg]","Theta [deg]","re(rEPhi) [mV]","im(rEPhi) [mV]","re(rETheta) [mV]","im(rETheta) [mV]"
0.5694,180,90,0,90,-39.8979753837245,13.7400761138475,0.00110412435746608,0.00104227030295398
"Freq [GHz]","IWavePhi [deg]","IWaveTheta [deg]","Phi [deg]","Theta [deg]","re(rEPhi) [mV]","im(rEPhi) [mV]","re(rETheta) [mV]","im(rETheta) [mV]"
0.5694,180,90,180,90,39.8990870421652,-13.7339179573229,-0.00138497203720817,-0.000574184793424286
"Freq [GHz]","IWavePhi [deg]","IWaveTheta [deg]","Phi [deg]","Theta [deg]","re(rEPhi) [mV]","im(rEPhi) [mV]","re(rETheta) [mV]","im(rETheta) [mV]"
0.5694,180,90,90,90,0.00103468153908261,0.000350908710582763,-5.24949211979,-0.160249028809216
"Freq [GHz]","IWavePhi [deg]","IWaveTheta [deg]","Phi [deg]","Theta [deg]","re(rEPhi) [mV]","im(rEPhi) [mV]","re(rETheta) [mV]","im(rETheta) [mV]"
0.5694,180,90,-90,90,-0.000729718211127177,0.000601988002586647,5.25107899862997,0.165318179458867
"Freq [GHz]","IWavePhi [deg]","IWaveTheta [deg]","Phi [deg]","Theta [deg]","re(rEPhi) [mV]","im(rEPhi) [mV]","re(rETheta) [mV]","im(rETheta) [mV]"
0.5694,180,90,0,0,-42.6232566432611,12.8339021218442,0.00119041891613962,-0.0011286024498718
"Freq [GHz]","IWavePhi [deg]","IWaveTheta [deg]","Phi [deg]","Theta [deg]","re(rEPhi) [mV]","im(rEPhi) [mV]","re(rETheta) [mV]","im(rETheta) [mV]"
0.5694,180,90,0,180,-32.987542435916,13.2508654419045,0.00111425480667119,-0.00106113124603432
"Freq [GHz]","IWavePhi [deg]","IWaveTheta [deg]","Phi [deg]","Theta [deg]","re(rEPhi) [mV]","im(rEPhi) [mV]","re(rETheta) [mV]","im(rETheta) [mV]"
0.5694,180,90,45,54.736,-28.7458972429641,9.15894100948603,-19.1561491935642,5.18918930835233
"Freq [GHz]","IWavePhi [deg]","IWaveTheta [deg]","Phi [deg]","Theta [deg]","re(rEPhi) [mV]","im(rEPhi) [mV]","re(rETheta) [mV]","im(rETheta) [mV]"
0.5694,180,90,135,54.736,28.7458802313246,-9.15484101049371,-19.1550109888975,5.18581875765491
"Freq [GHz]","IWavePhi [deg]","IWaveTheta [deg]","Phi [deg]","Theta [deg]","re(rEPhi) [mV]","im(rEPhi) [mV]","re(rETheta) [mV]","im(rETheta) [mV]"
0.5694,180,90,-45,54.736,-28.744798288354,9.15080582260286,19.1547845147863,-5.18349583384574
"Freq [GHz]","IWavePhi [deg]","IWaveTheta [deg]","Phi [deg]","Theta [deg]","re(rEPhi) [mV]","im(rEPhi) [mV]","re(rETheta) [mV]","im(rETheta) [mV]"
0.5694,180,90,45,125.264,-24.8853458394621,9.31943564795706,11.6338558218091,-5.44053786419855
"Freq [GHz]","IWavePhi [deg]","IWaveTheta [deg]","Phi [deg]","Theta [deg]","re(rEPhi) [mV]","im(rEPhi) [mV]","re(rETheta) [mV]","im(rETheta) [mV]"
