"Freq [GHz]","IWavePhi [deg]","IWaveTheta [deg]","Phi [deg]","Theta [deg]","re(rEPhi) [mV]","im(rEPhi) [mV]","re(rETheta) [mV]","im(rETheta) [mV]"
0.7118,180,90,0,90,-57.1871360914685,66.7609909529503,0.00500400687512437,0.00478625800358147
"Freq [GHz]","IWavePhi [deg]","IWaveTheta [deg]","Phi [deg]","Theta [deg]","re(rEPhi) [mV]","im(rEPhi) [mV]","re(rETheta) [mV]","im(rETheta) [mV]"
0.7118,180,90,180,90,57.1770182712556,-66.802719048218,0.0169318514713731,0.00106479309959715
"Freq [GHz]","IWavePhi [deg]","IWaveTheta [deg]","Phi [deg]","Theta [deg]","re(rEPhi) [mV]","im(rEPhi) [mV]","re(rETheta) [mV]","im(rETheta) [mV]"
0.7118,180,90,90,90,-0.0211002027110492,0.00284072100513317,-0.0132706682110259,0.0157056465481918
"Freq [GHz]","IWavePhi [deg]","IWaveTheta [deg]","Phi [deg]","Theta [deg]","re(rEPhi) [mV]","im(rEPhi) [mV]","re(rETheta) [mV]","im(rETheta) [mV]"
0.7118,180,90,-90,90,0.0289597050306997,-0.00167673688603725,-0.0270268621437814,-0.000173704137672747
"Freq [GHz]","IWavePhi [deg]","IWaveTheta [deg]","Phi [deg]","Theta [deg]","re(rEPhi) [mV]","im(rEPhi) [mV]","re(rETheta) [mV]","im(rETheta) [mV]"
0.7118,180,90,0,0,-52.956511167625,61.5248753088142,0.0209617754646506,-0.000733765755322473
"Freq [GHz]","IWavePhi [deg]","IWaveTheta [deg]","Phi [deg]","Theta [deg]","re(rEPhi) [mV]","im(rEPhi) [mV]","re(rETheta) [mV]","im(rETheta) [mV]"
0.7118,180,90,0,180,-52.9643319333786,61.5874851589106,-0.0376536654357922,-0.0206361798396675
"Freq [GHz]","IWavePhi [deg]","IWaveTheta [deg]","Phi [deg]","Theta [deg]","re(rEPhi) [mV]","im(rEPhi) [mV]","re(rETheta) [mV]","im(rETheta) [mV]"
0.7118,180,90,45,54.736,-37.6292629049117,43.6828749948305,-21.6448227606651,25.1126324127759
"Freq [GHz]","IWavePhi [deg]","IWaveTheta [deg]","Phi [deg]","Theta [deg]","re(rEPhi) [mV]","im(rEPhi) [mV]","re(rETheta) [mV]","im(rETheta) [mV]"
0.7118,180,90,135,54.736,37.5636995718568,-43.6920683303276,-21.6244653755037,25.1165067976696
"Freq [GHz]","IWavePhi [deg]","IWaveTheta [deg]","Phi [deg]","Theta [deg]","re(rEPhi) [mV]","im(rEPhi) [mV]","re(rETheta) [mV]","im(rETheta) [mV]"
0.7118,180,90,-45,54.736,-37.6461581923618,43.7729711507032,21.67385118108,-25.0850764351357
"Freq [GHz]","IWavePhi [deg]","IWaveTheta [deg]","Phi [deg]","Theta [deg]","re(rEPhi) [mV]","im(rEPhi) [mV]","re(rETheta) [mV]","im(rETheta) [mV]"
0.7118,180,90,45,125.264,-37.5957664148204,43.7402201924736,21.6507306231545,-25.1470930645923
"Freq [GHz]","IWavePhi [deg]","IWaveTheta [deg]","Phi [deg]","Theta [deg]","re(rEPhi) [mV]","im(rEPhi) [mV]","re(rETheta) [mV]","im(rETheta) [mV]"
0.7118,180,90,-135,54.736,37.6054995386227,-43.7834825916088,21.6406502796327,-25.1190554181241
"Freq [GHz]","IWavePhi [deg]","IWaveTheta [deg]","Phi [deg]","Theta [deg]","re(rEPhi) [mV]","im(rEPhi) [mV]","re(rETheta) [mV]","im(rETheta) [mV]"
0.7118,180,90,-45,125.264,-37.5630264479087,43.8450184522538,-21.6272535845904,25.1349880244204
"Freq [GHz]","IWavePhi [deg]","IWaveTheta [deg]","Phi [deg]","Theta [deg]","re(rEPhi) [mV]","im(rEPhi) [mV]","re(rETheta) [mV]","im(rETheta) [mV]"
0.7118,180,90,135,125.264,37.6470048923674,-43.7553851556032,21.6839653461737,-25.1514954739196
"Freq [GHz]","IWavePhi [deg]","IWaveTheta [deg]","Phi [deg]","Theta [deg]","re(rEPhi) [mV]","im(rEPhi) [mV]","re(rETheta) [mV]","im(rETheta) [mV]"
0.7118,180,90,-135,125.264,37.6519219469017,-43.8188509846367,-21.649258268105,25.135745966153
"Freq [GHz]","IWavePhi [deg]","IWaveTheta [deg]","Phi [deg]","Theta [deg]","re(rEPhi) [mV]","im(rEPhi) [mV]","re(rETheta) [mV]","im(rETheta) [mV]"
0.7118,180,90,0,90,57.1871360913845,-66.7609909529769,-0.00500400689017578,-0.00478625800898169
"Freq [GHz]","IWavePhi [deg]","IWaveTheta [deg]","Phi [deg]","Theta [deg]","re(rEPhi) [mV]","im(rEPhi) [mV]","re(rETheta) [mV]","im(rETheta) [mV]"
0.7118,180,90,180,90,-57.1770182711717,66.8027190481915,-0.0169318514861429,-0.00106479309586696
"Freq [GHz]","IWavePhi [deg]","IWaveTheta [deg]","Phi [deg]","Theta [deg]","re(rEPhi) [mV]","im(rEPhi) [mV]","re(rETheta) [mV]","im(rETheta) [mV]"
0.7118,180,90,90,90,0.0211002026304084,-0.00284072096950864,0.0132706682104519,-0.0157056465474865
"Freq [GHz]","IWavePhi [deg]","IWaveTheta [deg]","Phi [deg]","Theta [deg]","re(rEPhi) [mV]","im(rEPhi) [mV]","re(rETheta) [mV]","im(rETheta) [mV]"
0.7118,180,90,-90,90,-0.0289597049502184,0.00167673692151325,0.0270268621443577,0.000173704138367275
"Freq [GHz]","IWavePhi [deg]","IWaveTheta [deg]","Phi [deg]","Theta [deg]","re(rEPhi) [mV]","im(rEPhi) [mV]","re(rETheta) [mV]","im(rETheta) [mV]"
0.7118,180,90,0,0,52.956511167625,-61.5248753088142,-0.0209617754741504,0.000733765742724571
"Freq [GHz]","IWavePhi [deg]","IWaveTheta [deg]","Phi [deg]","Theta [deg]","re(rEPhi) [mV]","im(rEPhi) [mV]","re(rETheta) [mV]","im(rETheta) [mV]"
0.7118,180,90,0,180,52.9643319333786,-61.5874851589106,0.0376536654454327,0.0206361798269115
"Freq [GHz]","IWavePhi [deg]","IWaveTheta [deg]","Phi [deg]","Theta [deg]","re(rEPhi) [mV]","im(rEPhi) [mV]","re(rETheta) [mV]","im(rETheta) [mV]"
0.7118,180,90,45,54.736,37.6292629048491,-43.6828749948492,21.6448227606549,-25.112632412779
"Freq [GHz]","IWavePhi [deg]","IWaveTheta [deg]","Phi [deg]","Theta [deg]","re(rEPhi) [mV]","im(rEPhi) [mV]","re(rETheta) [mV]","im(rETheta) [mV]"
0.7118,180,90,135,54.736,-37.5636995719034,43.6920683302816,21.6244653755121,-25.1165067976623
"Freq [GHz]","IWavePhi [deg]","IWaveTheta [deg]","Phi [deg]","Theta [deg]","re(rEPhi) [mV]","im(rEPhi) [mV]","re(rETheta) [mV]","im(rETheta) [mV]"
0.7118,180,90,-45,54.736,37.646158192365,-43.7729711507815,-21.6738511810804,25.0850764351247
"Freq [GHz]","IWavePhi [deg]","IWaveTheta [deg]","Phi [deg]","Theta [deg]","re(rEPhi) [mV]","im(rEPhi) [mV]","re(rETheta) [mV]","im(rETheta) [mV]"
0.7118,180,90,45,125.264,37.5957664147809,-43.7402201925411,-21.6507306231597,25.1470930645834
"Freq [GHz]","IWavePhi [deg]","IWaveTheta [deg]","Phi [deg]","Theta [deg]","re(rEPhi) [mV]","im(rEPhi) [mV]","re(rETheta) [mV]","im(rETheta) [mV]"
0.7118,180,90,-135,54.736,-37.6054995385831,43.7834825915411,-21.6406502796389,25.1190554181342
"Freq [GHz]","IWavePhi [deg]","IWaveTheta [deg]","Phi [deg]","Theta [deg]","re(rEPhi) [mV]","im(rEPhi) [mV]","re(rETheta) [mV]","im(rETheta) [mV]"
0.7118,180,90,-45,125.264,37.5630264479555,-43.8450184522997,21.6272535845976,-25.1349880244286
"Freq [GHz]","IWavePhi [deg]","IWaveTheta [deg]","Phi [deg]","Theta [deg]","re(rEPhi) [mV]","im(rEPhi) [mV]","re(rETheta) [mV]","im(rETheta) [mV]"
0.7118,180,90,135,125.264,-37.6470048923704,43.7553851555249,-21.6839653461726,25.1514954739309
"Freq [GHz]","IWavePhi [deg]","IWaveTheta [deg]","Phi [deg]","Theta [deg]","re(rEPhi) [mV]","im(rEPhi) [mV]","re(rETheta) [mV]","im(rETheta) [mV]"
0.7118,180,90,-135,125.264,-37.651921946839,43.818850984618,21.6492582680936,-25.1357459661496
"Freq [GHz]","IWavePhi [deg]","IWaveTheta [deg]","Phi [deg]","Theta [deg]","re(rEPhi) [mV]","im(rEPhi) [mV]","re(rETheta) [mV]","im(rETheta) [mV]"
0.7118,180,90,0,90,-9.03992699530141e-15,1.05612020381031e-14,7.48222399605923e-19,2.09017458121342e-19
"Freq [GHz]","IWavePhi [deg]","IWaveTheta [deg]","Phi [deg]","Theta [deg]","re(rEPhi) [mV]","im(rEPhi) [mV]","re(rETheta) [mV]","im(rETheta) [mV]"
0.7118,180,90,180,90,9.03849448050144e-15,-1.05679536616047e-14,2.70462101310664e-18,-1.97460168394476e-19
"Freq [GHz]","IWavePhi [deg]","IWaveTheta [deg]","Phi [deg]","Theta [deg]","re(rEPhi) [mV]","im(rEPhi) [mV]","re(rETheta) [mV]","im(rETheta) [mV]"
0.7118,180,90,90,90,-3.24444267262372e-18,5.90201545979262e-19,-1.84056805669984e-18,1.95182290110821e-18
"Freq [GHz]","IWavePhi [deg]","IWaveTheta [deg]","Phi [deg]","Theta [deg]","re(rEPhi) [mV]","im(rEPhi) [mV]","re(rETheta) [mV]","im(rETheta) [mV]"
0.7118,180,90,-90,90,4.47149636578187e-18,-3.86817567798601e-19,-4.50352970580098e-18,-4.29466541277037e-19
"Freq [GHz]","IWavePhi [deg]","IWaveTheta [deg]","Phi [deg]","Theta [deg]","re(rEPhi) [mV]","im(rEPhi) [mV]","re(rETheta) [mV]","im(rETheta) [mV]"
0.7118,180,90,0,0,-8.37019968561129e-15,9.7331100422795e-15,3.22049301002351e-18,-4.97355891548606e-20
"Freq [GHz]","IWavePhi [deg]","IWaveTheta [deg]","Phi [deg]","Theta [deg]","re(rEPhi) [mV]","im(rEPhi) [mV]","re(rETheta) [mV]","im(rETheta) [mV]"
0.7118,180,90,0,180,-8.37113456776069e-15,9.74333344521981e-15,-5.95739523433109e-18,-3.00612605151836e-18
"Freq [GHz]","IWavePhi [deg]","IWaveTheta [deg]","Phi [deg]","Theta [deg]","re(rEPhi) [mV]","im(rEPhi) [mV]","re(rETheta) [mV]","im(rETheta) [mV]"
0.7118,180,90,45,54.736,-6.31901952954945e-15,6.91624471002424e-15,-3.64117849719285e-15,3.97593555570847e-15
"Freq [GHz]","IWavePhi [deg]","IWaveTheta [deg]","Phi [deg]","Theta [deg]","re(rEPhi) [mV]","im(rEPhi) [mV]","re(rETheta) [mV]","im(rETheta) [mV]"
0.7118,180,90,135,54.736,6.30924450347436e-15,-6.91762528256124e-15,-3.63816756492538e-15,3.97626415254392e-15
"Freq [GHz]","IWavePhi [deg]","IWaveTheta [deg]","Phi [deg]","Theta [deg]","re(rEPhi) [mV]","im(rEPhi) [mV]","re(rETheta) [mV]","im(rETheta) [mV]"
0.7118,180,90,-45,54.736,-5.59851496453341e-15,6.91934729695457e-15,3.21765901325559e-15,-3.96536728658403e-15
"Freq [GHz]","IWavePhi [deg]","IWaveTheta [deg]","Phi [deg]","Theta [deg]","re(rEPhi) [mV]","im(rEPhi) [mV]","re(rETheta) [mV]","im(rETheta) [mV]"
0.7118,180,90,45,125.264,-6.31421363385497e-15,6.92513256606406e-15,3.64231153194408e-15,-3.98205587780869e-15
"Freq [GHz]","IWavePhi [deg]","IWaveTheta [deg]","Phi [deg]","Theta [deg]","re(rEPhi) [mV]","im(rEPhi) [mV]","re(rETheta) [mV]","im(rETheta) [mV]"
0.7118,180,90,-135,54.736,5.59245737288958e-15,-6.92081458914595e-15,3.21258239749417e-15,-3.97061003801041e-15
"Freq [GHz]","IWavePhi [deg]","IWaveTheta [deg]","Phi [deg]","Theta [deg]","re(rEPhi) [mV]","im(rEPhi) [mV]","re(rETheta) [mV]","im(rETheta) [mV]"
0.7118,180,90,-45,125.264,-5.58554784209555e-15,6.93059916903802e-15,-3.21097490146428e-15,3.9725372747971e-15
"Freq [GHz]","IWavePhi [deg]","IWaveTheta [deg]","Phi [deg]","Theta [deg]","re(rEPhi) [mV]","im(rEPhi) [mV]","re(rETheta) [mV]","im(rETheta) [mV]"
0.7118,180,90,135,125.264,6.32215396092543e-15,-6.92769299096629e-15,3.64758367808689e-15,-3.98273640641178e-15
"Freq [GHz]","IWavePhi [deg]","IWaveTheta [deg]","Phi [deg]","Theta [deg]","re(rEPhi) [mV]","im(rEPhi) [mV]","re(rETheta) [mV]","im(rETheta) [mV]"
0.7118,180,90,-135,125.264,5.59931261355257e-15,-6.92679484414026e-15,-3.21413770619641e-15,3.9726702715031e-15
"Freq [GHz]","IWavePhi [deg]","IWaveTheta [deg]","Phi [deg]","Theta [deg]","re(rEPhi) [mV]","im(rEPhi) [mV]","re(rETheta) [mV]","im(rETheta) [mV]"
0.7118,180,90,0,90,3.01278305720742e-15,-3.52097899582615e-15,-2.12359076215994e-19,-4.44036317130614e-19
"Freq [GHz]","IWavePhi [deg]","IWaveTheta [deg]","Phi [deg]","Theta [deg]","re(rEPhi) [mV]","im(rEPhi) [mV]","re(rETheta) [mV]","im(rETheta) [mV]"
0.7118,180,90,180,90,-3.01219473112876e-15,3.52312447810216e-15,-8.16911447198192e-19,-1.86855243883204e-19
"Freq [GHz]","IWavePhi [deg]","IWaveTheta [deg]","Phi [deg]","Theta [deg]","re(rEPhi) [mV]","im(rEPhi) [mV]","re(rETheta) [mV]","im(rETheta) [mV]"
0.7118,180,90,90,90,1.14448776487745e-18,-1.01252465845224e-19,8.21863313400477e-19,-1.01227641733802e-18
"Freq [GHz]","IWavePhi [deg]","IWaveTheta [deg]","Phi [deg]","Theta [deg]","re(rEPhi) [mV]","im(rEPhi) [mV]","re(rETheta) [mV]","im(rETheta) [mV]"
0.7118,180,90,-90,90,-1.56330442386708e-18,4.89524170058021e-20,1.38581787459624e-18,-1.31037097667744e-19
"Freq [GHz]","IWavePhi [deg]","IWaveTheta [deg]","Phi [deg]","Theta [deg]","re(rEPhi) [mV]","im(rEPhi) [mV]","re(rETheta) [mV]","im(rETheta) [mV]"
0.7118,180,90,0,0,2.78977799015493e-15,-3.24476087691401e-15,-1.14051318852757e-18,5.81536870125242e-20
"Freq [GHz]","IWavePhi [deg]","IWaveTheta [deg]","Phi [deg]","Theta [deg]","re(rEPhi) [mV]","im(rEPhi) [mV]","re(rETheta) [mV]","im(rETheta) [mV]"
0.7118,180,90,0,180,2.79028691093251e-15,-3.24793228908494e-15,1.98875072246496e-18,1.17451797358573e-18
"Freq [GHz]","IWavePhi [deg]","IWaveTheta [deg]","Phi [deg]","Theta [deg]","re(rEPhi) [mV]","im(rEPhi) [mV]","re(rETheta) [mV]","im(rETheta) [mV]"
0.7118,180,90,45,54.736,1.86517840861561e-15,-2.30187592211702e-15,1.07108429132443e-15,-1.32336214352282e-15
"Freq [GHz]","IWavePhi [deg]","IWaveTheta [deg]","Phi [deg]","Theta [deg]","re(rEPhi) [mV]","im(rEPhi) [mV]","re(rETheta) [mV]","im(rETheta) [mV]"
0.7118,180,90,135,54.736,-1.8615155485135e-15,2.30238572199076e-15,1.06994270161582e-15,-1.32366047469916e-15
"Freq [GHz]","IWavePhi [deg]","IWaveTheta [deg]","Phi [deg]","Theta [deg]","re(rEPhi) [mV]","im(rEPhi) [mV]","re(rETheta) [mV]","im(rETheta) [mV]"
0.7118,180,90,-45,54.736,2.10711572476315e-15,-2.31034300463156e-15,-1.2152265500619e-15,1.32395665155184e-15
"Freq [GHz]","IWavePhi [deg]","IWaveTheta [deg]","Phi [deg]","Theta [deg]","re(rEPhi) [mV]","im(rEPhi) [mV]","re(rETheta) [mV]","im(rETheta) [mV]"
0.7118,180,90,45,125.264,1.86322957470887e-15,-2.30495034694854e-15,-1.07123308715681e-15,1.32493655779564e-15
"Freq [GHz]","IWavePhi [deg]","IWaveTheta [deg]","Phi [deg]","Theta [deg]","re(rEPhi) [mV]","im(rEPhi) [mV]","re(rETheta) [mV]","im(rETheta) [mV]"
0.7118,180,90,-135,54.736,-2.10484342060501e-15,2.31096475260502e-15,-1.21340970410551e-15,1.32579462695037e-15
"Freq [GHz]","IWavePhi [deg]","IWaveTheta [deg]","Phi [deg]","Theta [deg]","re(rEPhi) [mV]","im(rEPhi) [mV]","re(rETheta) [mV]","im(rETheta) [mV]"
0.7118,180,90,-45,125.264,2.10267500083031e-15,-2.31418041593786e-15,1.21262878221095e-15,-1.32683402194399e-15
"Freq [GHz]","IWavePhi [deg]","IWaveTheta [deg]","Phi [deg]","Theta [deg]","re(rEPhi) [mV]","im(rEPhi) [mV]","re(rETheta) [mV]","im(rETheta) [mV]"
0.7118,180,90,135,125.264,-1.86599274723101e-15,2.30569664410545e-15,-1.07298368346332e-15,1.32517464124499e-15
"Freq [GHz]","IWavePhi [deg]","IWaveTheta [deg]","Phi [deg]","Theta [deg]","re(rEPhi) [mV]","im(rEPhi) [mV]","re(rETheta) [mV]","im(rETheta) [mV]"
0.7118,180,90,-135,125.264,-2.10747072034874e-15,2.31269025811816e-15,1.2138968343503e-15,-1.32687056046339e-15
"Freq [GHz]","IWavePhi [deg]","IWaveTheta [deg]","Phi [deg]","Theta [deg]","re(rEPhi) [mV]","im(rEPhi) [mV]","re(rETheta) [mV]","im(rETheta) [mV]"
0.7118,180,90,0,90,-52.9256966735166,61.5268597165809,0.00520120031044707,0.0134375680918127
"Freq [GHz]","IWavePhi [deg]","IWaveTheta [deg]","Phi [deg]","Theta [deg]","re(rEPhi) [mV]","im(rEPhi) [mV]","re(rETheta) [mV]","im(rETheta) [mV]"
0.7118,180,90,180,90,52.9110446479544,-61.5636997880905,0.0213322619601961,0.00883471279695183
"Freq [GHz]","IWavePhi [deg]","IWaveTheta [deg]","Phi [deg]","Theta [deg]","re(rEPhi) [mV]","im(rEPhi) [mV]","re(rETheta) [mV]","im(rETheta) [mV]"
0.7118,180,90,90,90,-0.0199675534451032,0.00245326659729721,8.10269639730865,0.341458842973098
"Freq [GHz]","IWavePhi [deg]","IWaveTheta [deg]","Phi [deg]","Theta [deg]","re(rEPhi) [mV]","im(rEPhi) [mV]","re(rETheta) [mV]","im(rETheta) [mV]"
0.7118,180,90,-90,90,0.0258064204982182,-0.000614308333743411,-8.14219456317123,-0.334142295861835
"Freq [GHz]","IWavePhi [deg]","IWaveTheta [deg]","Phi [deg]","Theta [deg]","re(rEPhi) [mV]","im(rEPhi) [mV]","re(rETheta) [mV]","im(rETheta) [mV]"
0.7118,180,90,0,0,-41.6889627556638,57.2535532806807,0.0177985536271259,-0.000510868029107123
"Freq [GHz]","IWavePhi [deg]","IWaveTheta [deg]","Phi [deg]","Theta [deg]","re(rEPhi) [mV]","im(rEPhi) [mV]","re(rETheta) [mV]","im(rETheta) [mV]"
0.7118,180,90,0,180,-55.5377230902972,56.2042426850644,-0.0346983595349807,-0.0196583260757527
"Freq [GHz]","IWavePhi [deg]","IWaveTheta [deg]","Phi [deg]","Theta [deg]","re(rEPhi) [mV]","im(rEPhi) [mV]","re(rETheta) [mV]","im(rETheta) [mV]"
0.7118,180,90,45,54.736,-31.9943975103529,40.4788245996694,-14.0542971349458,23.4462616520333
"Freq [GHz]","IWavePhi [deg]","IWaveTheta [deg]","Phi [deg]","Theta [deg]","re(rEPhi) [mV]","im(rEPhi) [mV]","re(rETheta) [mV]","im(rETheta) [mV]"
0.7118,180,90,135,54.736,31.9305445715549,-40.4883953510707,-14.0376055235098,23.4573202526324
"Freq [GHz]","IWavePhi [deg]","IWaveTheta [deg]","Phi [deg]","Theta [deg]","re(rEPhi) [mV]","im(rEPhi) [mV]","re(rETheta) [mV]","im(rETheta) [mV]"
0.7118,180,90,-45,54.736,-32.0045834186845,40.5610953589291,14.0795665638295,-23.4230379019403
"Freq [GHz]","IWavePhi [deg]","IWaveTheta [deg]","Phi [deg]","Theta [deg]","re(rEPhi) [mV]","im(rEPhi) [mV]","re(rETheta) [mV]","im(rETheta) [mV]"
0.7118,180,90,45,125.264,-37.4436023722858,40.0899562748034,25.6933155861605,-22.8685701265531
"Freq [GHz]","IWavePhi [deg]","IWaveTheta [deg]","Phi [deg]","Theta [deg]","re(rEPhi) [mV]","im(rEPhi) [mV]","re(rETheta) [mV]","im(rETheta) [mV]"
0.7118,180,90,-135,54.736,31.9654016419253,-40.5645357486849,14.0511377708912,-23.4516389504462
"Freq [GHz]","IWavePhi [deg]","IWaveTheta [deg]","Phi [deg]","Theta [deg]","re(rEPhi) [mV]","im(rEPhi) [mV]","re(rETheta) [mV]","im(rETheta) [mV]"
0.7118,180,90,-45,125.264,-37.4075258880719,40.1888806865599,-25.6658938602847,22.8603188473913
"Freq [GHz]","IWavePhi [deg]","IWaveTheta [deg]","Phi [deg]","Theta [deg]","re(rEPhi) [mV]","im(rEPhi) [mV]","re(rETheta) [mV]","im(rETheta) [mV]"
0.7118,180,90,135,125.264,37.4885409152182,-40.1054052260428,25.7224486964135,-22.8747675458914
"Freq [GHz]","IWavePhi [deg]","IWaveTheta [deg]","Phi [deg]","Theta [deg]","re(rEPhi) [mV]","im(rEPhi) [mV]","re(rETheta) [mV]","im(rETheta) [mV]"
0.7118,180,90,-135,125.264,37.4906621280699,-40.1607896677034,-25.6938818646679,22.8590669725005
"Freq [GHz]","IWavePhi [deg]","IWaveTheta [deg]","Phi [deg]","Theta [deg]","re(rEPhi) [mV]","im(rEPhi) [mV]","re(rETheta) [mV]","im(rETheta) [mV]"
0.7118,180,90,0,90,-52.9034057720528,61.5399073628257,0.00419396057177524,-0.00478196762854824
"Freq [GHz]","IWavePhi [deg]","IWaveTheta [deg]","Phi [deg]","Theta [deg]","re(rEPhi) [mV]","im(rEPhi) [mV]","re(rETheta) [mV]","im(rETheta) [mV]"
0.7118,180,90,180,90,52.8995212380026,-61.5798588909432,0.0100974805587776,-0.00692981329429422
"Freq [GHz]","IWavePhi [deg]","IWaveTheta [deg]","Phi [deg]","Theta [deg]","re(rEPhi) [mV]","im(rEPhi) [mV]","re(rETheta) [mV]","im(rETheta) [mV]"
0.7118,180,90,90,90,-0.0189320749603128,0.00282404589835121,-8.12718601686373,-0.31044940431244
"Freq [GHz]","IWavePhi [deg]","IWaveTheta [deg]","Phi [deg]","Theta [deg]","re(rEPhi) [mV]","im(rEPhi) [mV]","re(rETheta) [mV]","im(rETheta) [mV]"
0.7118,180,90,-90,90,0.0276412287863577,-0.00243258387473318,8.09247381081419,0.331770298720619
"Freq [GHz]","IWavePhi [deg]","IWaveTheta [deg]","Phi [deg]","Theta [deg]","re(rEPhi) [mV]","im(rEPhi) [mV]","re(rETheta) [mV]","im(rETheta) [mV]"
0.7118,180,90,0,0,-55.5151926469203,56.1651454178213,0.0208682924460789,-0.000759696068987196
"Freq [GHz]","IWavePhi [deg]","IWaveTheta [deg]","Phi [deg]","Theta [deg]","re(rEPhi) [mV]","im(rEPhi) [mV]","re(rETheta) [mV]","im(rETheta) [mV]"
0.7118,180,90,0,180,-41.6801655241677,57.326962230188,-0.0348410234348071,-0.0184928767256187
"Freq [GHz]","IWavePhi [deg]","IWaveTheta [deg]","Phi [deg]","Theta [deg]","re(rEPhi) [mV]","im(rEPhi) [mV]","re(rETheta) [mV]","im(rETheta) [mV]"
0.7118,180,90,45,54.736,-37.4593977262827,40.0467959320142,-25.6790928497092,22.8485589465108
"Freq [GHz]","IWavePhi [deg]","IWaveTheta [deg]","Phi [deg]","Theta [deg]","re(rEPhi) [mV]","im(rEPhi) [mV]","re(rETheta) [mV]","im(rETheta) [mV]"
0.7118,180,90,135,54.736,37.4024502247749,-40.0540752585117,-25.6583581984579,22.8448147413263
"Freq [GHz]","IWavePhi [deg]","IWaveTheta [deg]","Phi [deg]","Theta [deg]","re(rEPhi) [mV]","im(rEPhi) [mV]","re(rETheta) [mV]","im(rETheta) [mV]"
0.7118,180,90,-45,54.736,-37.4806032085877,40.1308885030861,25.7075964936718,-22.8215489975586
"Freq [GHz]","IWavePhi [deg]","IWaveTheta [deg]","Phi [deg]","Theta [deg]","re(rEPhi) [mV]","im(rEPhi) [mV]","re(rETheta) [mV]","im(rETheta) [mV]"
0.7118,180,90,45,125.264,-31.9483456339658,40.5402202574466,14.0511671997747,-23.4872595717548
"Freq [GHz]","IWavePhi [deg]","IWaveTheta [deg]","Phi [deg]","Theta [deg]","re(rEPhi) [mV]","im(rEPhi) [mV]","re(rETheta) [mV]","im(rETheta) [mV]"
