"Freq [GHz]","IWavePhi [deg]","IWaveTheta [deg]","Phi [deg]","Theta [deg]","re(rEPhi) [mV]","im(rEPhi) [mV]","re(rETheta) [mV]","im(rETheta) [mV]"
0.5694,180,90,0,90,-41.476756282996,14.352927405483,-0.00531999822163651,-0.00246933324861103
"Freq [GHz]","IWavePhi [deg]","IWaveTheta [deg]","Phi [deg]","Theta [deg]","re(rEPhi) [mV]","im(rEPhi) [mV]","re(rETheta) [mV]","im(rETheta) [mV]"
0.5694,180,90,180,90,41.455346147611,-14.3571060724158,0.00513169958072656,0.00222153056647565
"Freq [GHz]","IWavePhi [deg]","IWaveTheta [deg]","Phi [deg]","Theta [deg]","re(rEPhi) [mV]","im(rEPhi) [mV]","re(rETheta) [mV]","im(rETheta) [mV]"
0.5694,180,90,90,90,0.00592768586777942,0.00124061097195314,0.0106147919628628,-0.00373346614069368
"Freq [GHz]","IWavePhi [deg]","IWaveTheta [deg]","Phi [deg]","Theta [deg]","re(rEPhi) [mV]","im(rEPhi) [mV]","re(rETheta) [mV]","im(rETheta) [mV]"
0.5694,180,90,-90,90,0.00628399570096327,0.00613416812866731,-0.00630084282409493,-0.00057694591406585
"Freq [GHz]","IWavePhi [deg]","IWaveTheta [deg]","Phi [deg]","Theta [deg]","re(rEPhi) [mV]","im(rEPhi) [mV]","re(rETheta) [mV]","im(rETheta) [mV]"
0.5694,180,90,0,0,-39.4539981351479,13.614253078562,-0.000184888236690455,0.00189962067163307
"Freq [GHz]","IWavePhi [deg]","IWaveTheta [deg]","Phi [deg]","Theta [deg]","re(rEPhi) [mV]","im(rEPhi) [mV]","re(rETheta) [mV]","im(rETheta) [mV]"
0.5694,180,90,0,180,-39.4453455927758,13.6205953640651,0.00338560159624329,-0.00187664960409654
"Freq [GHz]","IWavePhi [deg]","IWaveTheta [deg]","Phi [deg]","Theta [deg]","re(rEPhi) [mV]","im(rEPhi) [mV]","re(rETheta) [mV]","im(rETheta) [mV]"
0.5694,180,90,45,54.736,-27.9226736825236,9.66716848228433,-16.0787186273283,5.55872002607402
"Freq [GHz]","IWavePhi [deg]","IWaveTheta [deg]","Phi [deg]","Theta [deg]","re(rEPhi) [mV]","im(rEPhi) [mV]","re(rETheta) [mV]","im(rETheta) [mV]"
0.5694,180,90,135,54.736,27.9337477781976,-9.6834557032757,-16.0952715197019,5.56145791967561
"Freq [GHz]","IWavePhi [deg]","IWaveTheta [deg]","Phi [deg]","Theta [deg]","re(rEPhi) [mV]","im(rEPhi) [mV]","re(rETheta) [mV]","im(rETheta) [mV]"
0.5694,180,90,-45,54.736,-27.9654890282336,9.66951441339151,16.0910074489419,-5.55650684625629
"Freq [GHz]","IWavePhi [deg]","IWaveTheta [deg]","Phi [deg]","Theta [deg]","re(rEPhi) [mV]","im(rEPhi) [mV]","re(rETheta) [mV]","im(rETheta) [mV]"
0.5694,180,90,45,125.264,-27.9396418434222,9.67973004415286,16.0958455320007,-5.56492293751026
"Freq [GHz]","IWavePhi [deg]","IWaveTheta [deg]","Phi [deg]","Theta [deg]","re(rEPhi) [mV]","im(rEPhi) [mV]","re(rETheta) [mV]","im(rETheta) [mV]"
0.5694,180,90,-135,54.736,27.949437234467,-9.67381927191497,16.0902307603527,-5.56590560847624
"Freq [GHz]","IWavePhi [deg]","IWaveTheta [deg]","Phi [deg]","Theta [deg]","re(rEPhi) [mV]","im(rEPhi) [mV]","re(rETheta) [mV]","im(rETheta) [mV]"
0.5694,180,90,-45,125.264,-27.9547246103159,9.68119818584504,-16.0787813213304,5.56559067251797
"Freq [GHz]","IWavePhi [deg]","IWaveTheta [deg]","Phi [deg]","Theta [deg]","re(rEPhi) [mV]","im(rEPhi) [mV]","re(rETheta) [mV]","im(rETheta) [mV]"
0.5694,180,90,135,125.264,27.9284865760695,-9.67736761719276,16.091025335864,-5.56219838790191
"Freq [GHz]","IWavePhi [deg]","IWaveTheta [deg]","Phi [deg]","Theta [deg]","re(rEPhi) [mV]","im(rEPhi) [mV]","re(rETheta) [mV]","im(rETheta) [mV]"
0.5694,180,90,-135,125.264,27.9617670963455,-9.65686124666583,-16.0959423402854,5.55725489557805
"Freq [GHz]","IWavePhi [deg]","IWaveTheta [deg]","Phi [deg]","Theta [deg]","re(rEPhi) [mV]","im(rEPhi) [mV]","re(rETheta) [mV]","im(rETheta) [mV]"
0.5694,180,90,62.632,90,-17.6608479329096,6.11518251762667,0.0173709545072398,-0.00440908178079055
"Freq [GHz]","IWavePhi [deg]","IWaveTheta [deg]","Phi [deg]","Theta [deg]","re(rEPhi) [mV]","im(rEPhi) [mV]","re(rETheta) [mV]","im(rETheta) [mV]"
0.5694,180,90,117.368,90,17.6659616978606,-6.11024045752933,-0.00144538790175549,-0.00344106435155825
"Freq [GHz]","IWavePhi [deg]","IWaveTheta [deg]","Phi [deg]","Theta [deg]","re(rEPhi) [mV]","im(rEPhi) [mV]","re(rETheta) [mV]","im(rETheta) [mV]"
0.5694,180,90,-62.632,90,-17.681034214799,6.11333577969545,0.00426520854052251,0.00172767519726387
"Freq [GHz]","IWavePhi [deg]","IWaveTheta [deg]","Phi [deg]","Theta [deg]","re(rEPhi) [mV]","im(rEPhi) [mV]","re(rETheta) [mV]","im(rETheta) [mV]"
0.5694,180,90,-117.368,90,17.6875210095448,-6.10662025761618,-0.0112424427275538,-0.00220870568622915
"Freq [GHz]","IWavePhi [deg]","IWaveTheta [deg]","Phi [deg]","Theta [deg]","re(rEPhi) [mV]","im(rEPhi) [mV]","re(rETheta) [mV]","im(rETheta) [mV]"
0.5694,180,90,27.368,90,-36.0815768924932,12.4893730819553,-0.00890501878644784,0.00673118852756963
"Freq [GHz]","IWavePhi [deg]","IWaveTheta [deg]","Phi [deg]","Theta [deg]","re(rEPhi) [mV]","im(rEPhi) [mV]","re(rETheta) [mV]","im(rETheta) [mV]"
0.5694,180,90,152.632,90,36.069576769907,-12.4817892401419,-0.00328169221120148,-0.00832707038925224
"Freq [GHz]","IWavePhi [deg]","IWaveTheta [deg]","Phi [deg]","Theta [deg]","re(rEPhi) [mV]","im(rEPhi) [mV]","re(rETheta) [mV]","im(rETheta) [mV]"
0.5694,180,90,-27.368,90,-36.1109486606055,12.4763325557626,0.0107118598399904,-0.00314244723319093
"Freq [GHz]","IWavePhi [deg]","IWaveTheta [deg]","Phi [deg]","Theta [deg]","re(rEPhi) [mV]","im(rEPhi) [mV]","re(rETheta) [mV]","im(rETheta) [mV]"
0.5694,180,90,-152.632,90,36.1061009831299,-12.488755189994,0.0119444167039793,0.00763971313882816
"Freq [GHz]","IWavePhi [deg]","IWaveTheta [deg]","Phi [deg]","Theta [deg]","re(rEPhi) [mV]","im(rEPhi) [mV]","re(rETheta) [mV]","im(rETheta) [mV]"
0.5694,180,90,0,27.368,-39.8796560165137,13.7985235825878,0.0110613760127237,-0.00170970800074323
"Freq [GHz]","IWavePhi [deg]","IWaveTheta [deg]","Phi [deg]","Theta [deg]","re(rEPhi) [mV]","im(rEPhi) [mV]","re(rETheta) [mV]","im(rETheta) [mV]"
0.5694,180,90,180,27.368,39.8759360364648,-13.7896576748838,0.00969312618357506,0.00177757779552224
"Freq [GHz]","IWavePhi [deg]","IWaveTheta [deg]","Phi [deg]","Theta [deg]","re(rEPhi) [mV]","im(rEPhi) [mV]","re(rETheta) [mV]","im(rETheta) [mV]"
0.5694,180,90,0,152.632,-39.8753786375272,13.7957388287754,-0.00706361824237779,-0.0029034442946291
"Freq [GHz]","IWavePhi [deg]","IWaveTheta [deg]","Phi [deg]","Theta [deg]","re(rEPhi) [mV]","im(rEPhi) [mV]","re(rETheta) [mV]","im(rETheta) [mV]"
0.5694,180,90,180,152.632,39.8667118341249,-13.8000917005483,-0.00546417618877287,-0.00419619955864757
"Freq [GHz]","IWavePhi [deg]","IWaveTheta [deg]","Phi [deg]","Theta [deg]","re(rEPhi) [mV]","im(rEPhi) [mV]","re(rETheta) [mV]","im(rETheta) [mV]"
0.5694,180,90,0,62.632,-41.0603208799887,14.2198477500896,0.00593642140611666,-0.00166460877180784
"Freq [GHz]","IWavePhi [deg]","IWaveTheta [deg]","Phi [deg]","Theta [deg]","re(rEPhi) [mV]","im(rEPhi) [mV]","re(rETheta) [mV]","im(rETheta) [mV]"
0.5694,180,90,180,62.632,41.0446934890992,-14.1940744072863,0.00653181828606607,-0.000755429978454489
"Freq [GHz]","IWavePhi [deg]","IWaveTheta [deg]","Phi [deg]","Theta [deg]","re(rEPhi) [mV]","im(rEPhi) [mV]","re(rETheta) [mV]","im(rETheta) [mV]"
0.5694,180,90,0,117.368,-41.029200854333,14.2011045116418,-0.00464739986375822,-0.00315523417779732
"Freq [GHz]","IWavePhi [deg]","IWaveTheta [deg]","Phi [deg]","Theta [deg]","re(rEPhi) [mV]","im(rEPhi) [mV]","re(rETheta) [mV]","im(rETheta) [mV]"
0.5694,180,90,180,117.368,41.0275084739792,-14.2288445099315,-0.00252242748180123,-0.00281146283396282
"Freq [GHz]","IWavePhi [deg]","IWaveTheta [deg]","Phi [deg]","Theta [deg]","re(rEPhi) [mV]","im(rEPhi) [mV]","re(rETheta) [mV]","im(rETheta) [mV]"
0.5694,180,90,90,27.368,-0.00548586671587565,0.0073245774078754,-34.6768461324868,11.9748381842712
"Freq [GHz]","IWavePhi [deg]","IWaveTheta [deg]","Phi [deg]","Theta [deg]","re(rEPhi) [mV]","im(rEPhi) [mV]","re(rETheta) [mV]","im(rETheta) [mV]"
0.5694,180,90,-90,27.368,-0.00240526464740586,0.00604681050430277,34.6753395868745,-11.9679876137853
"Freq [GHz]","IWavePhi [deg]","IWaveTheta [deg]","Phi [deg]","Theta [deg]","re(rEPhi) [mV]","im(rEPhi) [mV]","re(rETheta) [mV]","im(rETheta) [mV]"
0.5694,180,90,90,152.632,-0.00257013272064574,-0.00721868904014301,34.6790603952311,-11.9708190139172
"Freq [GHz]","IWavePhi [deg]","IWaveTheta [deg]","Phi [deg]","Theta [deg]","re(rEPhi) [mV]","im(rEPhi) [mV]","re(rETheta) [mV]","im(rETheta) [mV]"
0.5694,180,90,-90,152.632,-0.0010574735191398,-0.0119142647041379,-34.6780025905832,11.9734478734235
"Freq [GHz]","IWavePhi [deg]","IWaveTheta [deg]","Phi [deg]","Theta [deg]","re(rEPhi) [mV]","im(rEPhi) [mV]","re(rETheta) [mV]","im(rETheta) [mV]"
0.5694,180,90,90,62.632,0.00912049173177647,0.000800407960487148,-17.4261661075379,6.02569035116474
"Freq [GHz]","IWavePhi [deg]","IWaveTheta [deg]","Phi [deg]","Theta [deg]","re(rEPhi) [mV]","im(rEPhi) [mV]","re(rETheta) [mV]","im(rETheta) [mV]"
0.5694,180,90,-90,62.632,-0.000675358448117429,0.00245558310329793,17.4383603703667,-6.02097127880009
"Freq [GHz]","IWavePhi [deg]","IWaveTheta [deg]","Phi [deg]","Theta [deg]","re(rEPhi) [mV]","im(rEPhi) [mV]","re(rETheta) [mV]","im(rETheta) [mV]"
0.5694,180,90,90,117.368,-0.00360335118247835,0.00440061840858097,17.4320462581704,-6.03098555353378
"Freq [GHz]","IWavePhi [deg]","IWaveTheta [deg]","Phi [deg]","Theta [deg]","re(rEPhi) [mV]","im(rEPhi) [mV]","re(rETheta) [mV]","im(rETheta) [mV]"
0.5694,180,90,-90,117.368,0.00446499117811061,0.0105180999115439,-17.4400722444167,6.02731579089098
"Freq [GHz]","IWavePhi [deg]","IWaveTheta [deg]","Phi [deg]","Theta [deg]","re(rEPhi) [mV]","im(rEPhi) [mV]","re(rETheta) [mV]","im(rETheta) [mV]"
0.5694,180,90,0,90,41.476756282996,-14.352927405483,0.00531999822161211,0.00246933324856192
"Freq [GHz]","IWavePhi [deg]","IWaveTheta [deg]","Phi [deg]","Theta [deg]","re(rEPhi) [mV]","im(rEPhi) [mV]","re(rETheta) [mV]","im(rETheta) [mV]"
0.5694,180,90,180,90,-41.455346147611,14.3571060724158,-0.00513169958059662,-0.00222153056645227
"Freq [GHz]","IWavePhi [deg]","IWaveTheta [deg]","Phi [deg]","Theta [deg]","re(rEPhi) [mV]","im(rEPhi) [mV]","re(rETheta) [mV]","im(rETheta) [mV]"
0.5694,180,90,90,90,-0.00592768586785602,-0.00124061097196591,-0.0106147919629063,0.00373346614066733
"Freq [GHz]","IWavePhi [deg]","IWaveTheta [deg]","Phi [deg]","Theta [deg]","re(rEPhi) [mV]","im(rEPhi) [mV]","re(rETheta) [mV]","im(rETheta) [mV]"
0.5694,180,90,-90,90,-0.00628399570101743,-0.00613416812863231,0.00630084282419872,0.00057694591403908
"Freq [GHz]","IWavePhi [deg]","IWaveTheta [deg]","Phi [deg]","Theta [deg]","re(rEPhi) [mV]","im(rEPhi) [mV]","re(rETheta) [mV]","im(rETheta) [mV]"
0.5694,180,90,0,0,39.4539981351479,-13.614253078562,0.000184888236659463,-0.00189962067158509
"Freq [GHz]","IWavePhi [deg]","IWaveTheta [deg]","Phi [deg]","Theta [deg]","re(rEPhi) [mV]","im(rEPhi) [mV]","re(rETheta) [mV]","im(rETheta) [mV]"
0.5694,180,90,0,180,39.4453455927758,-13.6205953640651,-0.00338560159629313,0.0018766496040308
"Freq [GHz]","IWavePhi [deg]","IWaveTheta [deg]","Phi [deg]","Theta [deg]","re(rEPhi) [mV]","im(rEPhi) [mV]","re(rETheta) [mV]","im(rETheta) [mV]"
0.5694,180,90,45,54.736,27.9226736825236,-9.6671684822844,16.0787186273284,-5.558720026074
"Freq [GHz]","IWavePhi [deg]","IWaveTheta [deg]","Phi [deg]","Theta [deg]","re(rEPhi) [mV]","im(rEPhi) [mV]","re(rETheta) [mV]","im(rETheta) [mV]"
0.5694,180,90,135,54.736,-27.9337477781976,9.6834557032757,16.0952715197017,-5.56145791967555
"Freq [GHz]","IWavePhi [deg]","IWaveTheta [deg]","Phi [deg]","Theta [deg]","re(rEPhi) [mV]","im(rEPhi) [mV]","re(rETheta) [mV]","im(rETheta) [mV]"
0.5694,180,90,-45,54.736,27.9654890282337,-9.66951441339148,-16.091007448942,5.55650684625635
"Freq [GHz]","IWavePhi [deg]","IWaveTheta [deg]","Phi [deg]","Theta [deg]","re(rEPhi) [mV]","im(rEPhi) [mV]","re(rETheta) [mV]","im(rETheta) [mV]"
0.5694,180,90,45,125.264,27.9396418434222,-9.67973004415278,-16.0958455320007,5.56492293751044
"Freq [GHz]","IWavePhi [deg]","IWaveTheta [deg]","Phi [deg]","Theta [deg]","re(rEPhi) [mV]","im(rEPhi) [mV]","re(rETheta) [mV]","im(rETheta) [mV]"
0.5694,180,90,-135,54.736,-27.949437234467,9.67381927191495,-16.0902307603527,5.56590560847624
"Freq [GHz]","IWavePhi [deg]","IWaveTheta [deg]","Phi [deg]","Theta [deg]","re(rEPhi) [mV]","im(rEPhi) [mV]","re(rETheta) [mV]","im(rETheta) [mV]"
0.5694,180,90,-45,125.264,27.9547246103158,-9.68119818584505,16.0787813213304,-5.56559067251798
"Freq [GHz]","IWavePhi [deg]","IWaveTheta [deg]","Phi [deg]","Theta [deg]","re(rEPhi) [mV]","im(rEPhi) [mV]","re(rETheta) [mV]","im(rETheta) [mV]"
0.5694,180,90,135,125.264,-27.9284865760694,9.67736761719273,-16.091025335864,5.56219838790181
"Freq [GHz]","IWavePhi [deg]","IWaveTheta [deg]","Phi [deg]","Theta [deg]","re(rEPhi) [mV]","im(rEPhi) [mV]","re(rETheta) [mV]","im(rETheta) [mV]"
0.5694,180,90,-135,125.264,-27.9617670963455,9.65686124666587,16.0959423402854,-5.55725489557814
"Freq [GHz]","IWavePhi [deg]","IWaveTheta [deg]","Phi [deg]","Theta [deg]","re(rEPhi) [mV]","im(rEPhi) [mV]","re(rETheta) [mV]","im(rETheta) [mV]"
0.5694,180,90,62.632,90,17.6608479329096,-6.11518251762672,-0.0173709545073049,0.00440908178075224
"Freq [GHz]","IWavePhi [deg]","IWaveTheta [deg]","Phi [deg]","Theta [deg]","re(rEPhi) [mV]","im(rEPhi) [mV]","re(rETheta) [mV]","im(rETheta) [mV]"
0.5694,180,90,117.368,90,-17.6659616978606,6.11024045752932,0.00144538790172728,0.00344106435145641
"Freq [GHz]","IWavePhi [deg]","IWaveTheta [deg]","Phi [deg]","Theta [deg]","re(rEPhi) [mV]","im(rEPhi) [mV]","re(rETheta) [mV]","im(rETheta) [mV]"
0.5694,180,90,-62.632,90,17.6810342147989,-6.11333577969545,-0.00426520854039442,-0.00172767519716806
"Freq [GHz]","IWavePhi [deg]","IWaveTheta [deg]","Phi [deg]","Theta [deg]","re(rEPhi) [mV]","im(rEPhi) [mV]","re(rETheta) [mV]","im(rETheta) [mV]"
0.5694,180,90,-117.368,90,-17.6875210095448,6.10662025761626,0.0112424427274783,0.00220870568611166
"Freq [GHz]","IWavePhi [deg]","IWaveTheta [deg]","Phi [deg]","Theta [deg]","re(rEPhi) [mV]","im(rEPhi) [mV]","re(rETheta) [mV]","im(rETheta) [mV]"
0.5694,180,90,27.368,90,36.0815768924932,-12.4893730819553,0.00890501878647335,-0.00673118852741762
"Freq [GHz]","IWavePhi [deg]","IWaveTheta [deg]","Phi [deg]","Theta [deg]","re(rEPhi) [mV]","im(rEPhi) [mV]","re(rETheta) [mV]","im(rETheta) [mV]"
0.5694,180,90,152.632,90,-36.069576769907,12.4817892401418,0.00328169221112287,0.0083270703892475
"Freq [GHz]","IWavePhi [deg]","IWaveTheta [deg]","Phi [deg]","Theta [deg]","re(rEPhi) [mV]","im(rEPhi) [mV]","re(rETheta) [mV]","im(rETheta) [mV]"
0.5694,180,90,-27.368,90,36.1109486606055,-12.4763325557625,-0.010711859840007,0.00314244723305186
"Freq [GHz]","IWavePhi [deg]","IWaveTheta [deg]","Phi [deg]","Theta [deg]","re(rEPhi) [mV]","im(rEPhi) [mV]","re(rETheta) [mV]","im(rETheta) [mV]"
0.5694,180,90,-152.632,90,-36.1061009831299,12.488755189994,-0.0119444167040239,-0.00763971313884037
"Freq [GHz]","IWavePhi [deg]","IWaveTheta [deg]","Phi [deg]","Theta [deg]","re(rEPhi) [mV]","im(rEPhi) [mV]","re(rETheta) [mV]","im(rETheta) [mV]"
0.5694,180,90,0,27.368,39.8796560165137,-13.7985235825878,-0.0110613760127723,0.00170970800068902
"Freq [GHz]","IWavePhi [deg]","IWaveTheta [deg]","Phi [deg]","Theta [deg]","re(rEPhi) [mV]","im(rEPhi) [mV]","re(rETheta) [mV]","im(rETheta) [mV]"
0.5694,180,90,180,27.368,-39.8759360364648,13.7896576748838,-0.0096931261835363,-0.00177757779562154
"Freq [GHz]","IWavePhi [deg]","IWaveTheta [deg]","Phi [deg]","Theta [deg]","re(rEPhi) [mV]","im(rEPhi) [mV]","re(rETheta) [mV]","im(rETheta) [mV]"
0.5694,180,90,0,152.632,39.8753786375272,-13.7957388287754,0.00706361824239653,0.0029034442945337
"Freq [GHz]","IWavePhi [deg]","IWaveTheta [deg]","Phi [deg]","Theta [deg]","re(rEPhi) [mV]","im(rEPhi) [mV]","re(rETheta) [mV]","im(rETheta) [mV]"
0.5694,180,90,180,152.632,-39.8667118341249,13.8000917005483,0.00546417618877622,0.00419619955869504
"Freq [GHz]","IWavePhi [deg]","IWaveTheta [deg]","Phi [deg]","Theta [deg]","re(rEPhi) [mV]","im(rEPhi) [mV]","re(rETheta) [mV]","im(rETheta) [mV]"
0.5694,180,90,0,62.632,41.0603208799887,-14.2198477500896,-0.00593642140610986,0.00166460877177371
"Freq [GHz]","IWavePhi [deg]","IWaveTheta [deg]","Phi [deg]","Theta [deg]","re(rEPhi) [mV]","im(rEPhi) [mV]","re(rETheta) [mV]","im(rETheta) [mV]"
0.5694,180,90,180,62.632,-41.0446934890992,14.1940744072863,-0.00653181828597886,0.000755429978321925
"Freq [GHz]","IWavePhi [deg]","IWaveTheta [deg]","Phi [deg]","Theta [deg]","re(rEPhi) [mV]","im(rEPhi) [mV]","re(rETheta) [mV]","im(rETheta) [mV]"
0.5694,180,90,0,117.368,41.029200854333,-14.2011045116418,0.00464739986375904,0.00315523417774604
"Freq [GHz]","IWavePhi [deg]","IWaveTheta [deg]","Phi [deg]","Theta [deg]","re(rEPhi) [mV]","im(rEPhi) [mV]","re(rETheta) [mV]","im(rETheta) [mV]"
0.5694,180,90,180,117.368,-41.0275084739792,14.2288445099315,0.00252242748183608,0.00281146283406629
"Freq [GHz]","IWavePhi [deg]","IWaveTheta [deg]","Phi [deg]","Theta [deg]","re(rEPhi) [mV]","im(rEPhi) [mV]","re(rETheta) [mV]","im(rETheta) [mV]"
0.5694,180,90,90,27.368,0.00548586671573941,-0.00732457740792477,34.6768461324868,-11.9748381842712
"Freq [GHz]","IWavePhi [deg]","IWaveTheta [deg]","Phi [deg]","Theta [deg]","re(rEPhi) [mV]","im(rEPhi) [mV]","re(rETheta) [mV]","im(rETheta) [mV]"
0.5694,180,90,-90,27.368,0.00240526464734901,-0.00604681050431483,-34.6753395868745,11.9679876137854
"Freq [GHz]","IWavePhi [deg]","IWaveTheta [deg]","Phi [deg]","Theta [deg]","re(rEPhi) [mV]","im(rEPhi) [mV]","re(rETheta) [mV]","im(rETheta) [mV]"
0.5694,180,90,90,152.632,0.00257013272067015,0.00721868904026679,-34.6790603952311,11.9708190139172
"Freq [GHz]","IWavePhi [deg]","IWaveTheta [deg]","Phi [deg]","Theta [deg]","re(rEPhi) [mV]","im(rEPhi) [mV]","re(rETheta) [mV]","im(rETheta) [mV]"
0.5694,180,90,-90,152.632,0.00105747351915127,0.0119142647041512,34.6780025905832,-11.9734478734235
"Freq [GHz]","IWavePhi [deg]","IWaveTheta [deg]","Phi [deg]","Theta [deg]","re(rEPhi) [mV]","im(rEPhi) [mV]","re(rETheta) [mV]","im(rETheta) [mV]"
0.5694,180,90,90,62.632,-0.00912049173175977,-0.000800407960451489,17.4261661075379,-6.02569035116473
"Freq [GHz]","IWavePhi [deg]","IWaveTheta [deg]","Phi [deg]","Theta [deg]","re(rEPhi) [mV]","im(rEPhi) [mV]","re(rETheta) [mV]","im(rETheta) [mV]"
0.5694,180,90,-90,62.632,0.000675358448181295,-0.00245558310316922,-17.4383603703667,6.02097127879999
"Freq [GHz]","IWavePhi [deg]","IWaveTheta [deg]","Phi [deg]","Theta [deg]","re(rEPhi) [mV]","im(rEPhi) [mV]","re(rETheta) [mV]","im(rETheta) [mV]"
0.5694,180,90,90,117.368,0.00360335118247229,-0.00440061840857942,-17.4320462581704,6.03098555353375
"Freq [GHz]","IWavePhi [deg]","IWaveTheta [deg]","Phi [deg]","Theta [deg]","re(rEPhi) [mV]","im(rEPhi) [mV]","re(rETheta) [mV]","im(rETheta) [mV]"
0.5694,180,90,-90,117.368,-0.00446499117825934,-0.0105180999115525,17.4400722444168,-6.02731579089096
"Freq [GHz]","IWavePhi [deg]","IWaveTheta [deg]","Phi [deg]","Theta [deg]","re(rEPhi) [mV]","im(rEPhi) [mV]","re(rETheta) [mV]","im(rETheta) [mV]"
0.5694,180,90,0,90,-6.92121534451366e-15,2.39526783816951e-15,-8.83465058342011e-19,-2.44535262529421e-19
"Freq [GHz]","IWavePhi [deg]","IWaveTheta [deg]","Phi [deg]","Theta [deg]","re(rEPhi) [mV]","im(rEPhi) [mV]","re(rETheta) [mV]","im(rETheta) [mV]"
0.5694,180,90,180,90,6.91770635982154e-15,-2.39597370940498e-15,7.92997104282917e-19,5.57800374695192e-19
"Freq [GHz]","IWavePhi [deg]","IWaveTheta [deg]","Phi [deg]","Theta [deg]","re(rEPhi) [mV]","im(rEPhi) [mV]","re(rETheta) [mV]","im(rETheta) [mV]"
0.5694,180,90,90,90,9.70403644322068e-19,2.13632051188681e-19,1.83583804655789e-18,-5.0409839967213e-19
"Freq [GHz]","IWavePhi [deg]","IWaveTheta [deg]","Phi [deg]","Theta [deg]","re(rEPhi) [mV]","im(rEPhi) [mV]","re(rETheta) [mV]","im(rETheta) [mV]"
0.5694,180,90,-90,90,1.04592175444193e-18,1.00769135199572e-18,-1.1613856827619e-18,-1.35845105062693e-20
"Freq [GHz]","IWavePhi [deg]","IWaveTheta [deg]","Phi [deg]","Theta [deg]","re(rEPhi) [mV]","im(rEPhi) [mV]","re(rETheta) [mV]","im(rETheta) [mV]"
0.5694,180,90,0,0,-6.58352953380602e-15,2.27207268177527e-15,-5.02674597789767e-20,2.90334589713101e-19
