"Freq [GHz]","IWavePhi [deg]","IWaveTheta [deg]","Phi [deg]","Theta [deg]","re(rEPhi) [mV]","im(rEPhi) [mV]","re(rETheta) [mV]","im(rETheta) [mV]"
0.7829,180,90,0,90,-33.7495436446577,93.7501970702616,-0.00022802790978703,-0.0378203655237601
"Freq [GHz]","IWavePhi [deg]","IWaveTheta [deg]","Phi [deg]","Theta [deg]","re(rEPhi) [mV]","im(rEPhi) [mV]","re(rETheta) [mV]","im(rETheta) [mV]"
0.7829,180,90,180,90,33.7391161097483,-93.737205470883,0.0240642204739643,-0.0474691309120069
"Freq [GHz]","IWavePhi [deg]","IWaveTheta [deg]","Phi [deg]","Theta [deg]","re(rEPhi) [mV]","im(rEPhi) [mV]","re(rETheta) [mV]","im(rETheta) [mV]"
0.7829,180,90,90,90,-0.00632756583944987,0.0389235467361339,0.04099116121987,0.00759124083472478
"Freq [GHz]","IWavePhi [deg]","IWaveTheta [deg]","Phi [deg]","Theta [deg]","re(rEPhi) [mV]","im(rEPhi) [mV]","re(rETheta) [mV]","im(rETheta) [mV]"
0.7829,180,90,-90,90,0.0368631741110437,-0.0189293889899836,-0.0108929011081583,-0.0191728683175392
"Freq [GHz]","IWavePhi [deg]","IWaveTheta [deg]","Phi [deg]","Theta [deg]","re(rEPhi) [mV]","im(rEPhi) [mV]","re(rETheta) [mV]","im(rETheta) [mV]"
0.7829,180,90,0,0,-30.7893038579644,84.9752594104167,0.021992791078393,-0.0343795865971501
"Freq [GHz]","IWavePhi [deg]","IWaveTheta [deg]","Phi [deg]","Theta [deg]","re(rEPhi) [mV]","im(rEPhi) [mV]","re(rETheta) [mV]","im(rETheta) [mV]"
0.7829,180,90,0,180,-30.9169789324419,84.9022359728376,-0.0722022862422174,0.0404277982749904
"Freq [GHz]","IWavePhi [deg]","IWaveTheta [deg]","Phi [deg]","Theta [deg]","re(rEPhi) [mV]","im(rEPhi) [mV]","re(rETheta) [mV]","im(rETheta) [mV]"
0.7829,180,90,45,54.736,-21.9861252074045,60.5280514322087,-12.6233084253705,34.7289447732991
"Freq [GHz]","IWavePhi [deg]","IWaveTheta [deg]","Phi [deg]","Theta [deg]","re(rEPhi) [mV]","im(rEPhi) [mV]","re(rETheta) [mV]","im(rETheta) [mV]"
0.7829,180,90,135,54.736,21.9719063687412,-60.4403224726567,-12.627268228744,34.693456751182
"Freq [GHz]","IWavePhi [deg]","IWaveTheta [deg]","Phi [deg]","Theta [deg]","re(rEPhi) [mV]","im(rEPhi) [mV]","re(rETheta) [mV]","im(rETheta) [mV]"
0.7829,180,90,-45,54.736,-21.9213296471512,60.6248121540364,12.690292617814,-34.7831190660055
"Freq [GHz]","IWavePhi [deg]","IWaveTheta [deg]","Phi [deg]","Theta [deg]","re(rEPhi) [mV]","im(rEPhi) [mV]","re(rETheta) [mV]","im(rETheta) [mV]"
0.7829,180,90,45,125.264,-21.9507785722334,60.5505528993167,12.6406738413125,-34.7895069893764
"Freq [GHz]","IWavePhi [deg]","IWaveTheta [deg]","Phi [deg]","Theta [deg]","re(rEPhi) [mV]","im(rEPhi) [mV]","re(rETheta) [mV]","im(rETheta) [mV]"
0.7829,180,90,-135,54.736,21.852650328442,-60.6132836529241,12.620167651155,-34.7923650656278
"Freq [GHz]","IWavePhi [deg]","IWaveTheta [deg]","Phi [deg]","Theta [deg]","re(rEPhi) [mV]","im(rEPhi) [mV]","re(rETheta) [mV]","im(rETheta) [mV]"
0.7829,180,90,-45,125.264,-21.7504876341482,60.6131188193772,-12.5951886247226,34.723289744524
"Freq [GHz]","IWavePhi [deg]","IWaveTheta [deg]","Phi [deg]","Theta [deg]","re(rEPhi) [mV]","im(rEPhi) [mV]","re(rETheta) [mV]","im(rETheta) [mV]"
0.7829,180,90,135,125.264,21.948779448166,-60.6363007319772,12.6431039570081,-34.8328176452068
"Freq [GHz]","IWavePhi [deg]","IWaveTheta [deg]","Phi [deg]","Theta [deg]","re(rEPhi) [mV]","im(rEPhi) [mV]","re(rETheta) [mV]","im(rETheta) [mV]"
0.7829,180,90,-135,125.264,21.8598414513538,-60.6183838159385,-12.6167327252721,34.7220859683163
"Freq [GHz]","IWavePhi [deg]","IWaveTheta [deg]","Phi [deg]","Theta [deg]","re(rEPhi) [mV]","im(rEPhi) [mV]","re(rETheta) [mV]","im(rETheta) [mV]"
0.7829,180,90,0,90,33.7495436446577,-93.7501970702616,0.000228027909769475,0.0378203655237606
"Freq [GHz]","IWavePhi [deg]","IWaveTheta [deg]","Phi [deg]","Theta [deg]","re(rEPhi) [mV]","im(rEPhi) [mV]","re(rETheta) [mV]","im(rETheta) [mV]"
0.7829,180,90,180,90,-33.7391161097483,93.737205470883,-0.0240642204739452,0.047469130912008
"Freq [GHz]","IWavePhi [deg]","IWaveTheta [deg]","Phi [deg]","Theta [deg]","re(rEPhi) [mV]","im(rEPhi) [mV]","re(rETheta) [mV]","im(rETheta) [mV]"
0.7829,180,90,90,90,0.00632756583940287,-0.0389235467360818,-0.0409911612198819,-0.00759124083471119
"Freq [GHz]","IWavePhi [deg]","IWaveTheta [deg]","Phi [deg]","Theta [deg]","re(rEPhi) [mV]","im(rEPhi) [mV]","re(rETheta) [mV]","im(rETheta) [mV]"
0.7829,180,90,-90,90,-0.0368631741110856,0.0189293889899315,0.0108929011081702,0.0191728683175539
"Freq [GHz]","IWavePhi [deg]","IWaveTheta [deg]","Phi [deg]","Theta [deg]","re(rEPhi) [mV]","im(rEPhi) [mV]","re(rETheta) [mV]","im(rETheta) [mV]"
0.7829,180,90,0,0,30.7893038579644,-84.9752594104167,-0.0219927910783267,0.0343795865971659
"Freq [GHz]","IWavePhi [deg]","IWaveTheta [deg]","Phi [deg]","Theta [deg]","re(rEPhi) [mV]","im(rEPhi) [mV]","re(rETheta) [mV]","im(rETheta) [mV]"
0.7829,180,90,0,180,30.9169789324419,-84.9022359728376,0.0722022862422831,-0.0404277982750094
"Freq [GHz]","IWavePhi [deg]","IWaveTheta [deg]","Phi [deg]","Theta [deg]","re(rEPhi) [mV]","im(rEPhi) [mV]","re(rETheta) [mV]","im(rETheta) [mV]"
0.7829,180,90,45,54.736,21.9861252074044,-60.5280514322086,12.6233084253705,-34.7289447732991
"Freq [GHz]","IWavePhi [deg]","IWaveTheta [deg]","Phi [deg]","Theta [deg]","re(rEPhi) [mV]","im(rEPhi) [mV]","re(rETheta) [mV]","im(rETheta) [mV]"
0.7829,180,90,135,54.736,-21.9719063687412,60.4403224726568,12.627268228744,-34.693456751182
"Freq [GHz]","IWavePhi [deg]","IWaveTheta [deg]","Phi [deg]","Theta [deg]","re(rEPhi) [mV]","im(rEPhi) [mV]","re(rETheta) [mV]","im(rETheta) [mV]"
0.7829,180,90,-45,54.736,21.9213296471513,-60.6248121540364,-12.690292617814,34.7831190660055
"Freq [GHz]","IWavePhi [deg]","IWaveTheta [deg]","Phi [deg]","Theta [deg]","re(rEPhi) [mV]","im(rEPhi) [mV]","re(rETheta) [mV]","im(rETheta) [mV]"
0.7829,180,90,45,125.264,21.9507785722334,-60.5505528993167,-12.6406738413125,34.7895069893764
"Freq [GHz]","IWavePhi [deg]","IWaveTheta [deg]","Phi [deg]","Theta [deg]","re(rEPhi) [mV]","im(rEPhi) [mV]","re(rETheta) [mV]","im(rETheta) [mV]"
0.7829,180,90,-135,54.736,-21.8526503284421,60.6132836529241,-12.620167651155,34.7923650656278
"Freq [GHz]","IWavePhi [deg]","IWaveTheta [deg]","Phi [deg]","Theta [deg]","re(rEPhi) [mV]","im(rEPhi) [mV]","re(rETheta) [mV]","im(rETheta) [mV]"
0.7829,180,90,-45,125.264,21.7504876341482,-60.6131188193772,12.5951886247225,-34.723289744524
"Freq [GHz]","IWavePhi [deg]","IWaveTheta [deg]","Phi [deg]","Theta [deg]","re(rEPhi) [mV]","im(rEPhi) [mV]","re(rETheta) [mV]","im(rETheta) [mV]"
0.7829,180,90,135,125.264,-21.9487794481659,60.6363007319772,-12.6431039570081,34.8328176452068
"Freq [GHz]","IWavePhi [deg]","IWaveTheta [deg]","Phi [deg]","Theta [deg]","re(rEPhi) [mV]","im(rEPhi) [mV]","re(rETheta) [mV]","im(rETheta) [mV]"
0.7829,180,90,-135,125.264,-21.8598414513538,60.6183838159384,12.6167327252721,-34.7220859683163
"Freq [GHz]","IWavePhi [deg]","IWaveTheta [deg]","Phi [deg]","Theta [deg]","re(rEPhi) [mV]","im(rEPhi) [mV]","re(rETheta) [mV]","im(rETheta) [mV]"
0.7829,180,90,0,90,-5.15284722505652e-15,1.43781634406151e-14,-7.0004589784611e-19,-6.67220803650729e-18
"Freq [GHz]","IWavePhi [deg]","IWaveTheta [deg]","Phi [deg]","Theta [deg]","re(rEPhi) [mV]","im(rEPhi) [mV]","re(rETheta) [mV]","im(rETheta) [mV]"
0.7829,180,90,180,90,5.15137130364561e-15,-1.43760663838285e-14,3.38502845106854e-18,-8.02841880770849e-18
"Freq [GHz]","IWavePhi [deg]","IWaveTheta [deg]","Phi [deg]","Theta [deg]","re(rEPhi) [mV]","im(rEPhi) [mV]","re(rETheta) [mV]","im(rETheta) [mV]"
0.7829,180,90,90,90,-5.96965053309402e-19,6.08377732462646e-18,7.77687359554406e-18,2.14100785607776e-19
"Freq [GHz]","IWavePhi [deg]","IWaveTheta [deg]","Phi [deg]","Theta [deg]","re(rEPhi) [mV]","im(rEPhi) [mV]","re(rETheta) [mV]","im(rETheta) [mV]"
0.7829,180,90,-90,90,5.23640486272814e-18,-2.98556097166393e-18,-3.57532617442829e-18,-3.1241285749009e-18
"Freq [GHz]","IWavePhi [deg]","IWaveTheta [deg]","Phi [deg]","Theta [deg]","re(rEPhi) [mV]","im(rEPhi) [mV]","re(rETheta) [mV]","im(rETheta) [mV]"
0.7829,180,90,0,0,-4.70001774320908e-15,1.30321420617802e-14,3.27234676427417e-18,-5.22766647069154e-18
"Freq [GHz]","IWavePhi [deg]","IWaveTheta [deg]","Phi [deg]","Theta [deg]","re(rEPhi) [mV]","im(rEPhi) [mV]","re(rETheta) [mV]","im(rETheta) [mV]"
0.7829,180,90,0,180,-4.71768216128984e-15,1.30211519425063e-14,-1.08819763652575e-17,6.46131071132615e-18
"Freq [GHz]","IWavePhi [deg]","IWaveTheta [deg]","Phi [deg]","Theta [deg]","re(rEPhi) [mV]","im(rEPhi) [mV]","re(rETheta) [mV]","im(rETheta) [mV]"
0.7829,180,90,45,54.736,-3.90536827642465e-15,9.29194561259132e-15,-2.25224821711571e-15,5.3314665136104e-15
"Freq [GHz]","IWavePhi [deg]","IWaveTheta [deg]","Phi [deg]","Theta [deg]","re(rEPhi) [mV]","im(rEPhi) [mV]","re(rETheta) [mV]","im(rETheta) [mV]"
0.7829,180,90,135,54.736,3.90391855932513e-15,-9.27936560950578e-15,-2.25312931825016e-15,5.32591880126982e-15
"Freq [GHz]","IWavePhi [deg]","IWaveTheta [deg]","Phi [deg]","Theta [deg]","re(rEPhi) [mV]","im(rEPhi) [mV]","re(rETheta) [mV]","im(rETheta) [mV]"
0.7829,180,90,-45,54.736,-2.83118060477953e-15,9.28864819015889e-15,1.63166886982517e-15,-5.32933981415475e-15
"Freq [GHz]","IWavePhi [deg]","IWaveTheta [deg]","Phi [deg]","Theta [deg]","re(rEPhi) [mV]","im(rEPhi) [mV]","re(rETheta) [mV]","im(rETheta) [mV]"
0.7829,180,90,45,125.264,-3.89992794075828e-15,9.29578575318291e-15,2.25548461334033e-15,-5.34203120525805e-15
"Freq [GHz]","IWavePhi [deg]","IWaveTheta [deg]","Phi [deg]","Theta [deg]","re(rEPhi) [mV]","im(rEPhi) [mV]","re(rETheta) [mV]","im(rETheta) [mV]"
0.7829,180,90,-135,54.736,2.82092274289411e-15,-9.28653062686682e-15,1.62102027839949e-15,-5.33029041205108e-15
"Freq [GHz]","IWavePhi [deg]","IWaveTheta [deg]","Phi [deg]","Theta [deg]","re(rEPhi) [mV]","im(rEPhi) [mV]","re(rETheta) [mV]","im(rETheta) [mV]"
0.7829,180,90,-45,125.264,-2.80481348956254e-15,9.28641177083688e-15,-1.61981770376186e-15,5.31921867519856e-15
"Freq [GHz]","IWavePhi [deg]","IWaveTheta [deg]","Phi [deg]","Theta [deg]","re(rEPhi) [mV]","im(rEPhi) [mV]","re(rETheta) [mV]","im(rETheta) [mV]"
0.7829,180,90,135,125.264,3.89939857207627e-15,-9.30874103942722e-15,2.25602345322963e-15,-5.34854509020362e-15
"Freq [GHz]","IWavePhi [deg]","IWaveTheta [deg]","Phi [deg]","Theta [deg]","re(rEPhi) [mV]","im(rEPhi) [mV]","re(rETheta) [mV]","im(rETheta) [mV]"
0.7829,180,90,-135,125.264,2.82088890637408e-15,-9.28791417492239e-15,-1.62279414925961e-15,5.31891972086421e-15
"Freq [GHz]","IWavePhi [deg]","IWaveTheta [deg]","Phi [deg]","Theta [deg]","re(rEPhi) [mV]","im(rEPhi) [mV]","re(rETheta) [mV]","im(rETheta) [mV]"
0.7829,180,90,0,90,1.72262309362581e-15,-4.79083040298892e-15,2.3855510511687e-19,1.56012074866643e-18
"Freq [GHz]","IWavePhi [deg]","IWaveTheta [deg]","Phi [deg]","Theta [deg]","re(rEPhi) [mV]","im(rEPhi) [mV]","re(rETheta) [mV]","im(rETheta) [mV]"
0.7829,180,90,180,90,-1.72205572221369e-15,4.79020187734516e-15,-8.800977237807e-19,2.09082637608221e-18
"Freq [GHz]","IWavePhi [deg]","IWaveTheta [deg]","Phi [deg]","Theta [deg]","re(rEPhi) [mV]","im(rEPhi) [mV]","re(rETheta) [mV]","im(rETheta) [mV]"
0.7829,180,90,90,90,4.52052661161957e-19,-1.9530414586834e-18,-1.32367733502974e-18,-6.21635372566018e-19
"Freq [GHz]","IWavePhi [deg]","IWaveTheta [deg]","Phi [deg]","Theta [deg]","re(rEPhi) [mV]","im(rEPhi) [mV]","re(rETheta) [mV]","im(rETheta) [mV]"
0.7829,180,90,-90,90,-2.0162148923512e-18,9.37939278346292e-19,2.00200703686427e-19,7.29061373272894e-19
"Freq [GHz]","IWavePhi [deg]","IWaveTheta [deg]","Phi [deg]","Theta [deg]","re(rEPhi) [mV]","im(rEPhi) [mV]","re(rETheta) [mV]","im(rETheta) [mV]"
0.7829,180,90,0,0,1.57103185903679e-15,-4.34253010907824e-15,-1.16947985567322e-18,1.7680988221942e-18
"Freq [GHz]","IWavePhi [deg]","IWaveTheta [deg]","Phi [deg]","Theta [deg]","re(rEPhi) [mV]","im(rEPhi) [mV]","re(rETheta) [mV]","im(rETheta) [mV]"
0.7829,180,90,0,180,1.57819316935952e-15,-4.33863266525651e-15,3.76188833483125e-18,-1.98445029247514e-18
"Freq [GHz]","IWavePhi [deg]","IWaveTheta [deg]","Phi [deg]","Theta [deg]","re(rEPhi) [mV]","im(rEPhi) [mV]","re(rETheta) [mV]","im(rETheta) [mV]"
0.7829,180,90,45,54.736,9.50583045964959e-16,-3.09037274782399e-15,5.43314126107169e-16,-1.77312430933976e-15
"Freq [GHz]","IWavePhi [deg]","IWaveTheta [deg]","Phi [deg]","Theta [deg]","re(rEPhi) [mV]","im(rEPhi) [mV]","re(rETheta) [mV]","im(rETheta) [mV]"
0.7829,180,90,135,54.736,-9.49607117559986e-16,3.08558809222219e-15,5.43431843696591e-16,-1.77134589445424e-15
"Freq [GHz]","IWavePhi [deg]","IWaveTheta [deg]","Phi [deg]","Theta [deg]","re(rEPhi) [mV]","im(rEPhi) [mV]","re(rETheta) [mV]","im(rETheta) [mV]"
0.7829,180,90,-45,54.736,1.30197701621912e-15,-3.10100055256783e-15,-7.56391046736037e-16,1.77903881578669e-15
"Freq [GHz]","IWavePhi [deg]","IWaveTheta [deg]","Phi [deg]","Theta [deg]","re(rEPhi) [mV]","im(rEPhi) [mV]","re(rETheta) [mV]","im(rETheta) [mV]"
0.7829,180,90,45,125.264,9.48733868714659e-16,-3.09133744938069e-15,-5.4336450112763e-16,1.77579455573488e-15
"Freq [GHz]","IWavePhi [deg]","IWaveTheta [deg]","Phi [deg]","Theta [deg]","re(rEPhi) [mV]","im(rEPhi) [mV]","re(rETheta) [mV]","im(rETheta) [mV]"
0.7829,180,90,-135,54.736,-1.29836924584368e-15,3.10052973085702e-15,-7.52759299315812e-16,1.7796647972554e-15
"Freq [GHz]","IWavePhi [deg]","IWaveTheta [deg]","Phi [deg]","Theta [deg]","re(rEPhi) [mV]","im(rEPhi) [mV]","re(rETheta) [mV]","im(rETheta) [mV]"
0.7829,180,90,-45,125.264,1.29333920159738e-15,-3.10049976333374e-15,7.51251247460999e-16,-1.77651892401772e-15
"Freq [GHz]","IWavePhi [deg]","IWaveTheta [deg]","Phi [deg]","Theta [deg]","re(rEPhi) [mV]","im(rEPhi) [mV]","re(rETheta) [mV]","im(rETheta) [mV]"
0.7829,180,90,135,125.264,-9.4871361840448e-16,3.09579106428349e-15,-5.43438884375474e-16,1.7780538823581e-15
"Freq [GHz]","IWavePhi [deg]","IWaveTheta [deg]","Phi [deg]","Theta [deg]","re(rEPhi) [mV]","im(rEPhi) [mV]","re(rETheta) [mV]","im(rETheta) [mV]"
0.7829,180,90,-135,125.264,-1.29917733970855e-15,3.10054219203726e-15,7.52470781853195e-16,-1.77649588327652e-15
"Freq [GHz]","IWavePhi [deg]","IWaveTheta [deg]","Phi [deg]","Theta [deg]","re(rEPhi) [mV]","im(rEPhi) [mV]","re(rETheta) [mV]","im(rETheta) [mV]"
0.7829,180,90,0,90,-30.9063878492749,84.9048833297346,0.00863276660020563,-0.0307749136001549
"Freq [GHz]","IWavePhi [deg]","IWaveTheta [deg]","Phi [deg]","Theta [deg]","re(rEPhi) [mV]","im(rEPhi) [mV]","re(rETheta) [mV]","im(rETheta) [mV]"
0.7829,180,90,180,90,30.8928323853484,-84.887702911047,0.0332301969081129,-0.0394925206571564
"Freq [GHz]","IWavePhi [deg]","IWaveTheta [deg]","Phi [deg]","Theta [deg]","re(rEPhi) [mV]","im(rEPhi) [mV]","re(rETheta) [mV]","im(rETheta) [mV]"
0.7829,180,90,90,90,-0.00776831629643883,0.0363642892687023,9.71946230012583,0.484988334101398
"Freq [GHz]","IWavePhi [deg]","IWaveTheta [deg]","Phi [deg]","Theta [deg]","re(rEPhi) [mV]","im(rEPhi) [mV]","re(rETheta) [mV]","im(rETheta) [mV]"
0.7829,180,90,-90,90,0.0327546887677788,-0.0141478404168075,-9.70675246348791,-0.499342697987593
"Freq [GHz]","IWavePhi [deg]","IWaveTheta [deg]","Phi [deg]","Theta [deg]","re(rEPhi) [mV]","im(rEPhi) [mV]","re(rETheta) [mV]","im(rETheta) [mV]"
0.7829,180,90,0,0,-19.7271841102795,77.8479734321348,0.01786432960163,-0.0301170696443437
"Freq [GHz]","IWavePhi [deg]","IWaveTheta [deg]","Phi [deg]","Theta [deg]","re(rEPhi) [mV]","im(rEPhi) [mV]","re(rETheta) [mV]","im(rETheta) [mV]"
0.7829,180,90,0,180,-35.6096364061739,75.9953014632287,-0.0640429680942054,0.0376897563443041
"Freq [GHz]","IWavePhi [deg]","IWaveTheta [deg]","Phi [deg]","Theta [deg]","re(rEPhi) [mV]","im(rEPhi) [mV]","re(rETheta) [mV]","im(rETheta) [mV]"
0.7829,180,90,45,54.736,-16.9030097861768,55.17308940124,-4.35904030548552,31.9176275191127
"Freq [GHz]","IWavePhi [deg]","IWaveTheta [deg]","Phi [deg]","Theta [deg]","re(rEPhi) [mV]","im(rEPhi) [mV]","re(rETheta) [mV]","im(rETheta) [mV]"
0.7829,180,90,135,54.736,16.8850422881082,-55.0915411693621,-4.35924167496342,31.8883525069988
"Freq [GHz]","IWavePhi [deg]","IWaveTheta [deg]","Phi [deg]","Theta [deg]","re(rEPhi) [mV]","im(rEPhi) [mV]","re(rETheta) [mV]","im(rETheta) [mV]"
0.7829,180,90,-45,54.736,-16.8405006416325,55.2571584160833,4.41979368118488,-31.9692300405348
"Freq [GHz]","IWavePhi [deg]","IWaveTheta [deg]","Phi [deg]","Theta [deg]","re(rEPhi) [mV]","im(rEPhi) [mV]","re(rETheta) [mV]","im(rETheta) [mV]"
0.7829,180,90,45,125.264,-23.0675730243553,54.4861640080065,18.3079235731178,-31.0404224086875
"Freq [GHz]","IWavePhi [deg]","IWaveTheta [deg]","Phi [deg]","Theta [deg]","re(rEPhi) [mV]","im(rEPhi) [mV]","re(rETheta) [mV]","im(rETheta) [mV]"
0.7829,180,90,-135,54.736,16.7772794924098,-55.2370840042666,4.352290570704,-31.9729564469306
"Freq [GHz]","IWavePhi [deg]","IWaveTheta [deg]","Phi [deg]","Theta [deg]","re(rEPhi) [mV]","im(rEPhi) [mV]","re(rETheta) [mV]","im(rETheta) [mV]"
0.7829,180,90,-45,125.264,-22.8765422592369,54.5434395445312,-18.2651891679503,30.97872909835
"Freq [GHz]","IWavePhi [deg]","IWaveTheta [deg]","Phi [deg]","Theta [deg]","re(rEPhi) [mV]","im(rEPhi) [mV]","re(rETheta) [mV]","im(rETheta) [mV]"
0.7829,180,90,135,125.264,23.0626203018247,-54.560144203511,18.3111882739879,-31.0747715141346
"Freq [GHz]","IWavePhi [deg]","IWaveTheta [deg]","Phi [deg]","Theta [deg]","re(rEPhi) [mV]","im(rEPhi) [mV]","re(rETheta) [mV]","im(rETheta) [mV]"
0.7829,180,90,-135,125.264,22.9768478124628,-54.5452016425575,-18.2903525088562,30.9802159596192
"Freq [GHz]","IWavePhi [deg]","IWaveTheta [deg]","Phi [deg]","Theta [deg]","re(rEPhi) [mV]","im(rEPhi) [mV]","re(rETheta) [mV]","im(rETheta) [mV]"
0.7829,180,90,0,90,-30.8338261094067,84.9273137503024,-0.00923737132427193,-0.0378448342674269
"Freq [GHz]","IWavePhi [deg]","IWaveTheta [deg]","Phi [deg]","Theta [deg]","re(rEPhi) [mV]","im(rEPhi) [mV]","re(rETheta) [mV]","im(rETheta) [mV]"
0.7829,180,90,180,90,30.8286256193113,-84.9210172149115,0.010297417862652,-0.0466701839960707
"Freq [GHz]","IWavePhi [deg]","IWaveTheta [deg]","Phi [deg]","Theta [deg]","re(rEPhi) [mV]","im(rEPhi) [mV]","re(rETheta) [mV]","im(rETheta) [mV]"
0.7829,180,90,90,90,-0.00371625898324587,0.0341550791137037,-9.64519825108977,-0.463945896285302
"Freq [GHz]","IWavePhi [deg]","IWaveTheta [deg]","Phi [deg]","Theta [deg]","re(rEPhi) [mV]","im(rEPhi) [mV]","re(rETheta) [mV]","im(rETheta) [mV]"
0.7829,180,90,-90,90,0.0340739507497241,-0.020132276705393,9.68778921167145,0.45716569110233
"Freq [GHz]","IWavePhi [deg]","IWaveTheta [deg]","Phi [deg]","Theta [deg]","re(rEPhi) [mV]","im(rEPhi) [mV]","re(rETheta) [mV]","im(rETheta) [mV]"
0.7829,180,90,0,0,-35.4379385093067,76.0942322688252,0.0222203357038915,-0.0320266098116557
"Freq [GHz]","IWavePhi [deg]","IWaveTheta [deg]","Phi [deg]","Theta [deg]","re(rEPhi) [mV]","im(rEPhi) [mV]","re(rETheta) [mV]","im(rETheta) [mV]"
0.7829,180,90,0,180,-19.785286880198,77.8046253109003,-0.0671386475474252,0.0354831830047919
"Freq [GHz]","IWavePhi [deg]","IWaveTheta [deg]","Phi [deg]","Theta [deg]","re(rEPhi) [mV]","im(rEPhi) [mV]","re(rETheta) [mV]","im(rETheta) [mV]"
0.7829,180,90,45,54.736,-23.0524292170756,54.4783755824201,-18.2646382140905,31.0007532602458
"Freq [GHz]","IWavePhi [deg]","IWaveTheta [deg]","Phi [deg]","Theta [deg]","re(rEPhi) [mV]","im(rEPhi) [mV]","re(rETheta) [mV]","im(rETheta) [mV]"
0.7829,180,90,135,54.736,23.0447977419974,-54.4007205733999,-18.2717455678943,30.9661757276005
"Freq [GHz]","IWavePhi [deg]","IWaveTheta [deg]","Phi [deg]","Theta [deg]","re(rEPhi) [mV]","im(rEPhi) [mV]","re(rETheta) [mV]","im(rETheta) [mV]"
0.7829,180,90,-45,54.736,-22.9979485945049,54.569250450382,18.3254533032841,-31.0476948357368
"Freq [GHz]","IWavePhi [deg]","IWaveTheta [deg]","Phi [deg]","Theta [deg]","re(rEPhi) [mV]","im(rEPhi) [mV]","re(rETheta) [mV]","im(rETheta) [mV]"
0.7829,180,90,45,125.264,-16.8235929433911,55.2015462686585,4.34701004050485,-31.97787760526
"Freq [GHz]","IWavePhi [deg]","IWaveTheta [deg]","Phi [deg]","Theta [deg]","re(rEPhi) [mV]","im(rEPhi) [mV]","re(rETheta) [mV]","im(rETheta) [mV]"
0.7829,180,90,-135,54.736,22.9364923997857,-54.5688503939298,18.2660964997747,-31.0604938557298
