"Freq [GHz]","IWavePhi [deg]","IWaveTheta [deg]","Phi [deg]","Theta [deg]","re(rEPhi) [mV]","im(rEPhi) [mV]","re(rETheta) [mV]","im(rETheta) [mV]"
0.7829,180,90,0,90,-33.3104389249319,94.1508880199962,0.00880112779463891,-0.0163742160535471
"Freq [GHz]","IWavePhi [deg]","IWaveTheta [deg]","Phi [deg]","Theta [deg]","re(rEPhi) [mV]","im(rEPhi) [mV]","re(rETheta) [mV]","im(rETheta) [mV]"
0.7829,180,90,180,90,33.3183687926962,-94.2062106729976,-0.00167031421602572,0.000554231464499449
"Freq [GHz]","IWavePhi [deg]","IWaveTheta [deg]","Phi [deg]","Theta [deg]","re(rEPhi) [mV]","im(rEPhi) [mV]","re(rETheta) [mV]","im(rETheta) [mV]"
0.7829,180,90,90,90,0.00108017279113988,0.00740831366596681,0.0354689032114011,0.0023946046773672
"Freq [GHz]","IWavePhi [deg]","IWaveTheta [deg]","Phi [deg]","Theta [deg]","re(rEPhi) [mV]","im(rEPhi) [mV]","re(rETheta) [mV]","im(rETheta) [mV]"
0.7829,180,90,-90,90,0.00656467183643464,-0.00264895471803028,-0.0180582717219608,-0.0407106871927789
"Freq [GHz]","IWavePhi [deg]","IWaveTheta [deg]","Phi [deg]","Theta [deg]","re(rEPhi) [mV]","im(rEPhi) [mV]","re(rETheta) [mV]","im(rETheta) [mV]"
0.7829,180,90,0,0,-30.4901137499788,85.262352649298,-0.00498690037530282,0.00416104949531281
"Freq [GHz]","IWavePhi [deg]","IWaveTheta [deg]","Phi [deg]","Theta [deg]","re(rEPhi) [mV]","im(rEPhi) [mV]","re(rETheta) [mV]","im(rETheta) [mV]"
0.7829,180,90,0,180,-30.4686579139563,85.2796070961619,-0.0173829303125994,0.00168869677886833
"Freq [GHz]","IWavePhi [deg]","IWaveTheta [deg]","Phi [deg]","Theta [deg]","re(rEPhi) [mV]","im(rEPhi) [mV]","re(rETheta) [mV]","im(rETheta) [mV]"
0.7829,180,90,45,54.736,-21.7012096234941,60.8349830678111,-12.5027057620965,34.9389108866564
"Freq [GHz]","IWavePhi [deg]","IWaveTheta [deg]","Phi [deg]","Theta [deg]","re(rEPhi) [mV]","im(rEPhi) [mV]","re(rETheta) [mV]","im(rETheta) [mV]"
0.7829,180,90,135,54.736,21.7015299402336,-60.8334610623683,-12.5011336148142,34.9287202571014
"Freq [GHz]","IWavePhi [deg]","IWaveTheta [deg]","Phi [deg]","Theta [deg]","re(rEPhi) [mV]","im(rEPhi) [mV]","re(rETheta) [mV]","im(rETheta) [mV]"
0.7829,180,90,-45,54.736,-21.6747756385658,60.8510590724748,12.4923976688386,-34.9390130064475
"Freq [GHz]","IWavePhi [deg]","IWaveTheta [deg]","Phi [deg]","Theta [deg]","re(rEPhi) [mV]","im(rEPhi) [mV]","re(rETheta) [mV]","im(rETheta) [mV]"
0.7829,180,90,45,125.264,-21.6449739586862,60.860449980119,12.5156573230045,-34.9352998233788
"Freq [GHz]","IWavePhi [deg]","IWaveTheta [deg]","Phi [deg]","Theta [deg]","re(rEPhi) [mV]","im(rEPhi) [mV]","re(rETheta) [mV]","im(rETheta) [mV]"
0.7829,180,90,-135,54.736,21.6461807804565,-60.8443235402825,12.4742009580499,-34.9523099152759
"Freq [GHz]","IWavePhi [deg]","IWaveTheta [deg]","Phi [deg]","Theta [deg]","re(rEPhi) [mV]","im(rEPhi) [mV]","re(rETheta) [mV]","im(rETheta) [mV]"
0.7829,180,90,-45,125.264,-21.6069503524447,60.829070979047,-12.4662247277206,34.9099691400099
"Freq [GHz]","IWavePhi [deg]","IWaveTheta [deg]","Phi [deg]","Theta [deg]","re(rEPhi) [mV]","im(rEPhi) [mV]","re(rETheta) [mV]","im(rETheta) [mV]"
0.7829,180,90,135,125.264,21.6611231054711,-60.8400215196849,12.5166265197394,-34.9308165766252
"Freq [GHz]","IWavePhi [deg]","IWaveTheta [deg]","Phi [deg]","Theta [deg]","re(rEPhi) [mV]","im(rEPhi) [mV]","re(rETheta) [mV]","im(rETheta) [mV]"
0.7829,180,90,-135,125.264,21.6133718692374,-60.8285392007327,-12.4737585750198,34.9061983362058
"Freq [GHz]","IWavePhi [deg]","IWaveTheta [deg]","Phi [deg]","Theta [deg]","re(rEPhi) [mV]","im(rEPhi) [mV]","re(rETheta) [mV]","im(rETheta) [mV]"
0.7829,180,90,0,90,33.3104389249319,-94.1508880199962,-0.008801127794378,0.0163742160497886
"Freq [GHz]","IWavePhi [deg]","IWaveTheta [deg]","Phi [deg]","Theta [deg]","re(rEPhi) [mV]","im(rEPhi) [mV]","re(rETheta) [mV]","im(rETheta) [mV]"
0.7829,180,90,180,90,-33.3183687926962,94.2062106729976,0.00167031421652896,-0.000554231460765303
"Freq [GHz]","IWavePhi [deg]","IWaveTheta [deg]","Phi [deg]","Theta [deg]","re(rEPhi) [mV]","im(rEPhi) [mV]","re(rETheta) [mV]","im(rETheta) [mV]"
0.7829,180,90,90,90,-0.00108017279095074,-0.00740831366604722,-0.0354689032148793,-0.00239460467862744
"Freq [GHz]","IWavePhi [deg]","IWaveTheta [deg]","Phi [deg]","Theta [deg]","re(rEPhi) [mV]","im(rEPhi) [mV]","re(rETheta) [mV]","im(rETheta) [mV]"
0.7829,180,90,-90,90,-0.00656467183666568,0.00264895471791193,0.0180582717182914,0.040710687193893
"Freq [GHz]","IWavePhi [deg]","IWaveTheta [deg]","Phi [deg]","Theta [deg]","re(rEPhi) [mV]","im(rEPhi) [mV]","re(rETheta) [mV]","im(rETheta) [mV]"
0.7829,180,90,0,0,30.4901137499788,-85.262352649298,0.0049869003753552,-0.00416104949508616
"Freq [GHz]","IWavePhi [deg]","IWaveTheta [deg]","Phi [deg]","Theta [deg]","re(rEPhi) [mV]","im(rEPhi) [mV]","re(rETheta) [mV]","im(rETheta) [mV]"
0.7829,180,90,0,180,30.4686579139563,-85.2796070961619,0.0173829303126047,-0.00168869677863573
"Freq [GHz]","IWavePhi [deg]","IWaveTheta [deg]","Phi [deg]","Theta [deg]","re(rEPhi) [mV]","im(rEPhi) [mV]","re(rETheta) [mV]","im(rETheta) [mV]"
0.7829,180,90,45,54.736,21.701209623494,-60.8349830678112,12.5027057620966,-34.9389108866594
"Freq [GHz]","IWavePhi [deg]","IWaveTheta [deg]","Phi [deg]","Theta [deg]","re(rEPhi) [mV]","im(rEPhi) [mV]","re(rETheta) [mV]","im(rETheta) [mV]"
0.7829,180,90,135,54.736,-21.7015299402335,60.8334610623685,12.5011336148118,-34.9287202571029
"Freq [GHz]","IWavePhi [deg]","IWaveTheta [deg]","Phi [deg]","Theta [deg]","re(rEPhi) [mV]","im(rEPhi) [mV]","re(rETheta) [mV]","im(rETheta) [mV]"
0.7829,180,90,-45,54.736,21.6747756385659,-60.8510590724747,-12.4923976688398,34.9390130064447
"Freq [GHz]","IWavePhi [deg]","IWaveTheta [deg]","Phi [deg]","Theta [deg]","re(rEPhi) [mV]","im(rEPhi) [mV]","re(rETheta) [mV]","im(rETheta) [mV]"
0.7829,180,90,45,125.264,21.6449739586861,-60.8604499801192,-12.5156573230075,34.9352998233795
"Freq [GHz]","IWavePhi [deg]","IWaveTheta [deg]","Phi [deg]","Theta [deg]","re(rEPhi) [mV]","im(rEPhi) [mV]","re(rETheta) [mV]","im(rETheta) [mV]"
0.7829,180,90,-135,54.736,-21.6461807804565,60.8443235402824,-12.474200958053,34.9523099152754
"Freq [GHz]","IWavePhi [deg]","IWaveTheta [deg]","Phi [deg]","Theta [deg]","re(rEPhi) [mV]","im(rEPhi) [mV]","re(rETheta) [mV]","im(rETheta) [mV]"
0.7829,180,90,-45,125.264,21.6069503524447,-60.8290709790468,12.466224727718,-34.9099691400082
"Freq [GHz]","IWavePhi [deg]","IWaveTheta [deg]","Phi [deg]","Theta [deg]","re(rEPhi) [mV]","im(rEPhi) [mV]","re(rETheta) [mV]","im(rETheta) [mV]"
0.7829,180,90,135,125.264,-21.6611231054712,60.840021519685,-12.5166265197404,34.930816576628
"Freq [GHz]","IWavePhi [deg]","IWaveTheta [deg]","Phi [deg]","Theta [deg]","re(rEPhi) [mV]","im(rEPhi) [mV]","re(rETheta) [mV]","im(rETheta) [mV]"
0.7829,180,90,-135,125.264,-21.6133718692372,60.8285392007326,12.4737585750198,-34.9061983362026
"Freq [GHz]","IWavePhi [deg]","IWaveTheta [deg]","Phi [deg]","Theta [deg]","re(rEPhi) [mV]","im(rEPhi) [mV]","re(rETheta) [mV]","im(rETheta) [mV]"
0.7829,180,90,0,90,-3.38964477979653e-15,9.60928551244895e-15,-2.48645914003085e-15,4.2888158763552e-16
"Freq [GHz]","IWavePhi [deg]","IWaveTheta [deg]","Phi [deg]","Theta [deg]","re(rEPhi) [mV]","im(rEPhi) [mV]","re(rETheta) [mV]","im(rETheta) [mV]"
0.7829,180,90,180,90,3.39032333993896e-15,-9.6151538609396e-15,-2.48717887247982e-15,4.31244468190756e-16
"Freq [GHz]","IWavePhi [deg]","IWaveTheta [deg]","Phi [deg]","Theta [deg]","re(rEPhi) [mV]","im(rEPhi) [mV]","re(rETheta) [mV]","im(rETheta) [mV]"
0.7829,180,90,90,90,2.20859545195474e-19,9.89431349258886e-19,-1.1418907555113e-15,3.51482842172092e-16
"Freq [GHz]","IWavePhi [deg]","IWaveTheta [deg]","Phi [deg]","Theta [deg]","re(rEPhi) [mV]","im(rEPhi) [mV]","re(rETheta) [mV]","im(rETheta) [mV]"
0.7829,180,90,-90,90,4.34981505519814e-19,-1.42616864778373e-19,-1.55672505761352e-15,2.00479896579102e-16
"Freq [GHz]","IWavePhi [deg]","IWaveTheta [deg]","Phi [deg]","Theta [deg]","re(rEPhi) [mV]","im(rEPhi) [mV]","re(rETheta) [mV]","im(rETheta) [mV]"
0.7829,180,90,0,0,-1.52581568301837e-15,8.78945875148469e-15,-6.75564937416394e-19,6.07978606535183e-20
"Freq [GHz]","IWavePhi [deg]","IWaveTheta [deg]","Phi [deg]","Theta [deg]","re(rEPhi) [mV]","im(rEPhi) [mV]","re(rETheta) [mV]","im(rETheta) [mV]"
0.7829,180,90,0,180,-4.67603700849108e-15,8.61744535766584e-15,-1.9478066215389e-18,-2.25122111607369e-20
"Freq [GHz]","IWavePhi [deg]","IWaveTheta [deg]","Phi [deg]","Theta [deg]","re(rEPhi) [mV]","im(rEPhi) [mV]","re(rETheta) [mV]","im(rETheta) [mV]"
0.7829,180,90,45,54.736,-1.8223503750527e-15,6.23786370396354e-15,-2.62119227943337e-15,3.92192275259554e-15
"Freq [GHz]","IWavePhi [deg]","IWaveTheta [deg]","Phi [deg]","Theta [deg]","re(rEPhi) [mV]","im(rEPhi) [mV]","re(rETheta) [mV]","im(rETheta) [mV]"
0.7829,180,90,135,54.736,1.82245739748046e-15,-6.23807025768208e-15,-2.62062020373015e-15,3.9210871743236e-15
"Freq [GHz]","IWavePhi [deg]","IWaveTheta [deg]","Phi [deg]","Theta [deg]","re(rEPhi) [mV]","im(rEPhi) [mV]","re(rETheta) [mV]","im(rETheta) [mV]"
0.7829,180,90,-45,54.736,-1.36354498586183e-15,6.24697715063847e-15,-1.00410653433645e-15,-3.32339475591522e-15
"Freq [GHz]","IWavePhi [deg]","IWaveTheta [deg]","Phi [deg]","Theta [deg]","re(rEPhi) [mV]","im(rEPhi) [mV]","re(rETheta) [mV]","im(rETheta) [mV]"
0.7829,180,90,45,125.264,-3.3355373697856e-15,6.19439456606251e-15,3.65781072767608e-16,-3.21525792387241e-15
"Freq [GHz]","IWavePhi [deg]","IWaveTheta [deg]","Phi [deg]","Theta [deg]","re(rEPhi) [mV]","im(rEPhi) [mV]","re(rETheta) [mV]","im(rETheta) [mV]"
0.7829,180,90,-135,54.736,1.36106705680114e-15,-6.24622382090008e-15,-1.00584316733617e-15,-3.32448795003423e-15
"Freq [GHz]","IWavePhi [deg]","IWaveTheta [deg]","Phi [deg]","Theta [deg]","re(rEPhi) [mV]","im(rEPhi) [mV]","re(rETheta) [mV]","im(rETheta) [mV]"
0.7829,180,90,-45,125.264,-2.33921217549625e-15,6.16065600635471e-15,-3.13024074779782e-15,3.79975973517137e-15
"Freq [GHz]","IWavePhi [deg]","IWaveTheta [deg]","Phi [deg]","Theta [deg]","re(rEPhi) [mV]","im(rEPhi) [mV]","re(rETheta) [mV]","im(rETheta) [mV]"
0.7829,180,90,135,125.264,3.33667282705408e-15,-6.19245526975488e-15,3.65943482423567e-16,-3.21497670404762e-15
"Freq [GHz]","IWavePhi [deg]","IWaveTheta [deg]","Phi [deg]","Theta [deg]","re(rEPhi) [mV]","im(rEPhi) [mV]","re(rETheta) [mV]","im(rETheta) [mV]"
0.7829,180,90,-135,125.264,2.34035745402543e-15,-6.16055329533399e-15,-3.13075010914094e-15,3.79913892346377e-15
"Freq [GHz]","IWavePhi [deg]","IWaveTheta [deg]","Phi [deg]","Theta [deg]","re(rEPhi) [mV]","im(rEPhi) [mV]","re(rETheta) [mV]","im(rETheta) [mV]"
0.7829,180,90,0,90,-5.04019891825039e-18,5.01967999733997e-19,2.48868754604129e-15,-4.27472798856217e-16
"Freq [GHz]","IWavePhi [deg]","IWaveTheta [deg]","Phi [deg]","Theta [deg]","re(rEPhi) [mV]","im(rEPhi) [mV]","re(rETheta) [mV]","im(rETheta) [mV]"
0.7829,180,90,180,90,5.01078627806927e-18,-4.04370533434279e-19,2.48754988662264e-15,-4.27874483005077e-16
"Freq [GHz]","IWavePhi [deg]","IWaveTheta [deg]","Phi [deg]","Theta [deg]","re(rEPhi) [mV]","im(rEPhi) [mV]","re(rETheta) [mV]","im(rETheta) [mV]"
0.7829,180,90,90,90,-2.41562084728064e-19,-1.41216119984307e-19,1.55688525971213e-15,-2.00493179467155e-16
"Freq [GHz]","IWavePhi [deg]","IWaveTheta [deg]","Phi [deg]","Theta [deg]","re(rEPhi) [mV]","im(rEPhi) [mV]","re(rETheta) [mV]","im(rETheta) [mV]"
0.7829,180,90,-90,90,9.88151585701881e-20,-1.13598018654428e-19,1.14431031570306e-15,-3.50178598016383e-16
"Freq [GHz]","IWavePhi [deg]","IWaveTheta [deg]","Phi [deg]","Theta [deg]","re(rEPhi) [mV]","im(rEPhi) [mV]","re(rETheta) [mV]","im(rETheta) [mV]"
0.7829,180,90,0,0,1.5717041997842e-15,8.82141670384117e-17,-1.34261818949781e-19,3.90030737798126e-19
"Freq [GHz]","IWavePhi [deg]","IWaveTheta [deg]","Phi [deg]","Theta [deg]","re(rEPhi) [mV]","im(rEPhi) [mV]","re(rETheta) [mV]","im(rETheta) [mV]"
0.7829,180,90,0,180,-1.58096957418243e-15,-8.59224878093047e-17,1.83454105072359e-19,1.29529419190494e-19
"Freq [GHz]","IWavePhi [deg]","IWaveTheta [deg]","Phi [deg]","Theta [deg]","re(rEPhi) [mV]","im(rEPhi) [mV]","re(rETheta) [mV]","im(rETheta) [mV]"
0.7829,180,90,45,54.736,4.8738245382035e-16,4.25440463515722e-17,2.06706470967824e-15,-2.3438603750305e-16
"Freq [GHz]","IWavePhi [deg]","IWaveTheta [deg]","Phi [deg]","Theta [deg]","re(rEPhi) [mV]","im(rEPhi) [mV]","re(rETheta) [mV]","im(rETheta) [mV]"
0.7829,180,90,135,54.736,-4.87339863017691e-16,-4.3311025120388e-17,2.06688736362615e-15,-2.34327081111799e-16
"Freq [GHz]","IWavePhi [deg]","IWaveTheta [deg]","Phi [deg]","Theta [deg]","re(rEPhi) [mV]","im(rEPhi) [mV]","re(rETheta) [mV]","im(rETheta) [mV]"
0.7829,180,90,-45,54.736,7.56011219074097e-16,2.42404159160652e-17,1.13055855158663e-15,-3.51796349816631e-16
"Freq [GHz]","IWavePhi [deg]","IWaveTheta [deg]","Phi [deg]","Theta [deg]","re(rEPhi) [mV]","im(rEPhi) [mV]","re(rETheta) [mV]","im(rETheta) [mV]"
0.7829,180,90,45,125.264,-4.95592996113002e-16,-4.20936794670545e-17,2.07247046230794e-15,-2.36344692009284e-16
"Freq [GHz]","IWavePhi [deg]","IWaveTheta [deg]","Phi [deg]","Theta [deg]","re(rEPhi) [mV]","im(rEPhi) [mV]","re(rETheta) [mV]","im(rETheta) [mV]"
0.7829,180,90,-135,54.736,-7.56477306403614e-16,-2.4225816615828e-17,1.13061465622785e-15,-3.52248927085606e-16
"Freq [GHz]","IWavePhi [deg]","IWaveTheta [deg]","Phi [deg]","Theta [deg]","re(rEPhi) [mV]","im(rEPhi) [mV]","re(rETheta) [mV]","im(rETheta) [mV]"
0.7829,180,90,-45,125.264,-7.62199834082041e-16,-2.22008211826737e-17,1.12676087463833e-15,-3.53005835111325e-16
"Freq [GHz]","IWavePhi [deg]","IWaveTheta [deg]","Phi [deg]","Theta [deg]","re(rEPhi) [mV]","im(rEPhi) [mV]","re(rETheta) [mV]","im(rETheta) [mV]"
0.7829,180,90,135,125.264,4.95629534154507e-16,4.1477101485791e-17,2.071709805457e-15,-2.36254927310889e-16
"Freq [GHz]","IWavePhi [deg]","IWaveTheta [deg]","Phi [deg]","Theta [deg]","re(rEPhi) [mV]","im(rEPhi) [mV]","re(rETheta) [mV]","im(rETheta) [mV]"
0.7829,180,90,-135,125.264,7.61705158892717e-16,2.23861337777145e-17,1.12656402140937e-15,-3.52986545262777e-16
"Freq [GHz]","IWavePhi [deg]","IWaveTheta [deg]","Phi [deg]","Theta [deg]","re(rEPhi) [mV]","im(rEPhi) [mV]","re(rETheta) [mV]","im(rETheta) [mV]"
0.7829,180,90,0,90,-30.4326676540086,85.2600676418202,0.00710305587352394,-0.0182471397189123
"Freq [GHz]","IWavePhi [deg]","IWaveTheta [deg]","Phi [deg]","Theta [deg]","re(rEPhi) [mV]","im(rEPhi) [mV]","re(rETheta) [mV]","im(rETheta) [mV]"
0.7829,180,90,180,90,30.4388643571813,-85.3108302974619,-0.00548692173394038,-0.00187449772197583
"Freq [GHz]","IWavePhi [deg]","IWaveTheta [deg]","Phi [deg]","Theta [deg]","re(rEPhi) [mV]","im(rEPhi) [mV]","re(rETheta) [mV]","im(rETheta) [mV]"
0.7829,180,90,90,90,0.000638660155443667,0.00638458588621717,9.83946336142496,0.551569021979713
"Freq [GHz]","IWavePhi [deg]","IWaveTheta [deg]","Phi [deg]","Theta [deg]","re(rEPhi) [mV]","im(rEPhi) [mV]","re(rETheta) [mV]","im(rETheta) [mV]"
0.7829,180,90,-90,90,0.00640413700661201,-0.00115989918880746,-9.82591562803802,-0.578945309416046
"Freq [GHz]","IWavePhi [deg]","IWaveTheta [deg]","Phi [deg]","Theta [deg]","re(rEPhi) [mV]","im(rEPhi) [mV]","re(rETheta) [mV]","im(rETheta) [mV]"
0.7829,180,90,0,0,-19.3628067953881,78.1662731036022,-0.00507440586115923,0.00386034125006707
"Freq [GHz]","IWavePhi [deg]","IWaveTheta [deg]","Phi [deg]","Theta [deg]","re(rEPhi) [mV]","im(rEPhi) [mV]","re(rETheta) [mV]","im(rETheta) [mV]"
0.7829,180,90,0,180,-35.1727703351821,76.2767084971923,-0.0157068025827738,0.00173294560984597
"Freq [GHz]","IWavePhi [deg]","IWaveTheta [deg]","Phi [deg]","Theta [deg]","re(rEPhi) [mV]","im(rEPhi) [mV]","re(rETheta) [mV]","im(rETheta) [mV]"
0.7829,180,90,45,54.736,-16.5963069508693,55.4564175807488,-4.17306082392833,32.1291123382906
"Freq [GHz]","IWavePhi [deg]","IWaveTheta [deg]","Phi [deg]","Theta [deg]","re(rEPhi) [mV]","im(rEPhi) [mV]","re(rETheta) [mV]","im(rETheta) [mV]"
0.7829,180,90,135,54.736,16.595107711739,-55.4579075160784,-4.17095918439832,32.1179722092241
"Freq [GHz]","IWavePhi [deg]","IWaveTheta [deg]","Phi [deg]","Theta [deg]","re(rEPhi) [mV]","im(rEPhi) [mV]","re(rETheta) [mV]","im(rETheta) [mV]"
0.7829,180,90,-45,54.736,-16.5717952489206,55.4734226694961,4.16436131635645,-32.1272585766659
"Freq [GHz]","IWavePhi [deg]","IWaveTheta [deg]","Phi [deg]","Theta [deg]","re(rEPhi) [mV]","im(rEPhi) [mV]","re(rETheta) [mV]","im(rETheta) [mV]"
0.7829,180,90,45,125.264,-22.7458538116474,54.7467980401435,18.2185836551248,-31.1519787359397
"Freq [GHz]","IWavePhi [deg]","IWaveTheta [deg]","Phi [deg]","Theta [deg]","re(rEPhi) [mV]","im(rEPhi) [mV]","re(rETheta) [mV]","im(rETheta) [mV]"
0.7829,180,90,-135,54.736,16.5464877487143,-55.4664479961677,4.14815645069087,-32.1421980418496
"Freq [GHz]","IWavePhi [deg]","IWaveTheta [deg]","Phi [deg]","Theta [deg]","re(rEPhi) [mV]","im(rEPhi) [mV]","re(rETheta) [mV]","im(rETheta) [mV]"
0.7829,180,90,-45,125.264,-22.7102737190428,54.7218808044651,-18.1725818587341,31.1288287747993
"Freq [GHz]","IWavePhi [deg]","IWaveTheta [deg]","Phi [deg]","Theta [deg]","re(rEPhi) [mV]","im(rEPhi) [mV]","re(rETheta) [mV]","im(rETheta) [mV]"
0.7829,180,90,135,125.264,22.759041024498,-54.7311404559075,18.2168762645492,-31.1482813772342
"Freq [GHz]","IWavePhi [deg]","IWaveTheta [deg]","Phi [deg]","Theta [deg]","re(rEPhi) [mV]","im(rEPhi) [mV]","re(rETheta) [mV]","im(rETheta) [mV]"
0.7829,180,90,-135,125.264,22.7151592595053,-54.7212622960836,-18.1788239647015,31.1238209143659
"Freq [GHz]","IWavePhi [deg]","IWaveTheta [deg]","Phi [deg]","Theta [deg]","re(rEPhi) [mV]","im(rEPhi) [mV]","re(rETheta) [mV]","im(rETheta) [mV]"
0.7829,180,90,0,90,-30.4935924430605,85.2554263579671,0.00847663198205272,-0.0114725942827566
"Freq [GHz]","IWavePhi [deg]","IWaveTheta [deg]","Phi [deg]","Theta [deg]","re(rEPhi) [mV]","im(rEPhi) [mV]","re(rETheta) [mV]","im(rETheta) [mV]"
0.7829,180,90,180,90,30.5016057796998,-85.3049383990327,0.00222858214669439,0.00268941504189488
"Freq [GHz]","IWavePhi [deg]","IWaveTheta [deg]","Phi [deg]","Theta [deg]","re(rEPhi) [mV]","im(rEPhi) [mV]","re(rETheta) [mV]","im(rETheta) [mV]"
0.7829,180,90,90,90,0.00127272658441491,0.00698740223459253,-9.77345591338774,-0.552246902764331
"Freq [GHz]","IWavePhi [deg]","IWaveTheta [deg]","Phi [deg]","Theta [deg]","re(rEPhi) [mV]","im(rEPhi) [mV]","re(rETheta) [mV]","im(rETheta) [mV]"
0.7829,180,90,-90,90,0.00543103389479715,-0.00369460276909095,9.79459968014928,0.51018171774588
"Freq [GHz]","IWavePhi [deg]","IWaveTheta [deg]","Phi [deg]","Theta [deg]","re(rEPhi) [mV]","im(rEPhi) [mV]","re(rETheta) [mV]","im(rETheta) [mV]"
0.7829,180,90,0,0,-35.2473230588891,76.2512822868678,-0.00398099995761295,0.00368558749029139
"Freq [GHz]","IWavePhi [deg]","IWaveTheta [deg]","Phi [deg]","Theta [deg]","re(rEPhi) [mV]","im(rEPhi) [mV]","re(rETheta) [mV]","im(rETheta) [mV]"
0.7829,180,90,0,180,-19.3992509155551,78.1751146493818,-0.0158197228486195,0.00130765059602696
"Freq [GHz]","IWavePhi [deg]","IWaveTheta [deg]","Phi [deg]","Theta [deg]","re(rEPhi) [mV]","im(rEPhi) [mV]","re(rETheta) [mV]","im(rETheta) [mV]"
0.7829,180,90,45,54.736,-22.8315006397556,54.7209233984125,-18.2260439268475,31.1461861537028
"Freq [GHz]","IWavePhi [deg]","IWaveTheta [deg]","Phi [deg]","Theta [deg]","re(rEPhi) [mV]","im(rEPhi) [mV]","re(rETheta) [mV]","im(rETheta) [mV]"
0.7829,180,90,135,54.736,22.8333225957697,-54.7165748456877,-18.2253082887925,31.1387580008222
"Freq [GHz]","IWavePhi [deg]","IWaveTheta [deg]","Phi [deg]","Theta [deg]","re(rEPhi) [mV]","im(rEPhi) [mV]","re(rETheta) [mV]","im(rETheta) [mV]"
0.7829,180,90,-45,54.736,-22.8089391278324,54.7325768386716,18.217043740606,-31.1477946377118
"Freq [GHz]","IWavePhi [deg]","IWaveTheta [deg]","Phi [deg]","Theta [deg]","re(rEPhi) [mV]","im(rEPhi) [mV]","re(rETheta) [mV]","im(rETheta) [mV]"
0.7829,180,90,45,125.264,-16.5811172956304,55.4781493817213,4.20525419784583,-32.1227759441533
"Freq [GHz]","IWavePhi [deg]","IWaveTheta [deg]","Phi [deg]","Theta [deg]","re(rEPhi) [mV]","im(rEPhi) [mV]","re(rETheta) [mV]","im(rETheta) [mV]"
