"Freq [GHz]","IWavePhi [deg]","IWaveTheta [deg]","Phi [deg]","Theta [deg]","re(rEPhi) [mV]","im(rEPhi) [mV]","re(rETheta) [mV]","im(rETheta) [mV]"
0.9965,180,90,0,90,20.4913434852094,86.3201846436248,-0.0175425861561563,-0.0193285988640836
"Freq [GHz]","IWavePhi [deg]","IWaveTheta [deg]","Phi [deg]","Theta [deg]","re(rEPhi) [mV]","im(rEPhi) [mV]","re(rETheta) [mV]","im(rETheta) [mV]"
0.9965,180,90,180,90,-20.5175728234119,-86.3274642961099,0.00729952416835662,-0.0265936382732209
"Freq [GHz]","IWavePhi [deg]","IWaveTheta [deg]","Phi [deg]","Theta [deg]","re(rEPhi) [mV]","im(rEPhi) [mV]","re(rETheta) [mV]","im(rETheta) [mV]"
0.9965,180,90,90,90,-0.00510327319263611,-0.0142332883787633,0.000630304656801387,-0.0109233214005478
"Freq [GHz]","IWavePhi [deg]","IWaveTheta [deg]","Phi [deg]","Theta [deg]","re(rEPhi) [mV]","im(rEPhi) [mV]","re(rETheta) [mV]","im(rETheta) [mV]"
0.9965,180,90,-90,90,-0.0101676171425094,-0.0032299199361949,-0.016264980630902,0.00704208407849056
"Freq [GHz]","IWavePhi [deg]","IWaveTheta [deg]","Phi [deg]","Theta [deg]","re(rEPhi) [mV]","im(rEPhi) [mV]","re(rETheta) [mV]","im(rETheta) [mV]"
0.9965,180,90,0,0,16.681338288062,73.6533378582216,0.00673505971438929,-0.0145942887460081
"Freq [GHz]","IWavePhi [deg]","IWaveTheta [deg]","Phi [deg]","Theta [deg]","re(rEPhi) [mV]","im(rEPhi) [mV]","re(rETheta) [mV]","im(rETheta) [mV]"
0.9965,180,90,0,180,16.7225719259683,73.7321852113737,0.0134563026949539,0.00153465624282631
"Freq [GHz]","IWavePhi [deg]","IWaveTheta [deg]","Phi [deg]","Theta [deg]","re(rEPhi) [mV]","im(rEPhi) [mV]","re(rETheta) [mV]","im(rETheta) [mV]"
0.9965,180,90,45,54.736,12.5447090943925,52.5844786966819,7.06553046055806,30.1193631300006
"Freq [GHz]","IWavePhi [deg]","IWaveTheta [deg]","Phi [deg]","Theta [deg]","re(rEPhi) [mV]","im(rEPhi) [mV]","re(rETheta) [mV]","im(rETheta) [mV]"
0.9965,180,90,135,54.736,-12.5541409314974,-52.5992092199958,7.03149399876623,30.130944146088
"Freq [GHz]","IWavePhi [deg]","IWaveTheta [deg]","Phi [deg]","Theta [deg]","re(rEPhi) [mV]","im(rEPhi) [mV]","re(rETheta) [mV]","im(rETheta) [mV]"
0.9965,180,90,-45,54.736,12.5850901245016,52.6150851908855,-7.04531664275306,-30.1548734261549
"Freq [GHz]","IWavePhi [deg]","IWaveTheta [deg]","Phi [deg]","Theta [deg]","re(rEPhi) [mV]","im(rEPhi) [mV]","re(rETheta) [mV]","im(rETheta) [mV]"
0.9965,180,90,45,125.264,12.5982223935835,52.60227254682,-7.07766732049025,-30.1550510609302
"Freq [GHz]","IWavePhi [deg]","IWaveTheta [deg]","Phi [deg]","Theta [deg]","re(rEPhi) [mV]","im(rEPhi) [mV]","re(rETheta) [mV]","im(rETheta) [mV]"
0.9965,180,90,-135,54.736,-12.5738079970492,-52.6180455932822,-7.06007514714828,-30.1450014500528
"Freq [GHz]","IWavePhi [deg]","IWaveTheta [deg]","Phi [deg]","Theta [deg]","re(rEPhi) [mV]","im(rEPhi) [mV]","re(rETheta) [mV]","im(rETheta) [mV]"
0.9965,180,90,-45,125.264,12.6055731958543,52.5972625087142,7.06251872905723,30.1076038285706
"Freq [GHz]","IWavePhi [deg]","IWaveTheta [deg]","Phi [deg]","Theta [deg]","re(rEPhi) [mV]","im(rEPhi) [mV]","re(rETheta) [mV]","im(rETheta) [mV]"
0.9965,180,90,135,125.264,-12.6033707621487,-52.6178392418008,-7.07623952660855,-30.1511042826929
"Freq [GHz]","IWavePhi [deg]","IWaveTheta [deg]","Phi [deg]","Theta [deg]","re(rEPhi) [mV]","im(rEPhi) [mV]","re(rETheta) [mV]","im(rETheta) [mV]"
0.9965,180,90,-135,125.264,-12.6114157575792,-52.5829792088716,7.04379156445915,30.110221758539
"Freq [GHz]","IWavePhi [deg]","IWaveTheta [deg]","Phi [deg]","Theta [deg]","re(rEPhi) [mV]","im(rEPhi) [mV]","re(rETheta) [mV]","im(rETheta) [mV]"
0.9965,180,90,0,90,-20.4913434852094,-86.3201846436248,0.0175425861581818,0.0193285988635122
"Freq [GHz]","IWavePhi [deg]","IWaveTheta [deg]","Phi [deg]","Theta [deg]","re(rEPhi) [mV]","im(rEPhi) [mV]","re(rETheta) [mV]","im(rETheta) [mV]"
0.9965,180,90,180,90,20.5175728234119,86.3274642961099,-0.00729952416598889,0.0265936382745712
"Freq [GHz]","IWavePhi [deg]","IWaveTheta [deg]","Phi [deg]","Theta [deg]","re(rEPhi) [mV]","im(rEPhi) [mV]","re(rETheta) [mV]","im(rETheta) [mV]"
0.9965,180,90,90,90,0.00510327318147462,0.0142332883981239,-0.000630304658638991,0.0109233214016968
"Freq [GHz]","IWavePhi [deg]","IWaveTheta [deg]","Phi [deg]","Theta [deg]","re(rEPhi) [mV]","im(rEPhi) [mV]","re(rETheta) [mV]","im(rETheta) [mV]"
0.9965,180,90,-90,90,0.0101676171536766,0.00322991995555623,0.0162649806290527,-0.00704208407888428
"Freq [GHz]","IWavePhi [deg]","IWaveTheta [deg]","Phi [deg]","Theta [deg]","re(rEPhi) [mV]","im(rEPhi) [mV]","re(rETheta) [mV]","im(rETheta) [mV]"
0.9965,180,90,0,0,-16.681338288062,-73.6533378582216,-0.00673505969240165,0.0145942887373138
"Freq [GHz]","IWavePhi [deg]","IWaveTheta [deg]","Phi [deg]","Theta [deg]","re(rEPhi) [mV]","im(rEPhi) [mV]","re(rETheta) [mV]","im(rETheta) [mV]"
0.9965,180,90,0,180,-16.7225719259683,-73.7321852113737,-0.0134563027169437,-0.00153465625152277
"Freq [GHz]","IWavePhi [deg]","IWaveTheta [deg]","Phi [deg]","Theta [deg]","re(rEPhi) [mV]","im(rEPhi) [mV]","re(rETheta) [mV]","im(rETheta) [mV]"
0.9965,180,90,45,54.736,-12.5447090943851,-52.584478696678,-7.06553046056098,-30.1193631300038
"Freq [GHz]","IWavePhi [deg]","IWaveTheta [deg]","Phi [deg]","Theta [deg]","re(rEPhi) [mV]","im(rEPhi) [mV]","re(rETheta) [mV]","im(rETheta) [mV]"
0.9965,180,90,135,54.736,12.5541409315096,52.5992092199916,-7.0314939987587,-30.1309441460918
"Freq [GHz]","IWavePhi [deg]","IWaveTheta [deg]","Phi [deg]","Theta [deg]","re(rEPhi) [mV]","im(rEPhi) [mV]","re(rETheta) [mV]","im(rETheta) [mV]"
0.9965,180,90,-45,54.736,-12.5850901245104,-52.6150851908941,7.04531664274735,30.154873426151
"Freq [GHz]","IWavePhi [deg]","IWaveTheta [deg]","Phi [deg]","Theta [deg]","re(rEPhi) [mV]","im(rEPhi) [mV]","re(rETheta) [mV]","im(rETheta) [mV]"
0.9965,180,90,45,125.264,-12.5982223935751,-52.6022725468193,7.07766732049495,30.1550510609299
"Freq [GHz]","IWavePhi [deg]","IWaveTheta [deg]","Phi [deg]","Theta [deg]","re(rEPhi) [mV]","im(rEPhi) [mV]","re(rETheta) [mV]","im(rETheta) [mV]"
0.9965,180,90,-135,54.736,12.5738079970408,52.6180455932829,7.06007514715274,30.1450014500536
"Freq [GHz]","IWavePhi [deg]","IWaveTheta [deg]","Phi [deg]","Theta [deg]","re(rEPhi) [mV]","im(rEPhi) [mV]","re(rETheta) [mV]","im(rETheta) [mV]"
0.9965,180,90,-45,125.264,-12.6055731958665,-52.5972625087184,-7.06251872904945,-30.1076038285662
"Freq [GHz]","IWavePhi [deg]","IWaveTheta [deg]","Phi [deg]","Theta [deg]","re(rEPhi) [mV]","im(rEPhi) [mV]","re(rETheta) [mV]","im(rETheta) [mV]"
0.9965,180,90,135,125.264,12.6033707621575,52.6178392417922,7.07623952660277,30.1511042826975
"Freq [GHz]","IWavePhi [deg]","IWaveTheta [deg]","Phi [deg]","Theta [deg]","re(rEPhi) [mV]","im(rEPhi) [mV]","re(rETheta) [mV]","im(rETheta) [mV]"
0.9965,180,90,-135,125.264,12.6114157575718,52.5829792088755,-7.04379156446215,-30.1102217585352
"Freq [GHz]","IWavePhi [deg]","IWaveTheta [deg]","Phi [deg]","Theta [deg]","re(rEPhi) [mV]","im(rEPhi) [mV]","re(rETheta) [mV]","im(rETheta) [mV]"
0.9965,180,90,0,90,1.91961462463418e-15,7.92182870330404e-15,-3.25583605521566e-15,1.02316928284909e-15
"Freq [GHz]","IWavePhi [deg]","IWaveTheta [deg]","Phi [deg]","Theta [deg]","re(rEPhi) [mV]","im(rEPhi) [mV]","re(rETheta) [mV]","im(rETheta) [mV]"
0.9965,180,90,180,90,-1.92200099767198e-15,-7.92195933657564e-15,-3.25462688162288e-15,1.02035038210342e-15
"Freq [GHz]","IWavePhi [deg]","IWaveTheta [deg]","Phi [deg]","Theta [deg]","re(rEPhi) [mV]","im(rEPhi) [mV]","re(rETheta) [mV]","im(rETheta) [mV]"
0.9965,180,90,90,90,2.44510932614171e-20,-1.42224693906537e-18,-1.74276912281155e-15,6.92342792207445e-16
"Freq [GHz]","IWavePhi [deg]","IWaveTheta [deg]","Phi [deg]","Theta [deg]","re(rEPhi) [mV]","im(rEPhi) [mV]","re(rETheta) [mV]","im(rETheta) [mV]"
0.9965,180,90,-90,90,-8.4967292077146e-19,-4.84006057871379e-20,-3.39047179186121e-16,3.01149855630444e-16
"Freq [GHz]","IWavePhi [deg]","IWaveTheta [deg]","Phi [deg]","Theta [deg]","re(rEPhi) [mV]","im(rEPhi) [mV]","re(rETheta) [mV]","im(rETheta) [mV]"
0.9965,180,90,0,0,4.02947279267823e-15,6.86191577612061e-15,6.19738224410974e-19,-5.54190536839276e-19
"Freq [GHz]","IWavePhi [deg]","IWaveTheta [deg]","Phi [deg]","Theta [deg]","re(rEPhi) [mV]","im(rEPhi) [mV]","re(rETheta) [mV]","im(rETheta) [mV]"
0.9965,180,90,0,180,-8.89338112952053e-16,6.66248836571722e-15,7.40317760389273e-19,4.48184839579567e-19
"Freq [GHz]","IWavePhi [deg]","IWaveTheta [deg]","Phi [deg]","Theta [deg]","re(rEPhi) [mV]","im(rEPhi) [mV]","re(rETheta) [mV]","im(rETheta) [mV]"
0.9965,180,90,45,54.736,1.47371919844028e-15,4.89297880668411e-15,-1.51395033642956e-15,3.5829227423514e-15
"Freq [GHz]","IWavePhi [deg]","IWaveTheta [deg]","Phi [deg]","Theta [deg]","re(rEPhi) [mV]","im(rEPhi) [mV]","re(rETheta) [mV]","im(rETheta) [mV]"
0.9965,180,90,135,54.736,-1.47492396739283e-15,-4.89431468288607e-15,-1.51646005075471e-15,3.58368737787977e-15
"Freq [GHz]","IWavePhi [deg]","IWaveTheta [deg]","Phi [deg]","Theta [deg]","re(rEPhi) [mV]","im(rEPhi) [mV]","re(rETheta) [mV]","im(rETheta) [mV]"
0.9965,180,90,-45,54.736,2.74274577354987e-15,4.84690712278434e-15,-3.08735535293317e-15,-2.22208493679376e-15
"Freq [GHz]","IWavePhi [deg]","IWaveTheta [deg]","Phi [deg]","Theta [deg]","re(rEPhi) [mV]","im(rEPhi) [mV]","re(rETheta) [mV]","im(rETheta) [mV]"
0.9965,180,90,45,125.264,-1.08399714416863e-15,4.86871096112501e-15,-1.67287314971235e-15,-2.01591328966347e-15
"Freq [GHz]","IWavePhi [deg]","IWaveTheta [deg]","Phi [deg]","Theta [deg]","re(rEPhi) [mV]","im(rEPhi) [mV]","re(rETheta) [mV]","im(rETheta) [mV]"
0.9965,180,90,-135,54.736,-2.74236919092863e-15,-4.84725326701949e-15,-3.08964503275964e-15,-2.22114571757601e-15
"Freq [GHz]","IWavePhi [deg]","IWaveTheta [deg]","Phi [deg]","Theta [deg]","re(rEPhi) [mV]","im(rEPhi) [mV]","re(rETheta) [mV]","im(rETheta) [mV]"
0.9965,180,90,-45,125.264,1.40496583130348e-15,4.70110018762664e-15,-7.11165549906989e-16,3.2405553576849e-15
"Freq [GHz]","IWavePhi [deg]","IWaveTheta [deg]","Phi [deg]","Theta [deg]","re(rEPhi) [mV]","im(rEPhi) [mV]","re(rETheta) [mV]","im(rETheta) [mV]"
0.9965,180,90,135,125.264,1.08325452737991e-15,-4.87032591068426e-15,-1.67299844729152e-15,-2.01599055073727e-15
"Freq [GHz]","IWavePhi [deg]","IWaveTheta [deg]","Phi [deg]","Theta [deg]","re(rEPhi) [mV]","im(rEPhi) [mV]","re(rETheta) [mV]","im(rETheta) [mV]"
0.9965,180,90,-135,125.264,-1.40649372415606e-15,-4.70060041587921e-15,-7.11792763462902e-16,3.24024101681075e-15
"Freq [GHz]","IWavePhi [deg]","IWaveTheta [deg]","Phi [deg]","Theta [deg]","re(rEPhi) [mV]","im(rEPhi) [mV]","re(rETheta) [mV]","im(rETheta) [mV]"
0.9965,180,90,0,90,-7.07114900338979e-19,1.40218353445926e-18,3.25592825447421e-15,-1.01704574099701e-15
"Freq [GHz]","IWavePhi [deg]","IWaveTheta [deg]","Phi [deg]","Theta [deg]","re(rEPhi) [mV]","im(rEPhi) [mV]","re(rETheta) [mV]","im(rETheta) [mV]"
0.9965,180,90,180,90,4.73773026622682e-19,-4.89676448097105e-19,3.25733779002941e-15,-1.01521733409313e-15
"Freq [GHz]","IWavePhi [deg]","IWaveTheta [deg]","Phi [deg]","Theta [deg]","re(rEPhi) [mV]","im(rEPhi) [mV]","re(rETheta) [mV]","im(rETheta) [mV]"
0.9965,180,90,90,90,-2.26801197214869e-19,9.28576022277923e-19,3.37708952469957e-16,-2.90132283723948e-16
"Freq [GHz]","IWavePhi [deg]","IWaveTheta [deg]","Phi [deg]","Theta [deg]","re(rEPhi) [mV]","im(rEPhi) [mV]","re(rETheta) [mV]","im(rETheta) [mV]"
0.9965,180,90,-90,90,-4.98677030646853e-20,-6.47454824498146e-19,1.74466294138138e-15,-6.9515702299691e-16
"Freq [GHz]","IWavePhi [deg]","IWaveTheta [deg]","Phi [deg]","Theta [deg]","re(rEPhi) [mV]","im(rEPhi) [mV]","re(rETheta) [mV]","im(rETheta) [mV]"
0.9965,180,90,0,0,2.46079725680647e-15,1.02273162209695e-16,-7.58946704862265e-20,-5.05447662808604e-19
"Freq [GHz]","IWavePhi [deg]","IWaveTheta [deg]","Phi [deg]","Theta [deg]","re(rEPhi) [mV]","im(rEPhi) [mV]","re(rETheta) [mV]","im(rETheta) [mV]"
0.9965,180,90,0,180,-2.46104686362782e-15,-1.02158493560465e-16,5.07003128867834e-19,-3.60008019338359e-19
"Freq [GHz]","IWavePhi [deg]","IWaveTheta [deg]","Phi [deg]","Theta [deg]","re(rEPhi) [mV]","im(rEPhi) [mV]","re(rETheta) [mV]","im(rETheta) [mV]"
0.9965,180,90,45,54.736,6.69572730361693e-16,7.34619175905118e-17,1.90203852113271e-15,-5.00530643400283e-16
"Freq [GHz]","IWavePhi [deg]","IWaveTheta [deg]","Phi [deg]","Theta [deg]","re(rEPhi) [mV]","im(rEPhi) [mV]","re(rETheta) [mV]","im(rETheta) [mV]"
0.9965,180,90,135,54.736,-6.70506690929913e-16,-7.38215776466028e-17,1.90198554541421e-15,-5.01415733778375e-16
"Freq [GHz]","IWavePhi [deg]","IWaveTheta [deg]","Phi [deg]","Theta [deg]","re(rEPhi) [mV]","im(rEPhi) [mV]","re(rETheta) [mV]","im(rETheta) [mV]"
0.9965,180,90,-45,54.736,1.27937359805835e-15,1.35700287330978e-17,1.59577817300388e-15,-7.83529830625585e-16
"Freq [GHz]","IWavePhi [deg]","IWaveTheta [deg]","Phi [deg]","Theta [deg]","re(rEPhi) [mV]","im(rEPhi) [mV]","re(rETheta) [mV]","im(rETheta) [mV]"
0.9965,180,90,45,125.264,-6.6930724116786e-16,-7.10180711482177e-17,1.90029556914166e-15,-5.03205160023728e-16
"Freq [GHz]","IWavePhi [deg]","IWaveTheta [deg]","Phi [deg]","Theta [deg]","re(rEPhi) [mV]","im(rEPhi) [mV]","re(rETheta) [mV]","im(rETheta) [mV]"
0.9965,180,90,-135,54.736,-1.28051806072007e-15,-1.33949765446245e-17,1.59626373326187e-15,-7.84538692925856e-16
"Freq [GHz]","IWavePhi [deg]","IWaveTheta [deg]","Phi [deg]","Theta [deg]","re(rEPhi) [mV]","im(rEPhi) [mV]","re(rETheta) [mV]","im(rETheta) [mV]"
0.9965,180,90,-45,125.264,-1.28222370342752e-15,-1.12354495992971e-17,1.59405970492374e-15,-7.82473975020417e-16
"Freq [GHz]","IWavePhi [deg]","IWaveTheta [deg]","Phi [deg]","Theta [deg]","re(rEPhi) [mV]","im(rEPhi) [mV]","re(rETheta) [mV]","im(rETheta) [mV]"
0.9965,180,90,135,125.264,6.6821090862227e-16,7.07512482790777e-17,1.90057512988358e-15,-5.03277869036719e-16
"Freq [GHz]","IWavePhi [deg]","IWaveTheta [deg]","Phi [deg]","Theta [deg]","re(rEPhi) [mV]","im(rEPhi) [mV]","re(rETheta) [mV]","im(rETheta) [mV]"
0.9965,180,90,-135,125.264,1.2807764540744e-15,1.1579839033273e-17,1.59428629248834e-15,-7.81993073916757e-16
"Freq [GHz]","IWavePhi [deg]","IWaveTheta [deg]","Phi [deg]","Theta [deg]","re(rEPhi) [mV]","im(rEPhi) [mV]","re(rETheta) [mV]","im(rETheta) [mV]"
0.9965,180,90,0,90,16.7399873395497,73.5986990882472,-0.0210378262374252,-0.024517694324413
"Freq [GHz]","IWavePhi [deg]","IWaveTheta [deg]","Phi [deg]","Theta [deg]","re(rEPhi) [mV]","im(rEPhi) [mV]","re(rETheta) [mV]","im(rETheta) [mV]"
0.9965,180,90,180,90,-16.7637759440205,-73.6010896821456,-0.00570992132527271,-0.0218109704537654
"Freq [GHz]","IWavePhi [deg]","IWaveTheta [deg]","Phi [deg]","Theta [deg]","re(rEPhi) [mV]","im(rEPhi) [mV]","re(rETheta) [mV]","im(rETheta) [mV]"
0.9965,180,90,90,90,-0.00354889373927022,-0.0097754240068216,15.315242309044,0.617266906857164
"Freq [GHz]","IWavePhi [deg]","IWaveTheta [deg]","Phi [deg]","Theta [deg]","re(rEPhi) [mV]","im(rEPhi) [mV]","re(rETheta) [mV]","im(rETheta) [mV]"
0.9965,180,90,-90,90,-0.00793602897929205,-0.00338281185309735,-15.3248569472491,-0.628424839064798
"Freq [GHz]","IWavePhi [deg]","IWaveTheta [deg]","Phi [deg]","Theta [deg]","re(rEPhi) [mV]","im(rEPhi) [mV]","re(rETheta) [mV]","im(rETheta) [mV]"
0.9965,180,90,0,0,25.2224106651529,65.4951656368366,0.0043521897573245,-0.0101668717171664
"Freq [GHz]","IWavePhi [deg]","IWaveTheta [deg]","Phi [deg]","Theta [deg]","re(rEPhi) [mV]","im(rEPhi) [mV]","re(rETheta) [mV]","im(rETheta) [mV]"
0.9965,180,90,0,180,4.81708812114992,60.1821410034395,0.0122685421033933,-0.00047068572691666
"Freq [GHz]","IWavePhi [deg]","IWaveTheta [deg]","Phi [deg]","Theta [deg]","re(rEPhi) [mV]","im(rEPhi) [mV]","re(rETheta) [mV]","im(rETheta) [mV]"
0.9965,180,90,45,54.736,14.4489961560224,45.9077842575823,17.4642168506921,26.7017018625687
"Freq [GHz]","IWavePhi [deg]","IWaveTheta [deg]","Phi [deg]","Theta [deg]","re(rEPhi) [mV]","im(rEPhi) [mV]","re(rETheta) [mV]","im(rETheta) [mV]"
0.9965,180,90,135,54.736,-14.4583440048528,-45.9180331426199,17.4274410869036,26.7177552168466
"Freq [GHz]","IWavePhi [deg]","IWaveTheta [deg]","Phi [deg]","Theta [deg]","re(rEPhi) [mV]","im(rEPhi) [mV]","re(rETheta) [mV]","im(rETheta) [mV]"
0.9965,180,90,-45,54.736,14.496807637663,45.9295274798779,-17.4571788891627,-26.7494370372542
"Freq [GHz]","IWavePhi [deg]","IWaveTheta [deg]","Phi [deg]","Theta [deg]","re(rEPhi) [mV]","im(rEPhi) [mV]","re(rETheta) [mV]","im(rETheta) [mV]"
0.9965,180,90,45,125.264,6.69962076976641,43.7904066713285,4.79904199086503,-24.6944350752139
"Freq [GHz]","IWavePhi [deg]","IWaveTheta [deg]","Phi [deg]","Theta [deg]","re(rEPhi) [mV]","im(rEPhi) [mV]","re(rETheta) [mV]","im(rETheta) [mV]"
0.9965,180,90,-135,54.736,-14.4895266458524,-45.9333443078166,-17.4782966009187,-26.7362431458094
"Freq [GHz]","IWavePhi [deg]","IWaveTheta [deg]","Phi [deg]","Theta [deg]","re(rEPhi) [mV]","im(rEPhi) [mV]","re(rETheta) [mV]","im(rETheta) [mV]"
0.9965,180,90,-45,125.264,6.72117539764676,43.7826293416631,-4.81661828924567,24.6423908684841
"Freq [GHz]","IWavePhi [deg]","IWaveTheta [deg]","Phi [deg]","Theta [deg]","re(rEPhi) [mV]","im(rEPhi) [mV]","re(rETheta) [mV]","im(rETheta) [mV]"
0.9965,180,90,135,125.264,-6.70375154973833,-43.8023929404236,4.79688574131493,-24.6917205428386
"Freq [GHz]","IWavePhi [deg]","IWaveTheta [deg]","Phi [deg]","Theta [deg]","re(rEPhi) [mV]","im(rEPhi) [mV]","re(rETheta) [mV]","im(rETheta) [mV]"
0.9965,180,90,-135,125.264,-6.72880739733345,-43.7703176825301,-4.83030719813081,24.6441634827191
"Freq [GHz]","IWavePhi [deg]","IWaveTheta [deg]","Phi [deg]","Theta [deg]","re(rEPhi) [mV]","im(rEPhi) [mV]","re(rETheta) [mV]","im(rETheta) [mV]"
0.9965,180,90,0,90,16.7210435916399,73.6025494159629,-0.00856351220268538,-0.00893615208704011
"Freq [GHz]","IWavePhi [deg]","IWaveTheta [deg]","Phi [deg]","Theta [deg]","re(rEPhi) [mV]","im(rEPhi) [mV]","re(rETheta) [mV]","im(rETheta) [mV]"
0.9965,180,90,180,90,-16.7421331258345,-73.6117181569878,0.0185001587756189,-0.0243051787893067
"Freq [GHz]","IWavePhi [deg]","IWaveTheta [deg]","Phi [deg]","Theta [deg]","re(rEPhi) [mV]","im(rEPhi) [mV]","re(rETheta) [mV]","im(rETheta) [mV]"
0.9965,180,90,90,90,-0.0050277999665382,-0.0145143269603512,-15.3123335949249,-0.63571282346764
"Freq [GHz]","IWavePhi [deg]","IWaveTheta [deg]","Phi [deg]","Theta [deg]","re(rEPhi) [mV]","im(rEPhi) [mV]","re(rETheta) [mV]","im(rETheta) [mV]"
0.9965,180,90,-90,90,-0.00952102982250111,-0.0018746922133324,15.2990443321587,0.639653956217476
"Freq [GHz]","IWavePhi [deg]","IWaveTheta [deg]","Phi [deg]","Theta [deg]","re(rEPhi) [mV]","im(rEPhi) [mV]","re(rETheta) [mV]","im(rETheta) [mV]"
0.9965,180,90,0,0,4.76042661042785,60.1267228434327,0.00720340622041418,-0.0146529757869549
"Freq [GHz]","IWavePhi [deg]","IWaveTheta [deg]","Phi [deg]","Theta [deg]","re(rEPhi) [mV]","im(rEPhi) [mV]","re(rETheta) [mV]","im(rETheta) [mV]"
0.9965,180,90,0,180,25.2359233298748,65.5747757047778,0.0107026804755292,0.00339024996679139
"Freq [GHz]","IWavePhi [deg]","IWaveTheta [deg]","Phi [deg]","Theta [deg]","re(rEPhi) [mV]","im(rEPhi) [mV]","re(rETheta) [mV]","im(rETheta) [mV]"
0.9965,180,90,45,54.736,6.65765969236532,43.7706514141553,-4.81219309021052,24.6651755166846
"Freq [GHz]","IWavePhi [deg]","IWaveTheta [deg]","Phi [deg]","Theta [deg]","re(rEPhi) [mV]","im(rEPhi) [mV]","re(rETheta) [mV]","im(rETheta) [mV]"
0.9965,180,90,135,54.736,-6.66418770488921,-43.7857341484626,-4.83315329192241,24.6687278207187
"Freq [GHz]","IWavePhi [deg]","IWaveTheta [deg]","Phi [deg]","Theta [deg]","re(rEPhi) [mV]","im(rEPhi) [mV]","re(rETheta) [mV]","im(rETheta) [mV]"
0.9965,180,90,-45,54.736,6.67742010669235,43.7984589927038,4.84181934593506,-24.6758782374474
"Freq [GHz]","IWavePhi [deg]","IWaveTheta [deg]","Phi [deg]","Theta [deg]","re(rEPhi) [mV]","im(rEPhi) [mV]","re(rETheta) [mV]","im(rETheta) [mV]"
0.9965,180,90,45,125.264,14.4978430029628,45.9191886327841,-17.4701070247724,-26.7336601654424
"Freq [GHz]","IWavePhi [deg]","IWaveTheta [deg]","Phi [deg]","Theta [deg]","re(rEPhi) [mV]","im(rEPhi) [mV]","re(rETheta) [mV]","im(rETheta) [mV]"
