"Freq [GHz]","IWavePhi [deg]","IWaveTheta [deg]","Phi [deg]","Theta [deg]","re(rEPhi) [mV]","im(rEPhi) [mV]","re(rETheta) [mV]","im(rETheta) [mV]"
1.1388,180,90,0,90,28.4108944248999,74.8585574742857,-0.0701217298817149,-0.0631767586941805
"Freq [GHz]","IWavePhi [deg]","IWaveTheta [deg]","Phi [deg]","Theta [deg]","re(rEPhi) [mV]","im(rEPhi) [mV]","re(rETheta) [mV]","im(rETheta) [mV]"
1.1388,180,90,180,90,-28.4063452776725,-74.8779654908064,-0.0612162740468123,-0.0775562291954695
"Freq [GHz]","IWavePhi [deg]","IWaveTheta [deg]","Phi [deg]","Theta [deg]","re(rEPhi) [mV]","im(rEPhi) [mV]","re(rETheta) [mV]","im(rETheta) [mV]"
1.1388,180,90,90,90,-0.00580818829306147,-0.00387104008567436,-0.000185959778420713,-0.0295565296805842
"Freq [GHz]","IWavePhi [deg]","IWaveTheta [deg]","Phi [deg]","Theta [deg]","re(rEPhi) [mV]","im(rEPhi) [mV]","re(rETheta) [mV]","im(rETheta) [mV]"
1.1388,180,90,-90,90,0.00324445330967902,0.0112184499202708,-0.0541979366096049,-0.00886127188215316
"Freq [GHz]","IWavePhi [deg]","IWaveTheta [deg]","Phi [deg]","Theta [deg]","re(rEPhi) [mV]","im(rEPhi) [mV]","re(rETheta) [mV]","im(rETheta) [mV]"
1.1388,180,90,0,0,21.9011191444494,60.9474232120546,-0.00519639380098261,-0.00302676775166909
"Freq [GHz]","IWavePhi [deg]","IWaveTheta [deg]","Phi [deg]","Theta [deg]","re(rEPhi) [mV]","im(rEPhi) [mV]","re(rETheta) [mV]","im(rETheta) [mV]"
1.1388,180,90,0,180,21.9596443735605,60.8854474171306,-0.00341332762987353,-0.0158573391169877
"Freq [GHz]","IWavePhi [deg]","IWaveTheta [deg]","Phi [deg]","Theta [deg]","re(rEPhi) [mV]","im(rEPhi) [mV]","re(rETheta) [mV]","im(rETheta) [mV]"
1.1388,180,90,0,90,-28.4108944248999,-74.8585574742857,0.0701217298814849,0.0631767586944981
"Freq [GHz]","IWavePhi [deg]","IWaveTheta [deg]","Phi [deg]","Theta [deg]","re(rEPhi) [mV]","im(rEPhi) [mV]","re(rETheta) [mV]","im(rETheta) [mV]"
1.1388,180,90,180,90,28.4063452776725,74.8779654908064,0.0612162740469022,0.0775562291958504
"Freq [GHz]","IWavePhi [deg]","IWaveTheta [deg]","Phi [deg]","Theta [deg]","re(rEPhi) [mV]","im(rEPhi) [mV]","re(rETheta) [mV]","im(rETheta) [mV]"
1.1388,180,90,90,90,0.00580818827915542,0.00387104008046448,0.000185959778752868,0.0295565296807115
"Freq [GHz]","IWavePhi [deg]","IWaveTheta [deg]","Phi [deg]","Theta [deg]","re(rEPhi) [mV]","im(rEPhi) [mV]","re(rETheta) [mV]","im(rETheta) [mV]"
1.1388,180,90,-90,90,-0.00324445331044177,-0.01121844991343,0.054197936609277,0.00886127188164267
"Freq [GHz]","IWavePhi [deg]","IWaveTheta [deg]","Phi [deg]","Theta [deg]","re(rEPhi) [mV]","im(rEPhi) [mV]","re(rETheta) [mV]","im(rETheta) [mV]"
1.1388,180,90,0,0,-21.9011191444494,-60.9474232120546,0.00519639379912785,0.003026767739663
"Freq [GHz]","IWavePhi [deg]","IWaveTheta [deg]","Phi [deg]","Theta [deg]","re(rEPhi) [mV]","im(rEPhi) [mV]","re(rETheta) [mV]","im(rETheta) [mV]"
1.1388,180,90,0,180,-21.9596443735605,-60.8854474171306,0.00341332764009395,0.0158573391235501
"Freq [GHz]","IWavePhi [deg]","IWaveTheta [deg]","Phi [deg]","Theta [deg]","re(rEPhi) [mV]","im(rEPhi) [mV]","re(rETheta) [mV]","im(rETheta) [mV]"
1.1388,180,90,0,90,2.4727718000478e-15,6.31318349480966e-15,-3.38208849736475e-15,1.4778771473639e-15
"Freq [GHz]","IWavePhi [deg]","IWaveTheta [deg]","Phi [deg]","Theta [deg]","re(rEPhi) [mV]","im(rEPhi) [mV]","re(rETheta) [mV]","im(rETheta) [mV]"
1.1388,180,90,180,90,-2.47189843700109e-15,-6.31304369950747e-15,-3.38340066935442e-15,1.47378346449929e-15
"Freq [GHz]","IWavePhi [deg]","IWaveTheta [deg]","Phi [deg]","Theta [deg]","re(rEPhi) [mV]","im(rEPhi) [mV]","re(rETheta) [mV]","im(rETheta) [mV]"
1.1388,180,90,90,90,-6.00312744022046e-20,-1.26296787611002e-18,-2.34017880175189e-15,1.02728790222871e-15
"Freq [GHz]","IWavePhi [deg]","IWaveTheta [deg]","Phi [deg]","Theta [deg]","re(rEPhi) [mV]","im(rEPhi) [mV]","re(rETheta) [mV]","im(rETheta) [mV]"
1.1388,180,90,-90,90,-2.64443925342207e-19,6.44538514697683e-19,1.3011451158497e-15,1.23846286514907e-16
"Freq [GHz]","IWavePhi [deg]","IWaveTheta [deg]","Phi [deg]","Theta [deg]","re(rEPhi) [mV]","im(rEPhi) [mV]","re(rETheta) [mV]","im(rETheta) [mV]"
1.1388,180,90,0,0,5.13169190271694e-15,5.1440572592877e-15,-1.68423426526825e-19,-5.22665625255672e-19
"Freq [GHz]","IWavePhi [deg]","IWaveTheta [deg]","Phi [deg]","Theta [deg]","re(rEPhi) [mV]","im(rEPhi) [mV]","re(rETheta) [mV]","im(rETheta) [mV]"
1.1388,180,90,0,180,-1.29597394453985e-15,5.12984479444181e-15,-8.74624394079196e-19,-1.28239129696776e-18
"Freq [GHz]","IWavePhi [deg]","IWaveTheta [deg]","Phi [deg]","Theta [deg]","re(rEPhi) [mV]","im(rEPhi) [mV]","re(rETheta) [mV]","im(rETheta) [mV]"
1.1388,180,90,0,90,2.59717608128605e-19,5.49089601019645e-18,3.3753043093295e-15,-1.48422070194386e-15
"Freq [GHz]","IWavePhi [deg]","IWaveTheta [deg]","Phi [deg]","Theta [deg]","re(rEPhi) [mV]","im(rEPhi) [mV]","re(rETheta) [mV]","im(rETheta) [mV]"
1.1388,180,90,180,90,5.39257598769082e-20,-4.25121390452203e-18,3.37675170305747e-15,-1.48525593475228e-15
"Freq [GHz]","IWavePhi [deg]","IWaveTheta [deg]","Phi [deg]","Theta [deg]","re(rEPhi) [mV]","im(rEPhi) [mV]","re(rETheta) [mV]","im(rETheta) [mV]"
1.1388,180,90,90,90,1.27117005813086e-18,7.76407710564305e-19,-1.30550443184954e-15,-1.18243103794452e-16
"Freq [GHz]","IWavePhi [deg]","IWaveTheta [deg]","Phi [deg]","Theta [deg]","re(rEPhi) [mV]","im(rEPhi) [mV]","re(rETheta) [mV]","im(rETheta) [mV]"
1.1388,180,90,-90,90,-1.16144989405524e-18,-5.90621590942419e-19,2.34130832045977e-15,-1.03115034908816e-15
"Freq [GHz]","IWavePhi [deg]","IWaveTheta [deg]","Phi [deg]","Theta [deg]","re(rEPhi) [mV]","im(rEPhi) [mV]","re(rETheta) [mV]","im(rETheta) [mV]"
1.1388,180,90,0,0,3.21643429630661e-15,2.01748149330556e-18,1.24404328988374e-19,1.84120398113903e-19
"Freq [GHz]","IWavePhi [deg]","IWaveTheta [deg]","Phi [deg]","Theta [deg]","re(rEPhi) [mV]","im(rEPhi) [mV]","re(rETheta) [mV]","im(rETheta) [mV]"
1.1388,180,90,0,180,-3.22237195831544e-15,5.42643460613945e-18,5.03073404138742e-19,5.10202322598594e-19
"Freq [GHz]","IWavePhi [deg]","IWaveTheta [deg]","Phi [deg]","Theta [deg]","re(rEPhi) [mV]","im(rEPhi) [mV]","re(rETheta) [mV]","im(rETheta) [mV]"
1.1388,180,90,0,90,21.8743994227265,60.7630138559493,-0.0634926616497117,-0.0734672995424763
"Freq [GHz]","IWavePhi [deg]","IWaveTheta [deg]","Phi [deg]","Theta [deg]","re(rEPhi) [mV]","im(rEPhi) [mV]","re(rETheta) [mV]","im(rETheta) [mV]"
1.1388,180,90,180,90,-21.8710507392627,-60.7713175046436,-0.0629547720387708,-0.0588926079165907
"Freq [GHz]","IWavePhi [deg]","IWaveTheta [deg]","Phi [deg]","Theta [deg]","re(rEPhi) [mV]","im(rEPhi) [mV]","re(rETheta) [mV]","im(rETheta) [mV]"
1.1388,180,90,90,90,-0.00465096258056863,0.00134008627088368,20.0196174226052,-0.0247039750451999
"Freq [GHz]","IWavePhi [deg]","IWaveTheta [deg]","Phi [deg]","Theta [deg]","re(rEPhi) [mV]","im(rEPhi) [mV]","re(rETheta) [mV]","im(rETheta) [mV]"
1.1388,180,90,-90,90,0.00489947851466754,0.00928462247198029,-20.0585925487249,-0.0572427322482765
"Freq [GHz]","IWavePhi [deg]","IWaveTheta [deg]","Phi [deg]","Theta [deg]","re(rEPhi) [mV]","im(rEPhi) [mV]","re(rETheta) [mV]","im(rETheta) [mV]"
1.1388,180,90,0,0,30.0700554275866,54.748965409033,-0.00172623275036846,0.00060384873219946
"Freq [GHz]","IWavePhi [deg]","IWaveTheta [deg]","Phi [deg]","Theta [deg]","re(rEPhi) [mV]","im(rEPhi) [mV]","re(rETheta) [mV]","im(rETheta) [mV]"
1.1388,180,90,0,180,8.14661808564807,44.1402462923954,-0.00432519408421311,-0.0152733042525498
"Freq [GHz]","IWavePhi [deg]","IWaveTheta [deg]","Phi [deg]","Theta [deg]","re(rEPhi) [mV]","im(rEPhi) [mV]","re(rETheta) [mV]","im(rETheta) [mV]"
1.1388,180,90,0,90,21.8038983956533,60.7931086472774,-0.0494688264909263,-0.0328265404476902
"Freq [GHz]","IWavePhi [deg]","IWaveTheta [deg]","Phi [deg]","Theta [deg]","re(rEPhi) [mV]","im(rEPhi) [mV]","re(rETheta) [mV]","im(rETheta) [mV]"
1.1388,180,90,180,90,-21.8002312003731,-60.8145024458628,-0.0357234837062279,-0.0715159202982109
"Freq [GHz]","IWavePhi [deg]","IWaveTheta [deg]","Phi [deg]","Theta [deg]","re(rEPhi) [mV]","im(rEPhi) [mV]","re(rETheta) [mV]","im(rETheta) [mV]"
1.1388,180,90,90,90,-0.00481509187533096,-0.00750943461011159,-20.0067592009549,-0.0334910989905388
"Freq [GHz]","IWavePhi [deg]","IWaveTheta [deg]","Phi [deg]","Theta [deg]","re(rEPhi) [mV]","im(rEPhi) [mV]","re(rETheta) [mV]","im(rETheta) [mV]"
1.1388,180,90,-90,90,0.000652639618994563,0.00928216757149135,19.9828951102311,0.0510584222574681
"Freq [GHz]","IWavePhi [deg]","IWaveTheta [deg]","Phi [deg]","Theta [deg]","re(rEPhi) [mV]","im(rEPhi) [mV]","re(rETheta) [mV]","im(rETheta) [mV]"
1.1388,180,90,0,0,8.06487899590112,44.2223330908947,-0.00697426078478999,-0.00553641993142477
"Freq [GHz]","IWavePhi [deg]","IWaveTheta [deg]","Phi [deg]","Theta [deg]","re(rEPhi) [mV]","im(rEPhi) [mV]","re(rETheta) [mV]","im(rETheta) [mV]"
1.1388,180,90,0,180,30.0760768426723,54.7502300701107,-0.00103592359742169,-0.00995541350028506
"Freq [GHz]","IWavePhi [deg]","IWaveTheta [deg]","Phi [deg]","Theta [deg]","re(rEPhi) [mV]","im(rEPhi) [mV]","re(rETheta) [mV]","im(rETheta) [mV]"
1.1388,180,90,0,90,0.0680793880391449,0.0456294699802668,46.3894678535598,-25.6146371350021
"Freq [GHz]","IWavePhi [deg]","IWaveTheta [deg]","Phi [deg]","Theta [deg]","re(rEPhi) [mV]","im(rEPhi) [mV]","re(rETheta) [mV]","im(rETheta) [mV]"
1.1388,180,90,180,90,-0.0609517014120159,-0.044021981842265,46.4301807878231,-25.5927443912487
"Freq [GHz]","IWavePhi [deg]","IWaveTheta [deg]","Phi [deg]","Theta [deg]","re(rEPhi) [mV]","im(rEPhi) [mV]","re(rETheta) [mV]","im(rETheta) [mV]"
1.1388,180,90,90,90,0.0109095060917982,0.0166798936972511,21.072219700138,-9.30382675372371
"Freq [GHz]","IWavePhi [deg]","IWaveTheta [deg]","Phi [deg]","Theta [deg]","re(rEPhi) [mV]","im(rEPhi) [mV]","re(rETheta) [mV]","im(rETheta) [mV]"
1.1388,180,90,-90,90,-0.0120770915559449,-0.00281691510207856,21.0252463329966,-9.31047587393499
"Freq [GHz]","IWavePhi [deg]","IWaveTheta [deg]","Phi [deg]","Theta [deg]","re(rEPhi) [mV]","im(rEPhi) [mV]","re(rETheta) [mV]","im(rETheta) [mV]"
1.1388,180,90,0,0,0.0521298953641514,0.022764916222231,0.0007733732989692,0.00821586807058633
"Freq [GHz]","IWavePhi [deg]","IWaveTheta [deg]","Phi [deg]","Theta [deg]","re(rEPhi) [mV]","im(rEPhi) [mV]","re(rETheta) [mV]","im(rETheta) [mV]"
1.1388,180,90,0,180,0.0569979079238265,0.0479982310972719,0.00491759285636235,0.00381633242466668
"Freq [GHz]","IWavePhi [deg]","IWaveTheta [deg]","Phi [deg]","Theta [deg]","re(rEPhi) [mV]","im(rEPhi) [mV]","re(rETheta) [mV]","im(rETheta) [mV]"
1.1388,180,90,0,90,0.0680793880385066,0.0456294699862192,46.3894678535598,-25.6146371350021
"Freq [GHz]","IWavePhi [deg]","IWaveTheta [deg]","Phi [deg]","Theta [deg]","re(rEPhi) [mV]","im(rEPhi) [mV]","re(rETheta) [mV]","im(rETheta) [mV]"
1.1388,180,90,180,90,-0.0609517014069744,-0.0440219818460784,46.4301807878231,-25.5927443912487
"Freq [GHz]","IWavePhi [deg]","IWaveTheta [deg]","Phi [deg]","Theta [deg]","re(rEPhi) [mV]","im(rEPhi) [mV]","re(rETheta) [mV]","im(rETheta) [mV]"
1.1388,180,90,90,90,0.0109095060908715,0.0166798936969247,21.072219700138,-9.30382675372371
"Freq [GHz]","IWavePhi [deg]","IWaveTheta [deg]","Phi [deg]","Theta [deg]","re(rEPhi) [mV]","im(rEPhi) [mV]","re(rETheta) [mV]","im(rETheta) [mV]"
1.1388,180,90,-90,90,-0.0120770915568707,-0.00281691510175273,21.0252463329966,-9.31047587393499
"Freq [GHz]","IWavePhi [deg]","IWaveTheta [deg]","Phi [deg]","Theta [deg]","re(rEPhi) [mV]","im(rEPhi) [mV]","re(rETheta) [mV]","im(rETheta) [mV]"
1.1388,180,90,0,0,0.0521298953636,0.0227649162165793,0.00077337329884441,0.0082158680724207
"Freq [GHz]","IWavePhi [deg]","IWaveTheta [deg]","Phi [deg]","Theta [deg]","re(rEPhi) [mV]","im(rEPhi) [mV]","re(rETheta) [mV]","im(rETheta) [mV]"
1.1388,180,90,0,180,0.0569979079290851,0.0479982310939229,0.00491759285623674,0.00381633242283396
"Freq [GHz]","IWavePhi [deg]","IWaveTheta [deg]","Phi [deg]","Theta [deg]","re(rEPhi) [mV]","im(rEPhi) [mV]","re(rETheta) [mV]","im(rETheta) [mV]"
1.1388,180,90,0,90,0.0592745230776554,0.0129535590052411,20.9800253542986,-9.23692123972124
"Freq [GHz]","IWavePhi [deg]","IWaveTheta [deg]","Phi [deg]","Theta [deg]","re(rEPhi) [mV]","im(rEPhi) [mV]","re(rETheta) [mV]","im(rETheta) [mV]"
1.1388,180,90,180,90,-0.0611995202934423,-0.0206847789522322,20.9893854738611,-9.21592465955342
"Freq [GHz]","IWavePhi [deg]","IWaveTheta [deg]","Phi [deg]","Theta [deg]","re(rEPhi) [mV]","im(rEPhi) [mV]","re(rETheta) [mV]","im(rETheta) [mV]"
1.1388,180,90,90,90,0.000781837770603524,0.00788351698341585,14.575068699319,-6.41892991099437
"Freq [GHz]","IWavePhi [deg]","IWaveTheta [deg]","Phi [deg]","Theta [deg]","re(rEPhi) [mV]","im(rEPhi) [mV]","re(rETheta) [mV]","im(rETheta) [mV]"
1.1388,180,90,-90,90,-0.00187502463169779,0.00168610668929751,-8.13992987534686,-0.766905382169235
"Freq [GHz]","IWavePhi [deg]","IWaveTheta [deg]","Phi [deg]","Theta [deg]","re(rEPhi) [mV]","im(rEPhi) [mV]","re(rETheta) [mV]","im(rETheta) [mV]"
1.1388,180,90,0,0,-19.9657693022686,-0.00430332790018571,-0.00075186914046907,0.00527950243166218
"Freq [GHz]","IWavePhi [deg]","IWaveTheta [deg]","Phi [deg]","Theta [deg]","re(rEPhi) [mV]","im(rEPhi) [mV]","re(rETheta) [mV]","im(rETheta) [mV]"
1.1388,180,90,0,180,20.0776768935347,0.0303947748947189,0.00252821568605366,0.00228269252825766
"Freq [GHz]","IWavePhi [deg]","IWaveTheta [deg]","Phi [deg]","Theta [deg]","re(rEPhi) [mV]","im(rEPhi) [mV]","re(rETheta) [mV]","im(rETheta) [mV]"
1.1388,180,90,0,90,0.00161501160814102,0.0341447360344125,20.9890975375875,-9.22952430757456
"Freq [GHz]","IWavePhi [deg]","IWaveTheta [deg]","Phi [deg]","Theta [deg]","re(rEPhi) [mV]","im(rEPhi) [mV]","re(rETheta) [mV]","im(rETheta) [mV]"
1.1388,180,90,180,90,0.000335318815604367,-0.0264358596058414,20.9980980428589,-9.23596181764887
"Freq [GHz]","IWavePhi [deg]","IWaveTheta [deg]","Phi [deg]","Theta [deg]","re(rEPhi) [mV]","im(rEPhi) [mV]","re(rETheta) [mV]","im(rETheta) [mV]"
1.1388,180,90,90,90,0.00790470104126943,0.00482804468778613,-8.1181894563871,-0.735286622829932
"Freq [GHz]","IWavePhi [deg]","IWaveTheta [deg]","Phi [deg]","Theta [deg]","re(rEPhi) [mV]","im(rEPhi) [mV]","re(rETheta) [mV]","im(rETheta) [mV]"
1.1388,180,90,-90,90,-0.00722241077656932,-0.00367274664089596,14.5592646269552,-6.41213746285347
"Freq [GHz]","IWavePhi [deg]","IWaveTheta [deg]","Phi [deg]","Theta [deg]","re(rEPhi) [mV]","im(rEPhi) [mV]","re(rETheta) [mV]","im(rETheta) [mV]"
1.1388,180,90,0,0,20.0011752698048,0.0125455573496448,0.000773608950451099,0.00114489309844858
"Freq [GHz]","IWavePhi [deg]","IWaveTheta [deg]","Phi [deg]","Theta [deg]","re(rEPhi) [mV]","im(rEPhi) [mV]","re(rETheta) [mV]","im(rETheta) [mV]"
1.1388,180,90,0,180,-20.0380981915712,0.0337438890863974,0.00312832147455847,0.00317265606698468
"Freq [GHz]","IWavePhi [deg]","IWaveTheta [deg]","Phi [deg]","Theta [deg]","re(rEPhi) [mV]","im(rEPhi) [mV]","re(rETheta) [mV]","im(rETheta) [mV]"
1.1388,180,90,0,90,1.33701631974043e-15,3.71922042894811e-15,-1.61349659821836e-15,8.85547411415461e-16
"Freq [GHz]","IWavePhi [deg]","IWaveTheta [deg]","Phi [deg]","Theta [deg]","re(rEPhi) [mV]","im(rEPhi) [mV]","re(rETheta) [mV]","im(rETheta) [mV]"
1.1388,180,90,180,90,-1.33703309712823e-15,-3.71975510406054e-15,-1.61490259285559e-15,8.85673333801174e-16
"Freq [GHz]","IWavePhi [deg]","IWaveTheta [deg]","Phi [deg]","Theta [deg]","re(rEPhi) [mV]","im(rEPhi) [mV]","re(rETheta) [mV]","im(rETheta) [mV]"
1.1388,180,90,90,90,-6.66865874436137e-19,-4.96539714825806e-19,4.94850279435093e-16,3.2181999837327e-16
"Freq [GHz]","IWavePhi [deg]","IWaveTheta [deg]","Phi [deg]","Theta [deg]","re(rEPhi) [mV]","im(rEPhi) [mV]","re(rETheta) [mV]","im(rETheta) [mV]"
1.1388,180,90,-90,90,6.87717578659532e-19,6.3900049804786e-19,-1.95616452590217e-15,3.19933720724414e-16
"Freq [GHz]","IWavePhi [deg]","IWaveTheta [deg]","Phi [deg]","Theta [deg]","re(rEPhi) [mV]","im(rEPhi) [mV]","re(rETheta) [mV]","im(rETheta) [mV]"
1.1388,180,90,0,0,1.83968636961618e-15,3.35164246016825e-15,-1.56403544452236e-19,-2.28086306602824e-19
"Freq [GHz]","IWavePhi [deg]","IWaveTheta [deg]","Phi [deg]","Theta [deg]","re(rEPhi) [mV]","im(rEPhi) [mV]","re(rETheta) [mV]","im(rETheta) [mV]"
1.1388,180,90,0,180,4.96546952518003e-16,2.70136474777343e-15,-4.08901006800884e-19,-1.06539456435548e-18
"Freq [GHz]","IWavePhi [deg]","IWaveTheta [deg]","Phi [deg]","Theta [deg]","re(rEPhi) [mV]","im(rEPhi) [mV]","re(rETheta) [mV]","im(rETheta) [mV]"
1.1388,180,90,0,90,-1.32575441969256e-15,-3.71611386523028e-15,6.7563374120279e-15,-3.72447514562293e-15
"Freq [GHz]","IWavePhi [deg]","IWaveTheta [deg]","Phi [deg]","Theta [deg]","re(rEPhi) [mV]","im(rEPhi) [mV]","re(rETheta) [mV]","im(rETheta) [mV]"
1.1388,180,90,180,90,1.32668012190187e-15,3.71778164429769e-15,6.76131683528062e-15,-3.71895120878516e-15
"Freq [GHz]","IWavePhi [deg]","IWaveTheta [deg]","Phi [deg]","Theta [deg]","re(rEPhi) [mV]","im(rEPhi) [mV]","re(rETheta) [mV]","im(rETheta) [mV]"
1.1388,180,90,90,90,1.86913378847848e-18,2.89708404820192e-18,4.28588917079092e-15,-1.35126137471124e-15
"Freq [GHz]","IWavePhi [deg]","IWaveTheta [deg]","Phi [deg]","Theta [deg]","re(rEPhi) [mV]","im(rEPhi) [mV]","re(rETheta) [mV]","im(rETheta) [mV]"
1.1388,180,90,-90,90,-1.93247453570774e-18,-1.09515687531676e-18,1.83641929637259e-15,-1.35799247888298e-15
"Freq [GHz]","IWavePhi [deg]","IWaveTheta [deg]","Phi [deg]","Theta [deg]","re(rEPhi) [mV]","im(rEPhi) [mV]","re(rETheta) [mV]","im(rETheta) [mV]"
1.1388,180,90,0,0,-4.8558355725844e-16,-2.70509968167915e-15,4.39499117413666e-19,1.62223299554633e-18
"Freq [GHz]","IWavePhi [deg]","IWaveTheta [deg]","Phi [deg]","Theta [deg]","re(rEPhi) [mV]","im(rEPhi) [mV]","re(rETheta) [mV]","im(rETheta) [mV]"
1.1388,180,90,0,180,-1.83496363813527e-15,-3.34527210251244e-15,8.92635066514548e-19,1.176396934085e-18
