"Freq [GHz]","IWavePhi [deg]","IWaveTheta [deg]","Phi [deg]","Theta [deg]","re(rEPhi) [mV]","im(rEPhi) [mV]","re(rETheta) [mV]","im(rETheta) [mV]"
1.0676,180,90,0,90,25.8267241693133,79.9908690676364,-0.0142182926314005,-0.0258931815457671
"Freq [GHz]","IWavePhi [deg]","IWaveTheta [deg]","Phi [deg]","Theta [deg]","re(rEPhi) [mV]","im(rEPhi) [mV]","re(rETheta) [mV]","im(rETheta) [mV]"
1.0676,180,90,180,90,-25.8342811962506,-79.9611482631486,0.00783100133831051,-0.0341159339929069
"Freq [GHz]","IWavePhi [deg]","IWaveTheta [deg]","Phi [deg]","Theta [deg]","re(rEPhi) [mV]","im(rEPhi) [mV]","re(rETheta) [mV]","im(rETheta) [mV]"
1.0676,180,90,90,90,-0.00618666340337479,-0.0085822856414966,-0.0278440154408538,0.00169729754469038
"Freq [GHz]","IWavePhi [deg]","IWaveTheta [deg]","Phi [deg]","Theta [deg]","re(rEPhi) [mV]","im(rEPhi) [mV]","re(rETheta) [mV]","im(rETheta) [mV]"
1.0676,180,90,-90,90,-0.00729452407292154,0.0113187827047319,0.00984871381715557,-0.00992765315139803
"Freq [GHz]","IWavePhi [deg]","IWaveTheta [deg]","Phi [deg]","Theta [deg]","re(rEPhi) [mV]","im(rEPhi) [mV]","re(rETheta) [mV]","im(rETheta) [mV]"
1.0676,180,90,0,0,20.5128100523847,66.6735563305892,-0.00496071965197225,-0.00658837368081501
"Freq [GHz]","IWavePhi [deg]","IWaveTheta [deg]","Phi [deg]","Theta [deg]","re(rEPhi) [mV]","im(rEPhi) [mV]","re(rETheta) [mV]","im(rETheta) [mV]"
1.0676,180,90,0,180,20.5695295663273,66.7099216408503,0.0117408271400309,-0.0144571469163017
"Freq [GHz]","IWavePhi [deg]","IWaveTheta [deg]","Phi [deg]","Theta [deg]","re(rEPhi) [mV]","im(rEPhi) [mV]","re(rETheta) [mV]","im(rETheta) [mV]"
1.0676,180,90,45,54.736,15.2676237318425,47.6742363848381,8.5836190095973,27.2984944734349
"Freq [GHz]","IWavePhi [deg]","IWaveTheta [deg]","Phi [deg]","Theta [deg]","re(rEPhi) [mV]","im(rEPhi) [mV]","re(rETheta) [mV]","im(rETheta) [mV]"
1.0676,180,90,135,54.736,-15.2753534920948,-47.6554187689932,8.54279157600229,27.3130887906876
"Freq [GHz]","IWavePhi [deg]","IWaveTheta [deg]","Phi [deg]","Theta [deg]","re(rEPhi) [mV]","im(rEPhi) [mV]","re(rETheta) [mV]","im(rETheta) [mV]"
1.0676,180,90,-45,54.736,15.2854614751845,47.6447331078501,-8.5423021951013,-27.3284706675914
"Freq [GHz]","IWavePhi [deg]","IWaveTheta [deg]","Phi [deg]","Theta [deg]","re(rEPhi) [mV]","im(rEPhi) [mV]","re(rETheta) [mV]","im(rETheta) [mV]"
1.0676,180,90,45,125.264,15.3073565516412,47.6368104845967,-8.61054312562871,-27.2963944170713
"Freq [GHz]","IWavePhi [deg]","IWaveTheta [deg]","Phi [deg]","Theta [deg]","re(rEPhi) [mV]","im(rEPhi) [mV]","re(rETheta) [mV]","im(rETheta) [mV]"
1.0676,180,90,-135,54.736,-15.3100225966213,-47.6878069548705,-8.56386643751317,-27.3337197052585
"Freq [GHz]","IWavePhi [deg]","IWaveTheta [deg]","Phi [deg]","Theta [deg]","re(rEPhi) [mV]","im(rEPhi) [mV]","re(rETheta) [mV]","im(rETheta) [mV]"
1.0676,180,90,-45,125.264,15.314190080211,47.6436642852422,8.59326501441696,27.2585006820155
"Freq [GHz]","IWavePhi [deg]","IWaveTheta [deg]","Phi [deg]","Theta [deg]","re(rEPhi) [mV]","im(rEPhi) [mV]","re(rETheta) [mV]","im(rETheta) [mV]"
1.0676,180,90,135,125.264,-15.3395759308481,-47.6385492894136,-8.61075552070898,-27.2997757664068
"Freq [GHz]","IWavePhi [deg]","IWaveTheta [deg]","Phi [deg]","Theta [deg]","re(rEPhi) [mV]","im(rEPhi) [mV]","re(rETheta) [mV]","im(rETheta) [mV]"
1.0676,180,90,-135,125.264,-15.3143488954152,-47.6289211918578,8.57438779838584,27.2674034794641
"Freq [GHz]","IWavePhi [deg]","IWaveTheta [deg]","Phi [deg]","Theta [deg]","re(rEPhi) [mV]","im(rEPhi) [mV]","re(rETheta) [mV]","im(rETheta) [mV]"
1.0676,180,90,0,90,-25.8267241693133,-79.9908690676364,0.0142182926223858,0.0258931815408709
"Freq [GHz]","IWavePhi [deg]","IWaveTheta [deg]","Phi [deg]","Theta [deg]","re(rEPhi) [mV]","im(rEPhi) [mV]","re(rETheta) [mV]","im(rETheta) [mV]"
1.0676,180,90,180,90,25.8342811962506,79.9611482631486,-0.00783100134462679,0.0341159339880435
"Freq [GHz]","IWavePhi [deg]","IWaveTheta [deg]","Phi [deg]","Theta [deg]","re(rEPhi) [mV]","im(rEPhi) [mV]","re(rETheta) [mV]","im(rETheta) [mV]"
1.0676,180,90,90,90,0.0061866634368808,0.00858228563542636,0.0278440154498648,-0.00169729754012437
"Freq [GHz]","IWavePhi [deg]","IWaveTheta [deg]","Phi [deg]","Theta [deg]","re(rEPhi) [mV]","im(rEPhi) [mV]","re(rETheta) [mV]","im(rETheta) [mV]"
1.0676,180,90,-90,90,0.00729452409585347,-0.0113187826958424,-0.00984871381844881,0.00992765315657716
"Freq [GHz]","IWavePhi [deg]","IWaveTheta [deg]","Phi [deg]","Theta [deg]","re(rEPhi) [mV]","im(rEPhi) [mV]","re(rETheta) [mV]","im(rETheta) [mV]"
1.0676,180,90,0,0,-20.5128100523846,-66.6735563305892,0.00496071965377321,0.00658837367579554
"Freq [GHz]","IWavePhi [deg]","IWaveTheta [deg]","Phi [deg]","Theta [deg]","re(rEPhi) [mV]","im(rEPhi) [mV]","re(rETheta) [mV]","im(rETheta) [mV]"
1.0676,180,90,0,180,-20.5695295663274,-66.7099216408504,-0.0117408271412927,0.014457146921342
"Freq [GHz]","IWavePhi [deg]","IWaveTheta [deg]","Phi [deg]","Theta [deg]","re(rEPhi) [mV]","im(rEPhi) [mV]","re(rETheta) [mV]","im(rETheta) [mV]"
1.0676,180,90,45,54.736,-15.2676237318445,-47.6742363848447,-8.58361900959214,-27.2984944734385
"Freq [GHz]","IWavePhi [deg]","IWaveTheta [deg]","Phi [deg]","Theta [deg]","re(rEPhi) [mV]","im(rEPhi) [mV]","re(rETheta) [mV]","im(rETheta) [mV]"
1.0676,180,90,135,54.736,15.2753534920824,47.6554187690108,-8.54279157600616,-27.3130887906819
"Freq [GHz]","IWavePhi [deg]","IWaveTheta [deg]","Phi [deg]","Theta [deg]","re(rEPhi) [mV]","im(rEPhi) [mV]","re(rETheta) [mV]","im(rETheta) [mV]"
1.0676,180,90,-45,54.736,-15.2854614752074,-47.6447331078487,8.54230219508535,27.3284706675977
"Freq [GHz]","IWavePhi [deg]","IWaveTheta [deg]","Phi [deg]","Theta [deg]","re(rEPhi) [mV]","im(rEPhi) [mV]","re(rETheta) [mV]","im(rETheta) [mV]"
1.0676,180,90,45,125.264,-15.3073565516379,-47.6368104845962,8.61054312563606,27.2963944170676
"Freq [GHz]","IWavePhi [deg]","IWaveTheta [deg]","Phi [deg]","Theta [deg]","re(rEPhi) [mV]","im(rEPhi) [mV]","re(rETheta) [mV]","im(rETheta) [mV]"
1.0676,180,90,-135,54.736,15.3100225966265,47.6878069548689,8.56386643750959,27.3337197052608
"Freq [GHz]","IWavePhi [deg]","IWaveTheta [deg]","Phi [deg]","Theta [deg]","re(rEPhi) [mV]","im(rEPhi) [mV]","re(rETheta) [mV]","im(rETheta) [mV]"
1.0676,180,90,-45,125.264,-15.3141900802247,-47.6436642852628,-8.59326501441683,-27.2585006820059
"Freq [GHz]","IWavePhi [deg]","IWaveTheta [deg]","Phi [deg]","Theta [deg]","re(rEPhi) [mV]","im(rEPhi) [mV]","re(rETheta) [mV]","im(rETheta) [mV]"
1.0676,180,90,135,125.264,15.3395759308246,47.6385492894112,8.61075552072478,27.2997757664117
"Freq [GHz]","IWavePhi [deg]","IWaveTheta [deg]","Phi [deg]","Theta [deg]","re(rEPhi) [mV]","im(rEPhi) [mV]","re(rETheta) [mV]","im(rETheta) [mV]"
1.0676,180,90,-135,125.264,15.314348895414,47.6289211918615,-8.57438779838617,-27.2674034794642
"Freq [GHz]","IWavePhi [deg]","IWaveTheta [deg]","Phi [deg]","Theta [deg]","re(rEPhi) [mV]","im(rEPhi) [mV]","re(rETheta) [mV]","im(rETheta) [mV]"
1.0676,180,90,0,90,2.33842263032115e-15,7.04435245037544e-15,-3.37088037156506e-15,1.27039448629131e-15
"Freq [GHz]","IWavePhi [deg]","IWaveTheta [deg]","Phi [deg]","Theta [deg]","re(rEPhi) [mV]","im(rEPhi) [mV]","re(rETheta) [mV]","im(rETheta) [mV]"
1.0676,180,90,180,90,-2.33802749620936e-15,-7.04096120583551e-15,-3.37068187311134e-15,1.26860095798954e-15
"Freq [GHz]","IWavePhi [deg]","IWaveTheta [deg]","Phi [deg]","Theta [deg]","re(rEPhi) [mV]","im(rEPhi) [mV]","re(rETheta) [mV]","im(rETheta) [mV]"
1.0676,180,90,90,90,3.00556163985719e-19,-1.31377131229608e-18,-2.01698597572944e-15,8.47593483506424e-16
"Freq [GHz]","IWavePhi [deg]","IWaveTheta [deg]","Phi [deg]","Theta [deg]","re(rEPhi) [mV]","im(rEPhi) [mV]","re(rETheta) [mV]","im(rETheta) [mV]"
1.0676,180,90,-90,90,-5.59625315211836e-19,9.40657251431392e-19,4.08286446411563e-16,2.59804236860532e-16
"Freq [GHz]","IWavePhi [deg]","IWaveTheta [deg]","Phi [deg]","Theta [deg]","re(rEPhi) [mV]","im(rEPhi) [mV]","re(rETheta) [mV]","im(rETheta) [mV]"
1.0676,180,90,0,0,4.68350814438335e-15,5.94502953203422e-15,1.32471857022631e-19,-5.11276335288221e-19
"Freq [GHz]","IWavePhi [deg]","IWaveTheta [deg]","Phi [deg]","Theta [deg]","re(rEPhi) [mV]","im(rEPhi) [mV]","re(rETheta) [mV]","im(rETheta) [mV]"
1.0676,180,90,0,180,-9.50474794233181e-16,5.7991015725021e-15,4.13470169038323e-19,-1.07862995837411e-18
"Freq [GHz]","IWavePhi [deg]","IWaveTheta [deg]","Phi [deg]","Theta [deg]","re(rEPhi) [mV]","im(rEPhi) [mV]","re(rETheta) [mV]","im(rETheta) [mV]"
1.0676,180,90,45,54.736,1.57185160796145e-15,4.29359446629401e-15,-1.75182357489146e-15,3.43105723280237e-15
"Freq [GHz]","IWavePhi [deg]","IWaveTheta [deg]","Phi [deg]","Theta [deg]","re(rEPhi) [mV]","im(rEPhi) [mV]","re(rETheta) [mV]","im(rETheta) [mV]"
1.0676,180,90,135,54.736,-1.57458608277245e-15,-4.29220067058064e-15,-1.75445222042185e-15,3.43121650325231e-15
"Freq [GHz]","IWavePhi [deg]","IWaveTheta [deg]","Phi [deg]","Theta [deg]","re(rEPhi) [mV]","im(rEPhi) [mV]","re(rETheta) [mV]","im(rETheta) [mV]"
1.0676,180,90,-45,54.736,3.3063286216226e-15,4.15629775949467e-15,-3.05207961543543e-15,-1.76375087621153e-15
"Freq [GHz]","IWavePhi [deg]","IWaveTheta [deg]","Phi [deg]","Theta [deg]","re(rEPhi) [mV]","im(rEPhi) [mV]","re(rETheta) [mV]","im(rETheta) [mV]"
1.0676,180,90,45,125.264,-1.43148146497531e-15,4.30881646196966e-15,-1.74933588083034e-15,-1.5062778547647e-15
"Freq [GHz]","IWavePhi [deg]","IWaveTheta [deg]","Phi [deg]","Theta [deg]","re(rEPhi) [mV]","im(rEPhi) [mV]","re(rETheta) [mV]","im(rETheta) [mV]"
1.0676,180,90,-135,54.736,-3.30942976407093e-15,-4.15942964192165e-15,-3.05583670387772e-15,-1.76331702389187e-15
"Freq [GHz]","IWavePhi [deg]","IWaveTheta [deg]","Phi [deg]","Theta [deg]","re(rEPhi) [mV]","im(rEPhi) [mV]","re(rETheta) [mV]","im(rETheta) [mV]"
1.0676,180,90,-45,125.264,1.83034594665583e-15,4.02838901741167e-15,-1.07918084811656e-16,2.91664912738026e-15
"Freq [GHz]","IWavePhi [deg]","IWaveTheta [deg]","Phi [deg]","Theta [deg]","re(rEPhi) [mV]","im(rEPhi) [mV]","re(rETheta) [mV]","im(rETheta) [mV]"
1.0676,180,90,135,125.264,1.42739223763599e-15,-4.30920471784689e-15,-1.74958090723105e-15,-1.50777144867321e-15
"Freq [GHz]","IWavePhi [deg]","IWaveTheta [deg]","Phi [deg]","Theta [deg]","re(rEPhi) [mV]","im(rEPhi) [mV]","re(rETheta) [mV]","im(rETheta) [mV]"
1.0676,180,90,-135,125.264,-1.83221932397757e-15,-4.02741746077895e-15,-1.08931181700122e-16,2.91543462372686e-15
"Freq [GHz]","IWavePhi [deg]","IWaveTheta [deg]","Phi [deg]","Theta [deg]","re(rEPhi) [mV]","im(rEPhi) [mV]","re(rETheta) [mV]","im(rETheta) [mV]"
1.0676,180,90,0,90,3.50354800372534e-18,-9.0720115371718e-19,3.37527181407027e-15,-1.25797621974555e-15
"Freq [GHz]","IWavePhi [deg]","IWaveTheta [deg]","Phi [deg]","Theta [deg]","re(rEPhi) [mV]","im(rEPhi) [mV]","re(rETheta) [mV]","im(rETheta) [mV]"
1.0676,180,90,180,90,-2.73176775233012e-18,1.51744794212969e-18,3.37743379227348e-15,-1.25857645919493e-15
"Freq [GHz]","IWavePhi [deg]","IWaveTheta [deg]","Phi [deg]","Theta [deg]","re(rEPhi) [mV]","im(rEPhi) [mV]","re(rETheta) [mV]","im(rETheta) [mV]"
1.0676,180,90,90,90,4.77413706329929e-19,1.17598363172715e-18,-4.02298100152747e-16,-2.46474410561974e-16
"Freq [GHz]","IWavePhi [deg]","IWaveTheta [deg]","Phi [deg]","Theta [deg]","re(rEPhi) [mV]","im(rEPhi) [mV]","re(rETheta) [mV]","im(rETheta) [mV]"
1.0676,180,90,-90,90,-6.05322600497874e-19,-6.21616185783116e-19,2.01582954701801e-15,-8.48350764450744e-16
"Freq [GHz]","IWavePhi [deg]","IWaveTheta [deg]","Phi [deg]","Theta [deg]","re(rEPhi) [mV]","im(rEPhi) [mV]","re(rETheta) [mV]","im(rETheta) [mV]"
1.0676,180,90,0,0,2.82053765301709e-15,7.28013479356692e-17,-4.4945952380841e-19,1.76321794856891e-19
"Freq [GHz]","IWavePhi [deg]","IWaveTheta [deg]","Phi [deg]","Theta [deg]","re(rEPhi) [mV]","im(rEPhi) [mV]","re(rETheta) [mV]","im(rETheta) [mV]"
1.0676,180,90,0,180,-2.81601195233641e-15,-7.67003573688039e-17,3.63036013749327e-19,-2.39746300892569e-19
"Freq [GHz]","IWavePhi [deg]","IWaveTheta [deg]","Phi [deg]","Theta [deg]","re(rEPhi) [mV]","im(rEPhi) [mV]","re(rETheta) [mV]","im(rETheta) [mV]"
1.0676,180,90,45,54.736,7.40531474808804e-16,6.48275438947357e-17,1.59121161608284e-15,-5.65230905438523e-16
"Freq [GHz]","IWavePhi [deg]","IWaveTheta [deg]","Phi [deg]","Theta [deg]","re(rEPhi) [mV]","im(rEPhi) [mV]","re(rETheta) [mV]","im(rETheta) [mV]"
1.0676,180,90,135,54.736,-7.42049178684737e-16,-6.57355436664308e-17,1.59079941690481e-15,-5.65570669695504e-16
"Freq [GHz]","IWavePhi [deg]","IWaveTheta [deg]","Phi [deg]","Theta [deg]","re(rEPhi) [mV]","im(rEPhi) [mV]","re(rETheta) [mV]","im(rETheta) [mV]"
1.0676,180,90,-45,54.736,1.50259281578513e-15,-9.99952782534414e-18,1.75241214195715e-15,-9.56208077078259e-16
"Freq [GHz]","IWavePhi [deg]","IWaveTheta [deg]","Phi [deg]","Theta [deg]","re(rEPhi) [mV]","im(rEPhi) [mV]","re(rETheta) [mV]","im(rETheta) [mV]"
1.0676,180,90,45,125.264,-7.36426493882355e-16,-6.51798884656936e-17,1.58613833694667e-15,-5.66187336828114e-16
"Freq [GHz]","IWavePhi [deg]","IWaveTheta [deg]","Phi [deg]","Theta [deg]","re(rEPhi) [mV]","im(rEPhi) [mV]","re(rETheta) [mV]","im(rETheta) [mV]"
1.0676,180,90,-135,54.736,-1.50339557206229e-15,1.08045207779839e-17,1.75293283074578e-15,-9.579194232361e-16
"Freq [GHz]","IWavePhi [deg]","IWaveTheta [deg]","Phi [deg]","Theta [deg]","re(rEPhi) [mV]","im(rEPhi) [mV]","re(rETheta) [mV]","im(rETheta) [mV]"
1.0676,180,90,-45,125.264,-1.50224406447676e-15,1.01605128132767e-17,1.7537735964104e-15,-9.57452099818207e-16
"Freq [GHz]","IWavePhi [deg]","IWaveTheta [deg]","Phi [deg]","Theta [deg]","re(rEPhi) [mV]","im(rEPhi) [mV]","re(rETheta) [mV]","im(rETheta) [mV]"
1.0676,180,90,135,125.264,7.34603793207468e-16,6.47758873057922e-17,1.58535477642801e-15,-5.66214066773486e-16
"Freq [GHz]","IWavePhi [deg]","IWaveTheta [deg]","Phi [deg]","Theta [deg]","re(rEPhi) [mV]","im(rEPhi) [mV]","re(rETheta) [mV]","im(rETheta) [mV]"
1.0676,180,90,-135,125.264,1.50135840948302e-15,-8.1046713201322e-18,1.75384363668565e-15,-9.5622384565746e-16
"Freq [GHz]","IWavePhi [deg]","IWaveTheta [deg]","Phi [deg]","Theta [deg]","re(rEPhi) [mV]","im(rEPhi) [mV]","re(rETheta) [mV]","im(rETheta) [mV]"
1.0676,180,90,0,90,20.5467278198662,66.6149987954476,-0.0136036608645494,-0.0347314474500796
"Freq [GHz]","IWavePhi [deg]","IWaveTheta [deg]","Phi [deg]","Theta [deg]","re(rEPhi) [mV]","im(rEPhi) [mV]","re(rETheta) [mV]","im(rETheta) [mV]"
1.0676,180,90,180,90,-20.5500683509711,-66.5836583322764,-0.00431319379139494,-0.0275823755587694
"Freq [GHz]","IWavePhi [deg]","IWaveTheta [deg]","Phi [deg]","Theta [deg]","re(rEPhi) [mV]","im(rEPhi) [mV]","re(rETheta) [mV]","im(rETheta) [mV]"
1.0676,180,90,90,90,-0.00431899104053445,-0.00409610666676612,17.4989267480513,0.459154792154499
"Freq [GHz]","IWavePhi [deg]","IWaveTheta [deg]","Phi [deg]","Theta [deg]","re(rEPhi) [mV]","im(rEPhi) [mV]","re(rETheta) [mV]","im(rETheta) [mV]"
1.0676,180,90,-90,90,-0.00651540650172982,0.00918373918894633,-17.5235083900575,-0.476094661712441
"Freq [GHz]","IWavePhi [deg]","IWaveTheta [deg]","Phi [deg]","Theta [deg]","re(rEPhi) [mV]","im(rEPhi) [mV]","re(rETheta) [mV]","im(rETheta) [mV]"
1.0676,180,90,0,0,28.7503791242225,59.3137419271581,-0.0036256234236853,-0.00168819784709123
"Freq [GHz]","IWavePhi [deg]","IWaveTheta [deg]","Phi [deg]","Theta [deg]","re(rEPhi) [mV]","im(rEPhi) [mV]","re(rETheta) [mV]","im(rETheta) [mV]"
1.0676,180,90,0,180,7.4662404607846,51.7710436540071,0.00866206430475184,-0.0151448247076416
"Freq [GHz]","IWavePhi [deg]","IWaveTheta [deg]","Phi [deg]","Theta [deg]","re(rEPhi) [mV]","im(rEPhi) [mV]","re(rETheta) [mV]","im(rETheta) [mV]"
1.0676,180,90,45,54.736,16.5588651723827,41.1908512002908,20.4090420789373,23.8858972522405
"Freq [GHz]","IWavePhi [deg]","IWaveTheta [deg]","Phi [deg]","Theta [deg]","re(rEPhi) [mV]","im(rEPhi) [mV]","re(rETheta) [mV]","im(rETheta) [mV]"
1.0676,180,90,135,54.736,-16.569632513627,-41.1774043965955,20.3769875990773,23.91133368087
"Freq [GHz]","IWavePhi [deg]","IWaveTheta [deg]","Phi [deg]","Theta [deg]","re(rEPhi) [mV]","im(rEPhi) [mV]","re(rETheta) [mV]","im(rETheta) [mV]"
1.0676,180,90,-45,54.736,16.580927055123,41.1582866992539,-20.3947896234031,-23.9273840829819
"Freq [GHz]","IWavePhi [deg]","IWaveTheta [deg]","Phi [deg]","Theta [deg]","re(rEPhi) [mV]","im(rEPhi) [mV]","re(rETheta) [mV]","im(rETheta) [mV]"
1.0676,180,90,45,125.264,8.53202779519461,38.197400501098,5.3159667167519,-21.5905898346549
"Freq [GHz]","IWavePhi [deg]","IWaveTheta [deg]","Phi [deg]","Theta [deg]","re(rEPhi) [mV]","im(rEPhi) [mV]","re(rETheta) [mV]","im(rETheta) [mV]"
1.0676,180,90,-135,54.736,-16.6056233119044,-41.1930864842124,-20.4191910115686,-23.9182590998164
"Freq [GHz]","IWavePhi [deg]","IWaveTheta [deg]","Phi [deg]","Theta [deg]","re(rEPhi) [mV]","im(rEPhi) [mV]","re(rETheta) [mV]","im(rETheta) [mV]"
1.0676,180,90,-45,125.264,8.54701524938608,38.200470222011,-5.34347841112076,21.5409713463934
"Freq [GHz]","IWavePhi [deg]","IWaveTheta [deg]","Phi [deg]","Theta [deg]","re(rEPhi) [mV]","im(rEPhi) [mV]","re(rETheta) [mV]","im(rETheta) [mV]"
1.0676,180,90,135,125.264,-8.55925501745423,-38.1994584613248,5.30554493214094,-21.5942907211987
"Freq [GHz]","IWavePhi [deg]","IWaveTheta [deg]","Phi [deg]","Theta [deg]","re(rEPhi) [mV]","im(rEPhi) [mV]","re(rETheta) [mV]","im(rETheta) [mV]"
1.0676,180,90,-135,125.264,-8.54828457289772,-38.1817819078301,-5.34754667652368,21.5437149440458
"Freq [GHz]","IWavePhi [deg]","IWaveTheta [deg]","Phi [deg]","Theta [deg]","re(rEPhi) [mV]","im(rEPhi) [mV]","re(rETheta) [mV]","im(rETheta) [mV]"
1.0676,180,90,0,90,20.5424868514235,66.6130340919111,-0.0102511703466304,-0.00877853118819727
"Freq [GHz]","IWavePhi [deg]","IWaveTheta [deg]","Phi [deg]","Theta [deg]","re(rEPhi) [mV]","im(rEPhi) [mV]","re(rETheta) [mV]","im(rETheta) [mV]"
1.0676,180,90,180,90,-20.5513518259902,-66.5942951124024,0.0172421964717176,-0.0301577172562671
"Freq [GHz]","IWavePhi [deg]","IWaveTheta [deg]","Phi [deg]","Theta [deg]","re(rEPhi) [mV]","im(rEPhi) [mV]","re(rETheta) [mV]","im(rETheta) [mV]"
1.0676,180,90,90,90,-0.00591367741543765,-0.0102532814681234,-17.5448241418017,-0.457478432782838
"Freq [GHz]","IWavePhi [deg]","IWaveTheta [deg]","Phi [deg]","Theta [deg]","re(rEPhi) [mV]","im(rEPhi) [mV]","re(rETheta) [mV]","im(rETheta) [mV]"
1.0676,180,90,-90,90,-0.00570366281020874,0.0100297210732072,17.5404724026162,0.460211982754273
"Freq [GHz]","IWavePhi [deg]","IWaveTheta [deg]","Phi [deg]","Theta [deg]","re(rEPhi) [mV]","im(rEPhi) [mV]","re(rETheta) [mV]","im(rETheta) [mV]"
1.0676,180,90,0,0,7.42195581399164,51.7542089168347,-0.00466579161581604,-0.00933833812054929
"Freq [GHz]","IWavePhi [deg]","IWaveTheta [deg]","Phi [deg]","Theta [deg]","re(rEPhi) [mV]","im(rEPhi) [mV]","re(rETheta) [mV]","im(rETheta) [mV]"
1.0676,180,90,0,180,28.7994198722052,59.3599474227024,0.0110452372473758,-0.00856828620543023
"Freq [GHz]","IWavePhi [deg]","IWaveTheta [deg]","Phi [deg]","Theta [deg]","re(rEPhi) [mV]","im(rEPhi) [mV]","re(rETheta) [mV]","im(rETheta) [mV]"
1.0676,180,90,45,54.736,8.50948892763851,38.219346960246,-5.33171476638183,21.5863928507006
"Freq [GHz]","IWavePhi [deg]","IWaveTheta [deg]","Phi [deg]","Theta [deg]","re(rEPhi) [mV]","im(rEPhi) [mV]","re(rETheta) [mV]","im(rETheta) [mV]"
1.0676,180,90,135,54.736,-8.51211853935526,-38.2019942823821,-5.36743128639084,21.5847703289591
"Freq [GHz]","IWavePhi [deg]","IWaveTheta [deg]","Phi [deg]","Theta [deg]","re(rEPhi) [mV]","im(rEPhi) [mV]","re(rETheta) [mV]","im(rETheta) [mV]"
1.0676,180,90,-45,54.736,8.51657713777849,38.1974580124482,5.38778622350309,-21.5897770919268
"Freq [GHz]","IWavePhi [deg]","IWaveTheta [deg]","Phi [deg]","Theta [deg]","re(rEPhi) [mV]","im(rEPhi) [mV]","re(rETheta) [mV]","im(rETheta) [mV]"
1.0676,180,90,45,125.264,16.6033529818075,41.151982598813,-20.4373093864678,-23.8796457516556
"Freq [GHz]","IWavePhi [deg]","IWaveTheta [deg]","Phi [deg]","Theta [deg]","re(rEPhi) [mV]","im(rEPhi) [mV]","re(rETheta) [mV]","im(rETheta) [mV]"
