"Freq [GHz]","IWavePhi [deg]","IWaveTheta [deg]","Phi [deg]","Theta [deg]","re(rEPhi) [mV]","im(rEPhi) [mV]","re(rETheta) [mV]","im(rETheta) [mV]"
0.8541,180,90,0,90,-6.05797975259139,99.4796208761752,-0.0276258995598857,-0.0623123769294491
"Freq [GHz]","IWavePhi [deg]","IWaveTheta [deg]","Phi [deg]","Theta [deg]","re(rEPhi) [mV]","im(rEPhi) [mV]","re(rETheta) [mV]","im(rETheta) [mV]"
0.8541,180,90,180,90,6.05036011591991,-99.4587975241044,0.0150544996611106,-0.115798773004008
"Freq [GHz]","IWavePhi [deg]","IWaveTheta [deg]","Phi [deg]","Theta [deg]","re(rEPhi) [mV]","im(rEPhi) [mV]","re(rETheta) [mV]","im(rETheta) [mV]"
0.8541,180,90,90,90,0.0416434433848017,0.0361316749732863,0.0282133933062712,-0.0643015484974493
"Freq [GHz]","IWavePhi [deg]","IWaveTheta [deg]","Phi [deg]","Theta [deg]","re(rEPhi) [mV]","im(rEPhi) [mV]","re(rETheta) [mV]","im(rETheta) [mV]"
0.8541,180,90,-90,90,0.0425941983728999,-0.0292412212677068,-0.0144865031723832,-0.0355490208337373
"Freq [GHz]","IWavePhi [deg]","IWaveTheta [deg]","Phi [deg]","Theta [deg]","re(rEPhi) [mV]","im(rEPhi) [mV]","re(rETheta) [mV]","im(rETheta) [mV]"
0.8541,180,90,0,0,-5.73815718257734,88.2033353340055,-0.00652172087415411,-0.0681213597963894
"Freq [GHz]","IWavePhi [deg]","IWaveTheta [deg]","Phi [deg]","Theta [deg]","re(rEPhi) [mV]","im(rEPhi) [mV]","re(rETheta) [mV]","im(rETheta) [mV]"
0.8541,180,90,0,180,-5.80332417740016,88.226918247856,0.00578134644145606,0.120233268257363
"Freq [GHz]","IWavePhi [deg]","IWaveTheta [deg]","Phi [deg]","Theta [deg]","re(rEPhi) [mV]","im(rEPhi) [mV]","re(rETheta) [mV]","im(rETheta) [mV]"
0.8541,180,90,45,54.736,-3.94802130762173,63.1005603061456,-2.33231305660687,36.1215966015891
"Freq [GHz]","IWavePhi [deg]","IWaveTheta [deg]","Phi [deg]","Theta [deg]","re(rEPhi) [mV]","im(rEPhi) [mV]","re(rETheta) [mV]","im(rETheta) [mV]"
0.8541,180,90,135,54.736,3.97106208736982,-63.0116328122305,-2.33082308500516,36.0529611992152
"Freq [GHz]","IWavePhi [deg]","IWaveTheta [deg]","Phi [deg]","Theta [deg]","re(rEPhi) [mV]","im(rEPhi) [mV]","re(rETheta) [mV]","im(rETheta) [mV]"
0.8541,180,90,-45,54.736,-3.91531575679294,63.1679309881077,2.38744747959395,-36.2659765548151
"Freq [GHz]","IWavePhi [deg]","IWaveTheta [deg]","Phi [deg]","Theta [deg]","re(rEPhi) [mV]","im(rEPhi) [mV]","re(rETheta) [mV]","im(rETheta) [mV]"
0.8541,180,90,45,125.264,-3.94017424010188,63.1268657215717,2.31084386043849,-36.2514529353416
"Freq [GHz]","IWavePhi [deg]","IWaveTheta [deg]","Phi [deg]","Theta [deg]","re(rEPhi) [mV]","im(rEPhi) [mV]","re(rETheta) [mV]","im(rETheta) [mV]"
0.8541,180,90,-135,54.736,3.80674420934514,-63.1380217645444,2.30001292082255,-36.2507343173315
"Freq [GHz]","IWavePhi [deg]","IWaveTheta [deg]","Phi [deg]","Theta [deg]","re(rEPhi) [mV]","im(rEPhi) [mV]","re(rETheta) [mV]","im(rETheta) [mV]"
0.8541,180,90,-45,125.264,-3.834891732999,62.9869248013762,-2.36148550624432,36.0630466941562
"Freq [GHz]","IWavePhi [deg]","IWaveTheta [deg]","Phi [deg]","Theta [deg]","re(rEPhi) [mV]","im(rEPhi) [mV]","re(rETheta) [mV]","im(rETheta) [mV]"
0.8541,180,90,135,125.264,3.82723825885551,-63.1597458368991,2.2715794749187,-36.2628595393238
"Freq [GHz]","IWavePhi [deg]","IWaveTheta [deg]","Phi [deg]","Theta [deg]","re(rEPhi) [mV]","im(rEPhi) [mV]","re(rETheta) [mV]","im(rETheta) [mV]"
0.8541,180,90,-135,125.264,3.88310582283726,-63.0929827872444,-2.34447329312935,36.1263624896425
"Freq [GHz]","IWavePhi [deg]","IWaveTheta [deg]","Phi [deg]","Theta [deg]","re(rEPhi) [mV]","im(rEPhi) [mV]","re(rETheta) [mV]","im(rETheta) [mV]"
0.8541,180,90,62.632,90,-2.17415428050561,38.6241812858841,-0.0394282349371544,-0.00223943676504099
"Freq [GHz]","IWavePhi [deg]","IWaveTheta [deg]","Phi [deg]","Theta [deg]","re(rEPhi) [mV]","im(rEPhi) [mV]","re(rETheta) [mV]","im(rETheta) [mV]"
0.8541,180,90,117.368,90,2.25021216232312,-38.7361885415561,-0.00769249620078856,-0.0983719719257199
"Freq [GHz]","IWavePhi [deg]","IWaveTheta [deg]","Phi [deg]","Theta [deg]","re(rEPhi) [mV]","im(rEPhi) [mV]","re(rETheta) [mV]","im(rETheta) [mV]"
0.8541,180,90,-62.632,90,-2.34158539042101,38.7444418786702,-0.00207122067033205,-0.0917716597901994
"Freq [GHz]","IWavePhi [deg]","IWaveTheta [deg]","Phi [deg]","Theta [deg]","re(rEPhi) [mV]","im(rEPhi) [mV]","re(rETheta) [mV]","im(rETheta) [mV]"
0.8541,180,90,-117.368,90,2.45301078694003,-38.698252018501,0.0445019804832509,-0.010019361198474
"Freq [GHz]","IWavePhi [deg]","IWaveTheta [deg]","Phi [deg]","Theta [deg]","re(rEPhi) [mV]","im(rEPhi) [mV]","re(rETheta) [mV]","im(rETheta) [mV]"
0.8541,180,90,27.368,90,-5.19725581913838,84.5002505476033,-0.0224706488295734,-0.116720422194315
"Freq [GHz]","IWavePhi [deg]","IWaveTheta [deg]","Phi [deg]","Theta [deg]","re(rEPhi) [mV]","im(rEPhi) [mV]","re(rETheta) [mV]","im(rETheta) [mV]"
0.8541,180,90,152.632,90,5.14384697030795,-84.5297081251265,-0.00522287695895267,-0.0966624106904837
"Freq [GHz]","IWavePhi [deg]","IWaveTheta [deg]","Phi [deg]","Theta [deg]","re(rEPhi) [mV]","im(rEPhi) [mV]","re(rETheta) [mV]","im(rETheta) [mV]"
0.8541,180,90,-27.368,90,-5.07899113826343,84.5375738187379,-0.0513325730623572,-0.10071658879643
"Freq [GHz]","IWavePhi [deg]","IWaveTheta [deg]","Phi [deg]","Theta [deg]","re(rEPhi) [mV]","im(rEPhi) [mV]","re(rETheta) [mV]","im(rETheta) [mV]"
0.8541,180,90,-152.632,90,5.03708713717342,-84.4961721421093,-0.0327101422179954,-0.135022447997006
"Freq [GHz]","IWavePhi [deg]","IWaveTheta [deg]","Phi [deg]","Theta [deg]","re(rEPhi) [mV]","im(rEPhi) [mV]","re(rETheta) [mV]","im(rETheta) [mV]"
0.8541,180,90,0,27.368,-5.69391185346786,90.5274579129436,0.0502365582540354,-0.0348031291409291
"Freq [GHz]","IWavePhi [deg]","IWaveTheta [deg]","Phi [deg]","Theta [deg]","re(rEPhi) [mV]","im(rEPhi) [mV]","re(rETheta) [mV]","im(rETheta) [mV]"
0.8541,180,90,180,27.368,5.88456815582852,-90.6336667442333,-0.0335281359613326,-0.114521761148496
"Freq [GHz]","IWavePhi [deg]","IWaveTheta [deg]","Phi [deg]","Theta [deg]","re(rEPhi) [mV]","im(rEPhi) [mV]","re(rETheta) [mV]","im(rETheta) [mV]"
0.8541,180,90,0,152.632,-5.78892616214962,90.6031788150934,0.00198495134921796,-0.0863341464046531
"Freq [GHz]","IWavePhi [deg]","IWaveTheta [deg]","Phi [deg]","Theta [deg]","re(rEPhi) [mV]","im(rEPhi) [mV]","re(rETheta) [mV]","im(rETheta) [mV]"
0.8541,180,90,180,152.632,6.01749519812129,-90.5641477343947,-0.0469911255363308,-0.00328299460304189
"Freq [GHz]","IWavePhi [deg]","IWaveTheta [deg]","Phi [deg]","Theta [deg]","re(rEPhi) [mV]","im(rEPhi) [mV]","re(rETheta) [mV]","im(rETheta) [mV]"
0.8541,180,90,0,62.632,-5.91129640475928,97.0613963133333,-0.0664745607745667,-0.0759228731260535
"Freq [GHz]","IWavePhi [deg]","IWaveTheta [deg]","Phi [deg]","Theta [deg]","re(rEPhi) [mV]","im(rEPhi) [mV]","re(rETheta) [mV]","im(rETheta) [mV]"
0.8541,180,90,180,62.632,5.9576666541585,-96.9893655425685,-0.0157596757377773,-0.10016584653199
"Freq [GHz]","IWavePhi [deg]","IWaveTheta [deg]","Phi [deg]","Theta [deg]","re(rEPhi) [mV]","im(rEPhi) [mV]","re(rETheta) [mV]","im(rETheta) [mV]"
0.8541,180,90,0,117.368,-5.97878525374852,97.0097719858669,-0.011153656235708,-0.104875969562253
"Freq [GHz]","IWavePhi [deg]","IWaveTheta [deg]","Phi [deg]","Theta [deg]","re(rEPhi) [mV]","im(rEPhi) [mV]","re(rETheta) [mV]","im(rETheta) [mV]"
0.8541,180,90,180,117.368,6.00576709458546,-97.086477738942,0.0286017306876906,-0.0779019658828033
"Freq [GHz]","IWavePhi [deg]","IWaveTheta [deg]","Phi [deg]","Theta [deg]","re(rEPhi) [mV]","im(rEPhi) [mV]","re(rETheta) [mV]","im(rETheta) [mV]"
0.8541,180,90,90,27.368,0.030446866719947,-0.0400308230398145,-4.96479274760185,76.8039453773668
"Freq [GHz]","IWavePhi [deg]","IWaveTheta [deg]","Phi [deg]","Theta [deg]","re(rEPhi) [mV]","im(rEPhi) [mV]","re(rETheta) [mV]","im(rETheta) [mV]"
0.8541,180,90,-90,27.368,0.00573860737495259,0.0207339621534365,5.01323920052,-76.9250634697537
"Freq [GHz]","IWavePhi [deg]","IWaveTheta [deg]","Phi [deg]","Theta [deg]","re(rEPhi) [mV]","im(rEPhi) [mV]","re(rETheta) [mV]","im(rETheta) [mV]"
0.8541,180,90,90,152.632,0.0202859168158576,-0.03609270070509,4.9353305427151,-76.9205098564087
"Freq [GHz]","IWavePhi [deg]","IWaveTheta [deg]","Phi [deg]","Theta [deg]","re(rEPhi) [mV]","im(rEPhi) [mV]","re(rETheta) [mV]","im(rETheta) [mV]"
0.8541,180,90,-90,152.632,0.0210808032245379,0.0605128589537686,-5.00680676846804,76.8052335758751
"Freq [GHz]","IWavePhi [deg]","IWaveTheta [deg]","Phi [deg]","Theta [deg]","re(rEPhi) [mV]","im(rEPhi) [mV]","re(rETheta) [mV]","im(rETheta) [mV]"
0.8541,180,90,90,62.632,-0.0357091113957847,0.105912048590743,-2.40719195882173,37.3615427002537
"Freq [GHz]","IWavePhi [deg]","IWaveTheta [deg]","Phi [deg]","Theta [deg]","re(rEPhi) [mV]","im(rEPhi) [mV]","re(rETheta) [mV]","im(rETheta) [mV]"
0.8541,180,90,-90,62.632,0.0248871435034964,0.0402996510321719,2.35032209397967,-37.4761497892964
"Freq [GHz]","IWavePhi [deg]","IWaveTheta [deg]","Phi [deg]","Theta [deg]","re(rEPhi) [mV]","im(rEPhi) [mV]","re(rETheta) [mV]","im(rETheta) [mV]"
0.8541,180,90,90,117.368,0.0331711579678326,-0.0122124746071938,2.36280759092166,-37.4979179512055
"Freq [GHz]","IWavePhi [deg]","IWaveTheta [deg]","Phi [deg]","Theta [deg]","re(rEPhi) [mV]","im(rEPhi) [mV]","re(rETheta) [mV]","im(rETheta) [mV]"
0.8541,180,90,-90,117.368,-0.0540890319868878,-0.0671226184546159,-2.36401936772756,37.3569914952697
"Freq [GHz]","IWavePhi [deg]","IWaveTheta [deg]","Phi [deg]","Theta [deg]","re(rEPhi) [mV]","im(rEPhi) [mV]","re(rETheta) [mV]","im(rETheta) [mV]"
0.8541,180,90,0,90,6.05797975259139,-99.4796208761752,0.027625899557681,0.062312376928321
"Freq [GHz]","IWavePhi [deg]","IWaveTheta [deg]","Phi [deg]","Theta [deg]","re(rEPhi) [mV]","im(rEPhi) [mV]","re(rETheta) [mV]","im(rETheta) [mV]"
0.8541,180,90,180,90,-6.05036011591991,99.4587975241044,-0.0150544996632382,0.115798773005157
"Freq [GHz]","IWavePhi [deg]","IWaveTheta [deg]","Phi [deg]","Theta [deg]","re(rEPhi) [mV]","im(rEPhi) [mV]","re(rETheta) [mV]","im(rETheta) [mV]"
0.8541,180,90,90,90,-0.0416434433816912,-0.0361316749731288,-0.0282133933031292,0.0643015484975723
"Freq [GHz]","IWavePhi [deg]","IWaveTheta [deg]","Phi [deg]","Theta [deg]","re(rEPhi) [mV]","im(rEPhi) [mV]","re(rETheta) [mV]","im(rETheta) [mV]"
0.8541,180,90,-90,90,-0.0425941983760135,0.0292412212678819,0.0144865031755117,0.0355490208336947
"Freq [GHz]","IWavePhi [deg]","IWaveTheta [deg]","Phi [deg]","Theta [deg]","re(rEPhi) [mV]","im(rEPhi) [mV]","re(rETheta) [mV]","im(rETheta) [mV]"
0.8541,180,90,0,0,5.73815718257734,-88.2033353340055,0.00652172087536062,0.0681213597954742
"Freq [GHz]","IWavePhi [deg]","IWaveTheta [deg]","Phi [deg]","Theta [deg]","re(rEPhi) [mV]","im(rEPhi) [mV]","re(rETheta) [mV]","im(rETheta) [mV]"
0.8541,180,90,0,180,5.80332417740016,-88.226918247856,-0.00578134644264643,-0.120233268258286
"Freq [GHz]","IWavePhi [deg]","IWaveTheta [deg]","Phi [deg]","Theta [deg]","re(rEPhi) [mV]","im(rEPhi) [mV]","re(rETheta) [mV]","im(rETheta) [mV]"
0.8541,180,90,45,54.736,3.94802130762356,-63.1005603061449,2.33231305660813,-36.1215966015888
"Freq [GHz]","IWavePhi [deg]","IWaveTheta [deg]","Phi [deg]","Theta [deg]","re(rEPhi) [mV]","im(rEPhi) [mV]","re(rETheta) [mV]","im(rETheta) [mV]"
0.8541,180,90,135,54.736,-3.9710620873699,63.01163281223,2.33082308500611,-36.052961199215
"Freq [GHz]","IWavePhi [deg]","IWaveTheta [deg]","Phi [deg]","Theta [deg]","re(rEPhi) [mV]","im(rEPhi) [mV]","re(rETheta) [mV]","im(rETheta) [mV]"
0.8541,180,90,-45,54.736,3.91531575679558,-63.1679309881067,-2.38744747959555,36.2659765548141
"Freq [GHz]","IWavePhi [deg]","IWaveTheta [deg]","Phi [deg]","Theta [deg]","re(rEPhi) [mV]","im(rEPhi) [mV]","re(rETheta) [mV]","im(rETheta) [mV]"
0.8541,180,90,45,125.264,3.9401742401023,-63.1268657215711,-2.31084386043814,36.2514529353441
"Freq [GHz]","IWavePhi [deg]","IWaveTheta [deg]","Phi [deg]","Theta [deg]","re(rEPhi) [mV]","im(rEPhi) [mV]","re(rETheta) [mV]","im(rETheta) [mV]"
0.8541,180,90,-135,54.736,-3.80674420934554,63.138021764545,-2.30001292082213,36.250734317329
"Freq [GHz]","IWavePhi [deg]","IWaveTheta [deg]","Phi [deg]","Theta [deg]","re(rEPhi) [mV]","im(rEPhi) [mV]","re(rETheta) [mV]","im(rETheta) [mV]"
0.8541,180,90,-45,125.264,3.83489173299907,-62.9869248013767,2.36148550624525,-36.0630466941563
"Freq [GHz]","IWavePhi [deg]","IWaveTheta [deg]","Phi [deg]","Theta [deg]","re(rEPhi) [mV]","im(rEPhi) [mV]","re(rETheta) [mV]","im(rETheta) [mV]"
0.8541,180,90,135,125.264,-3.82723825885815,63.1597458369001,-2.27157947492035,36.2628595393248
"Freq [GHz]","IWavePhi [deg]","IWaveTheta [deg]","Phi [deg]","Theta [deg]","re(rEPhi) [mV]","im(rEPhi) [mV]","re(rETheta) [mV]","im(rETheta) [mV]"
0.8541,180,90,-135,125.264,-3.88310582283909,63.0929827872452,2.34447329313062,-36.1263624896427
"Freq [GHz]","IWavePhi [deg]","IWaveTheta [deg]","Phi [deg]","Theta [deg]","re(rEPhi) [mV]","im(rEPhi) [mV]","re(rETheta) [mV]","im(rETheta) [mV]"
0.8541,180,90,62.632,90,2.17415428050463,-38.6241812858867,0.0394282349352058,0.00223943676250281
"Freq [GHz]","IWavePhi [deg]","IWaveTheta [deg]","Phi [deg]","Theta [deg]","re(rEPhi) [mV]","im(rEPhi) [mV]","re(rETheta) [mV]","im(rETheta) [mV]"
0.8541,180,90,117.368,90,-2.25021216232384,38.7361885415572,0.00769249619862521,0.0983719719266721
"Freq [GHz]","IWavePhi [deg]","IWaveTheta [deg]","Phi [deg]","Theta [deg]","re(rEPhi) [mV]","im(rEPhi) [mV]","re(rETheta) [mV]","im(rETheta) [mV]"
0.8541,180,90,-62.632,90,2.34158539042174,-38.7444418786691,0.00207122066824855,0.0917716597892637
"Freq [GHz]","IWavePhi [deg]","IWaveTheta [deg]","Phi [deg]","Theta [deg]","re(rEPhi) [mV]","im(rEPhi) [mV]","re(rETheta) [mV]","im(rETheta) [mV]"
0.8541,180,90,-117.368,90,-2.45301078693905,38.6982520184984,-0.0445019804852026,0.0100193612009258
"Freq [GHz]","IWavePhi [deg]","IWaveTheta [deg]","Phi [deg]","Theta [deg]","re(rEPhi) [mV]","im(rEPhi) [mV]","re(rETheta) [mV]","im(rETheta) [mV]"
0.8541,180,90,27.368,90,5.19725581913753,-84.5002505476021,0.022470648826866,0.116720422196742
"Freq [GHz]","IWavePhi [deg]","IWaveTheta [deg]","Phi [deg]","Theta [deg]","re(rEPhi) [mV]","im(rEPhi) [mV]","re(rETheta) [mV]","im(rETheta) [mV]"
0.8541,180,90,152.632,90,-5.14384697030702,84.529708125128,0.00522287696134671,0.0966624106939868
"Freq [GHz]","IWavePhi [deg]","IWaveTheta [deg]","Phi [deg]","Theta [deg]","re(rEPhi) [mV]","im(rEPhi) [mV]","re(rETheta) [mV]","im(rETheta) [mV]"
0.8541,180,90,-27.368,90,5.0789911382625,-84.5375738187363,0.0513325730648187,0.100716588792976
"Freq [GHz]","IWavePhi [deg]","IWaveTheta [deg]","Phi [deg]","Theta [deg]","re(rEPhi) [mV]","im(rEPhi) [mV]","re(rETheta) [mV]","im(rETheta) [mV]"
0.8541,180,90,-152.632,90,-5.03708713717257,84.4961721421106,0.032710142215208,0.135022447994578
"Freq [GHz]","IWavePhi [deg]","IWaveTheta [deg]","Phi [deg]","Theta [deg]","re(rEPhi) [mV]","im(rEPhi) [mV]","re(rETheta) [mV]","im(rETheta) [mV]"
0.8541,180,90,0,27.368,5.69391185346786,-90.5274579129436,-0.0502365582543767,0.0348031291403231
"Freq [GHz]","IWavePhi [deg]","IWaveTheta [deg]","Phi [deg]","Theta [deg]","re(rEPhi) [mV]","im(rEPhi) [mV]","re(rETheta) [mV]","im(rETheta) [mV]"
0.8541,180,90,180,27.368,-5.88456815582852,90.6336667442333,0.0335281359573308,0.114521761146372
"Freq [GHz]","IWavePhi [deg]","IWaveTheta [deg]","Phi [deg]","Theta [deg]","re(rEPhi) [mV]","im(rEPhi) [mV]","re(rETheta) [mV]","im(rETheta) [mV]"
0.8541,180,90,0,152.632,5.78892616214962,-90.6031788150934,-0.00198495135319997,0.0863341464067798
"Freq [GHz]","IWavePhi [deg]","IWaveTheta [deg]","Phi [deg]","Theta [deg]","re(rEPhi) [mV]","im(rEPhi) [mV]","re(rETheta) [mV]","im(rETheta) [mV]"
0.8541,180,90,180,152.632,-6.01749519812129,90.5641477343947,0.046991125535995,0.00328299460359287
"Freq [GHz]","IWavePhi [deg]","IWaveTheta [deg]","Phi [deg]","Theta [deg]","re(rEPhi) [mV]","im(rEPhi) [mV]","re(rETheta) [mV]","im(rETheta) [mV]"
0.8541,180,90,0,62.632,5.91129640475928,-97.0613963133333,0.0664745607758977,0.0759228731251219
"Freq [GHz]","IWavePhi [deg]","IWaveTheta [deg]","Phi [deg]","Theta [deg]","re(rEPhi) [mV]","im(rEPhi) [mV]","re(rETheta) [mV]","im(rETheta) [mV]"
0.8541,180,90,180,62.632,-5.9576666541585,96.9893655425685,0.0157596757338409,0.100165846529328
"Freq [GHz]","IWavePhi [deg]","IWaveTheta [deg]","Phi [deg]","Theta [deg]","re(rEPhi) [mV]","im(rEPhi) [mV]","re(rETheta) [mV]","im(rETheta) [mV]"
0.8541,180,90,0,117.368,5.97878525374852,-97.0097719858669,0.0111536562317274,0.104875969564872
"Freq [GHz]","IWavePhi [deg]","IWaveTheta [deg]","Phi [deg]","Theta [deg]","re(rEPhi) [mV]","im(rEPhi) [mV]","re(rETheta) [mV]","im(rETheta) [mV]"
0.8541,180,90,180,117.368,-6.00576709458546,97.086477738942,-0.0286017306862808,0.0779019658837509
"Freq [GHz]","IWavePhi [deg]","IWaveTheta [deg]","Phi [deg]","Theta [deg]","re(rEPhi) [mV]","im(rEPhi) [mV]","re(rETheta) [mV]","im(rETheta) [mV]"
0.8541,180,90,90,27.368,-0.0304468667201098,0.0400308230378169,4.96479274760181,-76.8039453773679
"Freq [GHz]","IWavePhi [deg]","IWaveTheta [deg]","Phi [deg]","Theta [deg]","re(rEPhi) [mV]","im(rEPhi) [mV]","re(rETheta) [mV]","im(rETheta) [mV]"
0.8541,180,90,-90,27.368,-0.00573860737492524,-0.0207339621568369,-5.01323920052031,76.9250634697556
"Freq [GHz]","IWavePhi [deg]","IWaveTheta [deg]","Phi [deg]","Theta [deg]","re(rEPhi) [mV]","im(rEPhi) [mV]","re(rETheta) [mV]","im(rETheta) [mV]"
0.8541,180,90,90,152.632,-0.0202859168158956,0.0360927007017049,-4.93533054271539,76.9205098564068
"Freq [GHz]","IWavePhi [deg]","IWaveTheta [deg]","Phi [deg]","Theta [deg]","re(rEPhi) [mV]","im(rEPhi) [mV]","re(rETheta) [mV]","im(rETheta) [mV]"
0.8541,180,90,-90,152.632,-0.0210808032243581,-0.0605128589557716,5.00680676846802,-76.805233575874
"Freq [GHz]","IWavePhi [deg]","IWaveTheta [deg]","Phi [deg]","Theta [deg]","re(rEPhi) [mV]","im(rEPhi) [mV]","re(rETheta) [mV]","im(rETheta) [mV]"
0.8541,180,90,90,62.632,0.0357091113934301,-0.105912048589246,2.40719195882022,-37.3615427002519
"Freq [GHz]","IWavePhi [deg]","IWaveTheta [deg]","Phi [deg]","Theta [deg]","re(rEPhi) [mV]","im(rEPhi) [mV]","re(rETheta) [mV]","im(rETheta) [mV]"
0.8541,180,90,-90,62.632,-0.0248871435019638,-0.0402996510336373,-2.35032209398041,37.4761497892989
"Freq [GHz]","IWavePhi [deg]","IWaveTheta [deg]","Phi [deg]","Theta [deg]","re(rEPhi) [mV]","im(rEPhi) [mV]","re(rETheta) [mV]","im(rETheta) [mV]"
0.8541,180,90,90,117.368,-0.0331711579693725,0.0122124746057098,-2.36280759092236,37.4979179512031
"Freq [GHz]","IWavePhi [deg]","IWaveTheta [deg]","Phi [deg]","Theta [deg]","re(rEPhi) [mV]","im(rEPhi) [mV]","re(rETheta) [mV]","im(rETheta) [mV]"
0.8541,180,90,-90,117.368,0.0540890319892239,0.0671226184561152,2.36401936772598,-37.3569914952714
"Freq [GHz]","IWavePhi [deg]","IWaveTheta [deg]","Phi [deg]","Theta [deg]","re(rEPhi) [mV]","im(rEPhi) [mV]","re(rETheta) [mV]","im(rETheta) [mV]"
0.8541,180,90,0,90,-8.69480792996653e-16,1.47276243013456e-14,-4.92520261282704e-18,-7.58231906683355e-18
"Freq [GHz]","IWavePhi [deg]","IWaveTheta [deg]","Phi [deg]","Theta [deg]","re(rEPhi) [mV]","im(rEPhi) [mV]","re(rETheta) [mV]","im(rETheta) [mV]"
0.8541,180,90,180,90,8.68869706207477e-16,-1.47231826537717e-14,1.96441722112607e-18,-1.57918108474184e-17
"Freq [GHz]","IWavePhi [deg]","IWaveTheta [deg]","Phi [deg]","Theta [deg]","re(rEPhi) [mV]","im(rEPhi) [mV]","re(rETheta) [mV]","im(rETheta) [mV]"
0.8541,180,90,90,90,6.61582613701692e-18,5.03531066552937e-18,7.88544102313336e-18,-8.99805387988987e-18
"Freq [GHz]","IWavePhi [deg]","IWaveTheta [deg]","Phi [deg]","Theta [deg]","re(rEPhi) [mV]","im(rEPhi) [mV]","re(rETheta) [mV]","im(rETheta) [mV]"
0.8541,180,90,-90,90,5.82646798801632e-18,-4.01917401508396e-18,-6.34308352163028e-18,-4.45430959273662e-18
"Freq [GHz]","IWavePhi [deg]","IWaveTheta [deg]","Phi [deg]","Theta [deg]","re(rEPhi) [mV]","im(rEPhi) [mV]","re(rETheta) [mV]","im(rETheta) [mV]"
0.8541,180,90,0,0,-8.26185611898994e-16,1.30563124800777e-14,-1.37557593374084e-18,-1.00968558516406e-17
"Freq [GHz]","IWavePhi [deg]","IWaveTheta [deg]","Phi [deg]","Theta [deg]","re(rEPhi) [mV]","im(rEPhi) [mV]","re(rETheta) [mV]","im(rETheta) [mV]"
