"Freq [GHz]","IWavePhi [deg]","IWaveTheta [deg]","Phi [deg]","Theta [deg]","re(rEPhi) [mV]","im(rEPhi) [mV]","re(rETheta) [mV]","im(rETheta) [mV]"
0.9253,180,90,0,90,10.9066198598309,94.3928303538423,-0.00357640817343965,-0.0272212003936337
"Freq [GHz]","IWavePhi [deg]","IWaveTheta [deg]","Phi [deg]","Theta [deg]","re(rEPhi) [mV]","im(rEPhi) [mV]","re(rETheta) [mV]","im(rETheta) [mV]"
0.9253,180,90,180,90,-10.8814399033422,-94.4248546224362,-0.0205759303483161,-0.0986393431804067
"Freq [GHz]","IWavePhi [deg]","IWaveTheta [deg]","Phi [deg]","Theta [deg]","re(rEPhi) [mV]","im(rEPhi) [mV]","re(rETheta) [mV]","im(rETheta) [mV]"
0.9253,180,90,90,90,0.0622583392273937,-0.0290039154178169,0.0292125828802852,-0.0939408008551946
"Freq [GHz]","IWavePhi [deg]","IWaveTheta [deg]","Phi [deg]","Theta [deg]","re(rEPhi) [mV]","im(rEPhi) [mV]","re(rETheta) [mV]","im(rETheta) [mV]"
0.9253,180,90,-90,90,0.0356425505679845,-0.0786383845424318,-0.0539178938848361,-0.00220682095470348
"Freq [GHz]","IWavePhi [deg]","IWaveTheta [deg]","Phi [deg]","Theta [deg]","re(rEPhi) [mV]","im(rEPhi) [mV]","re(rETheta) [mV]","im(rETheta) [mV]"
0.9253,180,90,0,0,8.86592806257131,82.0597565927195,-0.0728340915986008,-0.0677515809867713
"Freq [GHz]","IWavePhi [deg]","IWaveTheta [deg]","Phi [deg]","Theta [deg]","re(rEPhi) [mV]","im(rEPhi) [mV]","re(rETheta) [mV]","im(rETheta) [mV]"
0.9253,180,90,0,180,8.8814279612428,82.1374111557247,0.112238486863138,0.0886205261438393
"Freq [GHz]","IWavePhi [deg]","IWaveTheta [deg]","Phi [deg]","Theta [deg]","re(rEPhi) [mV]","im(rEPhi) [mV]","re(rETheta) [mV]","im(rETheta) [mV]"
0.9253,180,90,45,54.736,6.76515737051546,58.8678862917172,3.74080434505724,33.6777278006226
"Freq [GHz]","IWavePhi [deg]","IWaveTheta [deg]","Phi [deg]","Theta [deg]","re(rEPhi) [mV]","im(rEPhi) [mV]","re(rETheta) [mV]","im(rETheta) [mV]"
0.9253,180,90,135,54.736,-6.71303002081523,-58.8865736401498,3.72007278673427,33.626931371398
"Freq [GHz]","IWavePhi [deg]","IWaveTheta [deg]","Phi [deg]","Theta [deg]","re(rEPhi) [mV]","im(rEPhi) [mV]","re(rETheta) [mV]","im(rETheta) [mV]"
0.9253,180,90,-45,54.736,6.78514384926807,58.8674115074604,-3.73700726761085,-33.7542383792194
"Freq [GHz]","IWavePhi [deg]","IWaveTheta [deg]","Phi [deg]","Theta [deg]","re(rEPhi) [mV]","im(rEPhi) [mV]","re(rETheta) [mV]","im(rETheta) [mV]"
0.9253,180,90,45,125.264,6.77947678938022,58.8810215825716,-3.71019726489531,-33.7785640736371
"Freq [GHz]","IWavePhi [deg]","IWaveTheta [deg]","Phi [deg]","Theta [deg]","re(rEPhi) [mV]","im(rEPhi) [mV]","re(rETheta) [mV]","im(rETheta) [mV]"
0.9253,180,90,-135,54.736,-6.84536022053729,-58.8398988454065,-3.79905812671341,-33.7077074387205
"Freq [GHz]","IWavePhi [deg]","IWaveTheta [deg]","Phi [deg]","Theta [deg]","re(rEPhi) [mV]","im(rEPhi) [mV]","re(rETheta) [mV]","im(rETheta) [mV]"
0.9253,180,90,-45,125.264,6.82483307948107,58.7630158087697,3.70159534703467,33.6616381962822
"Freq [GHz]","IWavePhi [deg]","IWaveTheta [deg]","Phi [deg]","Theta [deg]","re(rEPhi) [mV]","im(rEPhi) [mV]","re(rETheta) [mV]","im(rETheta) [mV]"
0.9253,180,90,135,125.264,-6.81690428406057,-58.8328548990502,-3.73303267557268,-33.7457785356853
"Freq [GHz]","IWavePhi [deg]","IWaveTheta [deg]","Phi [deg]","Theta [deg]","re(rEPhi) [mV]","im(rEPhi) [mV]","re(rETheta) [mV]","im(rETheta) [mV]"
0.9253,180,90,-135,125.264,-6.7846567684816,-58.841484021474,3.73719802159235,33.67289774116
"Freq [GHz]","IWavePhi [deg]","IWaveTheta [deg]","Phi [deg]","Theta [deg]","re(rEPhi) [mV]","im(rEPhi) [mV]","re(rETheta) [mV]","im(rETheta) [mV]"
0.9253,360,90,0,90,-10.9066198598309,-94.3928303538423,0.00357640817006736,0.0272212003697282
"Freq [GHz]","IWavePhi [deg]","IWaveTheta [deg]","Phi [deg]","Theta [deg]","re(rEPhi) [mV]","im(rEPhi) [mV]","re(rETheta) [mV]","im(rETheta) [mV]"
0.9253,360,90,180,90,10.8814399033422,94.4248546224362,0.0205759303519688,0.0986393431820298
"Freq [GHz]","IWavePhi [deg]","IWaveTheta [deg]","Phi [deg]","Theta [deg]","re(rEPhi) [mV]","im(rEPhi) [mV]","re(rETheta) [mV]","im(rETheta) [mV]"
0.9253,360,90,90,90,-0.0622583392328378,0.0290039153661581,-0.0292125828838101,0.0939408008784118
"Freq [GHz]","IWavePhi [deg]","IWaveTheta [deg]","Phi [deg]","Theta [deg]","re(rEPhi) [mV]","im(rEPhi) [mV]","re(rETheta) [mV]","im(rETheta) [mV]"
0.9253,360,90,-90,90,-0.0356425505594352,0.0786383845197854,0.0539178938915711,0.00220682095189455
"Freq [GHz]","IWavePhi [deg]","IWaveTheta [deg]","Phi [deg]","Theta [deg]","re(rEPhi) [mV]","im(rEPhi) [mV]","re(rETheta) [mV]","im(rETheta) [mV]"
0.9253,360,90,0,0,-8.86592806257131,-82.0597565927195,0.0728340915742055,0.0677515809523845
"Freq [GHz]","IWavePhi [deg]","IWaveTheta [deg]","Phi [deg]","Theta [deg]","re(rEPhi) [mV]","im(rEPhi) [mV]","re(rETheta) [mV]","im(rETheta) [mV]"
0.9253,360,90,0,180,-8.8814279612428,-82.1374111557247,-0.112238486841517,-0.0886205261697421
"Freq [GHz]","IWavePhi [deg]","IWaveTheta [deg]","Phi [deg]","Theta [deg]","re(rEPhi) [mV]","im(rEPhi) [mV]","re(rETheta) [mV]","im(rETheta) [mV]"
0.9253,360,90,45,54.736,-6.76515737051879,-58.8678862917001,-3.74080434504767,-33.6777278006364
"Freq [GHz]","IWavePhi [deg]","IWaveTheta [deg]","Phi [deg]","Theta [deg]","re(rEPhi) [mV]","im(rEPhi) [mV]","re(rETheta) [mV]","im(rETheta) [mV]"
0.9253,360,90,135,54.736,6.71303002082745,58.8865736401375,-3.72007278672662,-33.626931371398
"Freq [GHz]","IWavePhi [deg]","IWaveTheta [deg]","Phi [deg]","Theta [deg]","re(rEPhi) [mV]","im(rEPhi) [mV]","re(rETheta) [mV]","im(rETheta) [mV]"
0.9253,360,90,-45,54.736,-6.78514384924974,-58.8674115074758,3.7370072676228,33.7542383792095
"Freq [GHz]","IWavePhi [deg]","IWaveTheta [deg]","Phi [deg]","Theta [deg]","re(rEPhi) [mV]","im(rEPhi) [mV]","re(rETheta) [mV]","im(rETheta) [mV]"
0.9253,360,90,45,125.264,-6.77947678936305,-58.8810215825889,3.71019726490088,33.7785640736398
"Freq [GHz]","IWavePhi [deg]","IWaveTheta [deg]","Phi [deg]","Theta [deg]","re(rEPhi) [mV]","im(rEPhi) [mV]","re(rETheta) [mV]","im(rETheta) [mV]"
0.9253,360,90,-135,54.736,6.84536022051109,58.8398988453926,3.79905812671469,33.7077074387298
"Freq [GHz]","IWavePhi [deg]","IWaveTheta [deg]","Phi [deg]","Theta [deg]","re(rEPhi) [mV]","im(rEPhi) [mV]","re(rETheta) [mV]","im(rETheta) [mV]"
0.9253,360,90,-45,125.264,-6.82483307951746,-58.763015808779,-3.70159534703362,-33.66163819628
"Freq [GHz]","IWavePhi [deg]","IWaveTheta [deg]","Phi [deg]","Theta [deg]","re(rEPhi) [mV]","im(rEPhi) [mV]","re(rETheta) [mV]","im(rETheta) [mV]"
0.9253,360,90,135,125.264,6.81690428403706,58.832854899032,3.733032675602,33.7457785357071
"Freq [GHz]","IWavePhi [deg]","IWaveTheta [deg]","Phi [deg]","Theta [deg]","re(rEPhi) [mV]","im(rEPhi) [mV]","re(rETheta) [mV]","im(rETheta) [mV]"
0.9253,360,90,-135,125.264,6.78465676847046,58.8414840215101,-3.73719802160878,-33.6728977411224
"Freq [GHz]","IWavePhi [deg]","IWaveTheta [deg]","Phi [deg]","Theta [deg]","re(rEPhi) [mV]","im(rEPhi) [mV]","re(rETheta) [mV]","im(rETheta) [mV]"
0.9253,270,90,0,90,1.75842604937317e-15,1.34171516044689e-14,3.50573886743607e-18,-5.52446927915846e-18
"Freq [GHz]","IWavePhi [deg]","IWaveTheta [deg]","Phi [deg]","Theta [deg]","re(rEPhi) [mV]","im(rEPhi) [mV]","re(rETheta) [mV]","im(rETheta) [mV]"
0.9253,270,90,180,90,-1.75670050218251e-15,-1.34052882668828e-14,2.4864180185395e-20,-1.38353742848221e-17
"Freq [GHz]","IWavePhi [deg]","IWaveTheta [deg]","Phi [deg]","Theta [deg]","re(rEPhi) [mV]","im(rEPhi) [mV]","re(rETheta) [mV]","im(rETheta) [mV]"
0.9253,270,90,90,90,6.27442680277493e-18,-6.24294985223776e-18,1.14627542747437e-17,-1.94331424499655e-17
"Freq [GHz]","IWavePhi [deg]","IWaveTheta [deg]","Phi [deg]","Theta [deg]","re(rEPhi) [mV]","im(rEPhi) [mV]","re(rETheta) [mV]","im(rETheta) [mV]"
0.9253,270,90,-90,90,5.989365302161e-18,-1.00048449007029e-17,-1.59257399203896e-17,1.80089356418299e-18
"Freq [GHz]","IWavePhi [deg]","IWaveTheta [deg]","Phi [deg]","Theta [deg]","re(rEPhi) [mV]","im(rEPhi) [mV]","re(rETheta) [mV]","im(rETheta) [mV]"
0.9253,270,90,0,0,1.43974853851978e-15,1.16458567291935e-14,-1.19745964129662e-17,-8.57150810175051e-18
"Freq [GHz]","IWavePhi [deg]","IWaveTheta [deg]","Phi [deg]","Theta [deg]","re(rEPhi) [mV]","im(rEPhi) [mV]","re(rETheta) [mV]","im(rETheta) [mV]"
0.9253,270,90,0,180,1.4531221737894e-15,1.16550689555162e-14,1.63026713270369e-17,1.31616607755167e-17
"Freq [GHz]","IWavePhi [deg]","IWaveTheta [deg]","Phi [deg]","Theta [deg]","re(rEPhi) [mV]","im(rEPhi) [mV]","re(rETheta) [mV]","im(rETheta) [mV]"
0.9253,270,90,45,54.736,-2.15733517960883e-17,8.38184933154639e-15,-4.81227418378659e-17,4.80017652384765e-15
"Freq [GHz]","IWavePhi [deg]","IWaveTheta [deg]","Phi [deg]","Theta [deg]","re(rEPhi) [mV]","im(rEPhi) [mV]","re(rETheta) [mV]","im(rETheta) [mV]"
0.9253,270,90,135,54.736,2.40390962834995e-17,-8.38424468417587e-15,-5.26242810381606e-17,4.79047942308412e-15
"Freq [GHz]","IWavePhi [deg]","IWaveTheta [deg]","Phi [deg]","Theta [deg]","re(rEPhi) [mV]","im(rEPhi) [mV]","re(rETheta) [mV]","im(rETheta) [mV]"
0.9253,270,90,-45,54.736,2.11695119048067e-15,8.33209396644251e-15,-1.214802624059e-15,-4.77883190119125e-15
"Freq [GHz]","IWavePhi [deg]","IWaveTheta [deg]","Phi [deg]","Theta [deg]","re(rEPhi) [mV]","im(rEPhi) [mV]","re(rETheta) [mV]","im(rETheta) [mV]"
0.9253,270,90,45,125.264,-1.1816651405543e-17,8.37907119477172e-15,6.12736767859269e-17,-4.81749233022954e-15
"Freq [GHz]","IWavePhi [deg]","IWaveTheta [deg]","Phi [deg]","Theta [deg]","re(rEPhi) [mV]","im(rEPhi) [mV]","re(rETheta) [mV]","im(rETheta) [mV]"
0.9253,270,90,-135,54.736,-2.12242727353316e-15,-8.32854924002153e-15,-1.22305773645345e-15,-4.7706790808927e-15
"Freq [GHz]","IWavePhi [deg]","IWaveTheta [deg]","Phi [deg]","Theta [deg]","re(rEPhi) [mV]","im(rEPhi) [mV]","re(rETheta) [mV]","im(rETheta) [mV]"
0.9253,270,90,-45,125.264,2.12308450380884e-15,8.3117244778612e-15,1.2023460234645e-15,4.76575591788389e-15
"Freq [GHz]","IWavePhi [deg]","IWaveTheta [deg]","Phi [deg]","Theta [deg]","re(rEPhi) [mV]","im(rEPhi) [mV]","re(rETheta) [mV]","im(rETheta) [mV]"
0.9253,270,90,135,125.264,1.07268110205555e-17,-8.37749843036114e-15,6.13002280262775e-17,-4.81580870252197e-15
"Freq [GHz]","IWavePhi [deg]","IWaveTheta [deg]","Phi [deg]","Theta [deg]","re(rEPhi) [mV]","im(rEPhi) [mV]","re(rETheta) [mV]","im(rETheta) [mV]"
0.9253,270,90,-135,125.264,-2.12009351702223e-15,-8.32521015752156e-15,1.20897548100559e-15,4.76770731089746e-15
"Freq [GHz]","IWavePhi [deg]","IWaveTheta [deg]","Phi [deg]","Theta [deg]","re(rEPhi) [mV]","im(rEPhi) [mV]","re(rETheta) [mV]","im(rETheta) [mV]"
0.9253,90,90,0,90,-5.98604687487417e-16,-4.47023338241849e-15,3.30419379448936e-18,3.29685478473752e-18
"Freq [GHz]","IWavePhi [deg]","IWaveTheta [deg]","Phi [deg]","Theta [deg]","re(rEPhi) [mV]","im(rEPhi) [mV]","re(rETheta) [mV]","im(rETheta) [mV]"
0.9253,90,90,180,90,6.00845452960461e-16,4.46928977649642e-15,4.04425451472206e-18,6.77564568248124e-18
"Freq [GHz]","IWavePhi [deg]","IWaveTheta [deg]","Phi [deg]","Theta [deg]","re(rEPhi) [mV]","im(rEPhi) [mV]","re(rETheta) [mV]","im(rETheta) [mV]"
0.9253,90,90,90,90,-3.1346534058551e-18,1.03296682309888e-18,-1.69978935128599e-19,6.82593109960587e-18
"Freq [GHz]","IWavePhi [deg]","IWaveTheta [deg]","Phi [deg]","Theta [deg]","re(rEPhi) [mV]","im(rEPhi) [mV]","re(rETheta) [mV]","im(rETheta) [mV]"
0.9253,90,90,-90,90,-1.26080143815604e-18,3.58922265687059e-18,5.43808153466795e-18,1.45715223142469e-19
"Freq [GHz]","IWavePhi [deg]","IWaveTheta [deg]","Phi [deg]","Theta [deg]","re(rEPhi) [mV]","im(rEPhi) [mV]","re(rETheta) [mV]","im(rETheta) [mV]"
0.9253,90,90,0,0,-4.9162724096358e-16,-3.87802883724525e-15,3.42923311293221e-18,3.65071221777681e-18
"Freq [GHz]","IWavePhi [deg]","IWaveTheta [deg]","Phi [deg]","Theta [deg]","re(rEPhi) [mV]","im(rEPhi) [mV]","re(rETheta) [mV]","im(rETheta) [mV]"
0.9253,90,90,0,180,-4.90410378635118e-16,-3.88186094988409e-15,-5.53400119773084e-18,-4.57588584525546e-18
"Freq [GHz]","IWavePhi [deg]","IWaveTheta [deg]","Phi [deg]","Theta [deg]","re(rEPhi) [mV]","im(rEPhi) [mV]","re(rETheta) [mV]","im(rETheta) [mV]"
0.9253,90,90,45,54.736,-7.15010166650506e-16,-2.775165883358e-15,-4.10402788275407e-16,-1.58571623380742e-15
"Freq [GHz]","IWavePhi [deg]","IWaveTheta [deg]","Phi [deg]","Theta [deg]","re(rEPhi) [mV]","im(rEPhi) [mV]","re(rETheta) [mV]","im(rETheta) [mV]"
0.9253,90,90,135,54.736,7.09635889469276e-16,2.77568175292037e-15,-4.08541006376103e-16,-1.58405501128856e-15
"Freq [GHz]","IWavePhi [deg]","IWaveTheta [deg]","Phi [deg]","Theta [deg]","re(rEPhi) [mV]","im(rEPhi) [mV]","re(rETheta) [mV]","im(rETheta) [mV]"
0.9253,90,90,-45,54.736,5.58959976557877e-20,-2.7912139446715e-15,-1.40736869389035e-17,1.60377546640766e-15
"Freq [GHz]","IWavePhi [deg]","IWaveTheta [deg]","Phi [deg]","Theta [deg]","re(rEPhi) [mV]","im(rEPhi) [mV]","re(rETheta) [mV]","im(rETheta) [mV]"
0.9253,90,90,45,125.264,-7.1485636409263e-16,-2.77593815044994e-15,4.12688770966673e-16,1.59550194842935e-15
"Freq [GHz]","IWavePhi [deg]","IWaveTheta [deg]","Phi [deg]","Theta [deg]","re(rEPhi) [mV]","im(rEPhi) [mV]","re(rETheta) [mV]","im(rETheta) [mV]"
0.9253,90,90,-135,54.736,3.33808835105207e-18,2.79221367120405e-15,-9.57326977040915e-18,1.60334586811712e-15
"Freq [GHz]","IWavePhi [deg]","IWaveTheta [deg]","Phi [deg]","Theta [deg]","re(rEPhi) [mV]","im(rEPhi) [mV]","re(rETheta) [mV]","im(rETheta) [mV]"
0.9253,90,90,-45,125.264,-1.54896240323884e-18,-2.78681294814363e-15,2.03937277319078e-17,-1.59855624504135e-15
"Freq [GHz]","IWavePhi [deg]","IWaveTheta [deg]","Phi [deg]","Theta [deg]","re(rEPhi) [mV]","im(rEPhi) [mV]","re(rETheta) [mV]","im(rETheta) [mV]"
0.9253,90,90,135,125.264,7.16011586339566e-16,2.77373086053991e-15,4.12388036054101e-16,1.59355641093343e-15
"Freq [GHz]","IWavePhi [deg]","IWaveTheta [deg]","Phi [deg]","Theta [deg]","re(rEPhi) [mV]","im(rEPhi) [mV]","re(rETheta) [mV]","im(rETheta) [mV]"
0.9253,90,90,-135,125.264,-3.43800399912617e-19,2.79226512496077e-15,1.84065185062817e-17,-1.60035024916392e-15
"Freq [GHz]","IWavePhi [deg]","IWaveTheta [deg]","Phi [deg]","Theta [deg]","re(rEPhi) [mV]","im(rEPhi) [mV]","re(rETheta) [mV]","im(rETheta) [mV]"
0.9253,180,180,0,90,8.71803850567285,82.2271150899011,0.00607165083137603,-0.0528483082607927
"Freq [GHz]","IWavePhi [deg]","IWaveTheta [deg]","Phi [deg]","Theta [deg]","re(rEPhi) [mV]","im(rEPhi) [mV]","re(rETheta) [mV]","im(rETheta) [mV]"
0.9253,180,180,180,90,-8.70531739830392,-82.2061402229333,0.00657587034081325,-0.0605889006369068
"Freq [GHz]","IWavePhi [deg]","IWaveTheta [deg]","Phi [deg]","Theta [deg]","re(rEPhi) [mV]","im(rEPhi) [mV]","re(rETheta) [mV]","im(rETheta) [mV]"
0.9253,180,180,90,90,0.0512270744628941,-0.00122042588045939,13.4579795960809,0.814680466801121
"Freq [GHz]","IWavePhi [deg]","IWaveTheta [deg]","Phi [deg]","Theta [deg]","re(rEPhi) [mV]","im(rEPhi) [mV]","re(rETheta) [mV]","im(rETheta) [mV]"
0.9253,180,180,-90,90,0.0103274567235672,-0.0622407258131949,-13.4884900012523,-0.837526349937736
"Freq [GHz]","IWavePhi [deg]","IWaveTheta [deg]","Phi [deg]","Theta [deg]","re(rEPhi) [mV]","im(rEPhi) [mV]","re(rETheta) [mV]","im(rETheta) [mV]"
0.9253,180,180,0,0,17.8708887750461,73.4714758168797,-0.0731999805388197,-0.0370723900802248
"Freq [GHz]","IWavePhi [deg]","IWaveTheta [deg]","Phi [deg]","Theta [deg]","re(rEPhi) [mV]","im(rEPhi) [mV]","re(rETheta) [mV]","im(rETheta) [mV]"
0.9253,180,180,0,180,-1.57517500077938,69.562700339026,0.0980095687759261,0.0911132329656453
"Freq [GHz]","IWavePhi [deg]","IWaveTheta [deg]","Phi [deg]","Theta [deg]","re(rEPhi) [mV]","im(rEPhi) [mV]","re(rETheta) [mV]","im(rETheta) [mV]"
0.9253,180,180,45,54.736,9.37092242916376,52.0193460962639,13.1440970599686,30.2671159298568
"Freq [GHz]","IWavePhi [deg]","IWaveTheta [deg]","Phi [deg]","Theta [deg]","re(rEPhi) [mV]","im(rEPhi) [mV]","re(rETheta) [mV]","im(rETheta) [mV]"
0.9253,180,180,135,54.736,-9.29338899259591,-52.1284276036704,13.1072430180078,30.2655526161664
"Freq [GHz]","IWavePhi [deg]","IWaveTheta [deg]","Phi [deg]","Theta [deg]","re(rEPhi) [mV]","im(rEPhi) [mV]","re(rETheta) [mV]","im(rETheta) [mV]"
0.9253,180,180,-45,54.736,9.41825164939547,52.0524523483131,-13.1421904817939,-30.3281292718993
"Freq [GHz]","IWavePhi [deg]","IWaveTheta [deg]","Phi [deg]","Theta [deg]","re(rEPhi) [mV]","im(rEPhi) [mV]","re(rETheta) [mV]","im(rETheta) [mV]"
0.9253,180,180,45,125.264,1.89925673723965,50.5382309136804,6.34117952707973,-28.4910130762355
"Freq [GHz]","IWavePhi [deg]","IWaveTheta [deg]","Phi [deg]","Theta [deg]","re(rEPhi) [mV]","im(rEPhi) [mV]","re(rETheta) [mV]","im(rETheta) [mV]"
0.9253,180,180,-135,54.736,-9.46355234078446,-52.0020023118971,-13.1978056398139,-30.2562652882423
"Freq [GHz]","IWavePhi [deg]","IWaveTheta [deg]","Phi [deg]","Theta [deg]","re(rEPhi) [mV]","im(rEPhi) [mV]","re(rETheta) [mV]","im(rETheta) [mV]"
0.9253,180,180,-45,125.264,1.96746064852519,50.3213126564999,-6.33951727377659,28.3912867775366
"Freq [GHz]","IWavePhi [deg]","IWaveTheta [deg]","Phi [deg]","Theta [deg]","re(rEPhi) [mV]","im(rEPhi) [mV]","re(rETheta) [mV]","im(rETheta) [mV]"
0.9253,180,180,135,125.264,-1.93462052721841,-50.4632323334516,6.33440760254043,-28.4807896145246
"Freq [GHz]","IWavePhi [deg]","IWaveTheta [deg]","Phi [deg]","Theta [deg]","re(rEPhi) [mV]","im(rEPhi) [mV]","re(rETheta) [mV]","im(rETheta) [mV]"
0.9253,180,180,-135,125.264,-1.85458867359293,-50.457148086236,-6.34675664074988,28.423187512774
"Freq [GHz]","IWavePhi [deg]","IWaveTheta [deg]","Phi [deg]","Theta [deg]","re(rEPhi) [mV]","im(rEPhi) [mV]","re(rETheta) [mV]","im(rETheta) [mV]"
0.9253,180,0,0,90,8.79019682857704,82.2470627264377,0.0091042537291456,-0.00277407697323408
"Freq [GHz]","IWavePhi [deg]","IWaveTheta [deg]","Phi [deg]","Theta [deg]","re(rEPhi) [mV]","im(rEPhi) [mV]","re(rETheta) [mV]","im(rETheta) [mV]"
0.9253,180,0,180,90,-8.82931950785632,-82.1677747383196,-0.0484367571091585,-0.0405689791597113
"Freq [GHz]","IWavePhi [deg]","IWaveTheta [deg]","Phi [deg]","Theta [deg]","re(rEPhi) [mV]","im(rEPhi) [mV]","re(rETheta) [mV]","im(rETheta) [mV]"
0.9253,180,0,90,90,0.0481664876836564,-0.0182063650357462,-13.4184350471478,-0.951681315586801
"Freq [GHz]","IWavePhi [deg]","IWaveTheta [deg]","Phi [deg]","Theta [deg]","re(rEPhi) [mV]","im(rEPhi) [mV]","re(rETheta) [mV]","im(rETheta) [mV]"
0.9253,180,0,-90,90,0.00770022243655202,-0.0732508427552355,13.3959873342353,0.861829811095126
"Freq [GHz]","IWavePhi [deg]","IWaveTheta [deg]","Phi [deg]","Theta [deg]","re(rEPhi) [mV]","im(rEPhi) [mV]","re(rETheta) [mV]","im(rETheta) [mV]"
0.9253,180,0,0,0,-1.51194460836876,69.4396086667853,-0.0430477678901861,-0.0587568259192577
"Freq [GHz]","IWavePhi [deg]","IWaveTheta [deg]","Phi [deg]","Theta [deg]","re(rEPhi) [mV]","im(rEPhi) [mV]","re(rETheta) [mV]","im(rETheta) [mV]"
0.9253,180,0,0,180,17.8872794245406,73.5847355855431,0.0822026844313418,0.0770103252082926
"Freq [GHz]","IWavePhi [deg]","IWaveTheta [deg]","Phi [deg]","Theta [deg]","re(rEPhi) [mV]","im(rEPhi) [mV]","re(rETheta) [mV]","im(rETheta) [mV]"
0.9253,180,0,45,54.736,1.9715702358543,50.4316959810993,-6.28113079945858,28.3811198875054
"Freq [GHz]","IWavePhi [deg]","IWaveTheta [deg]","Phi [deg]","Theta [deg]","re(rEPhi) [mV]","im(rEPhi) [mV]","re(rETheta) [mV]","im(rETheta) [mV]"
0.9253,180,0,135,54.736,-1.86285216626507,-50.501073301325,-6.3076062787707,28.3739840132326
"Freq [GHz]","IWavePhi [deg]","IWaveTheta [deg]","Phi [deg]","Theta [deg]","re(rEPhi) [mV]","im(rEPhi) [mV]","re(rETheta) [mV]","im(rETheta) [mV]"
0.9253,180,0,-45,54.736,2.00969568975173,50.4560001618144,6.24553174980497,-28.4285453458367
"Freq [GHz]","IWavePhi [deg]","IWaveTheta [deg]","Phi [deg]","Theta [deg]","re(rEPhi) [mV]","im(rEPhi) [mV]","re(rETheta) [mV]","im(rETheta) [mV]"
0.9253,180,0,45,125.264,9.40294133759819,52.050936744507,-13.1172952360941,-30.332556382818
"Freq [GHz]","IWavePhi [deg]","IWaveTheta [deg]","Phi [deg]","Theta [deg]","re(rEPhi) [mV]","im(rEPhi) [mV]","re(rETheta) [mV]","im(rETheta) [mV]"
0.9253,180,0,-135,54.736,-1.97516930133457,-50.4188862977961,6.26151892365272,-28.4017546869569
