"Freq [GHz]","IWavePhi [deg]","IWaveTheta [deg]","Phi [deg]","Theta [deg]","re(rEPhi) [mV]","im(rEPhi) [mV]","re(rETheta) [mV]","im(rETheta) [mV]"
1.2812,180,90,0,90,29.0239829493733,68.8451235077385,-0.0433401690193809,-0.0160407893142788
"Freq [GHz]","IWavePhi [deg]","IWaveTheta [deg]","Phi [deg]","Theta [deg]","re(rEPhi) [mV]","im(rEPhi) [mV]","re(rETheta) [mV]","im(rETheta) [mV]"
1.2812,180,90,180,90,-29.0211113646851,-68.8066511277616,-0.0331747196638631,-0.0212869533552033
"Freq [GHz]","IWavePhi [deg]","IWaveTheta [deg]","Phi [deg]","Theta [deg]","re(rEPhi) [mV]","im(rEPhi) [mV]","re(rETheta) [mV]","im(rETheta) [mV]"
1.2812,180,90,90,90,-0.00306279264430033,0.00789176269870029,0.0234630225012539,-0.0220821155249253
"Freq [GHz]","IWavePhi [deg]","IWaveTheta [deg]","Phi [deg]","Theta [deg]","re(rEPhi) [mV]","im(rEPhi) [mV]","re(rETheta) [mV]","im(rETheta) [mV]"
1.2812,180,90,-90,90,0.0226427938044253,-0.00644860175192709,-0.0269545948723713,0.0254849697393652
"Freq [GHz]","IWavePhi [deg]","IWaveTheta [deg]","Phi [deg]","Theta [deg]","re(rEPhi) [mV]","im(rEPhi) [mV]","re(rETheta) [mV]","im(rETheta) [mV]"
1.2812,180,90,0,0,20.4647593000369,52.8818156218556,-0.00208885711997442,0.0132700072670669
"Freq [GHz]","IWavePhi [deg]","IWaveTheta [deg]","Phi [deg]","Theta [deg]","re(rEPhi) [mV]","im(rEPhi) [mV]","re(rETheta) [mV]","im(rETheta) [mV]"
1.2812,180,90,0,180,20.4169298350584,52.7554892789319,-0.0237905748942153,-0.0161236076845333
"Freq [GHz]","IWavePhi [deg]","IWaveTheta [deg]","Phi [deg]","Theta [deg]","re(rEPhi) [mV]","im(rEPhi) [mV]","re(rETheta) [mV]","im(rETheta) [mV]"
1.2812,180,90,45,54.736,16.1799950461069,38.7060254715442,8.97882236669646,22.1593835085969
"Freq [GHz]","IWavePhi [deg]","IWaveTheta [deg]","Phi [deg]","Theta [deg]","re(rEPhi) [mV]","im(rEPhi) [mV]","re(rETheta) [mV]","im(rETheta) [mV]"
1.2812,180,90,135,54.736,-16.1333020507661,-38.7840817708357,8.96694189583235,22.2497358475023
"Freq [GHz]","IWavePhi [deg]","IWaveTheta [deg]","Phi [deg]","Theta [deg]","re(rEPhi) [mV]","im(rEPhi) [mV]","re(rETheta) [mV]","im(rETheta) [mV]"
1.2812,180,90,-45,54.736,16.2038857855386,38.7452777155345,-9.0047321345135,-22.228425026025
"Freq [GHz]","IWavePhi [deg]","IWaveTheta [deg]","Phi [deg]","Theta [deg]","re(rEPhi) [mV]","im(rEPhi) [mV]","re(rETheta) [mV]","im(rETheta) [mV]"
1.2812,180,90,45,125.264,16.1171056748696,38.7462061848015,-8.93636173440317,-22.2407201146123
"Freq [GHz]","IWavePhi [deg]","IWaveTheta [deg]","Phi [deg]","Theta [deg]","re(rEPhi) [mV]","im(rEPhi) [mV]","re(rETheta) [mV]","im(rETheta) [mV]"
1.2812,180,90,-135,54.736,-16.2361700528956,-38.7622581815158,-9.03046402664112,-22.2283996755285
"Freq [GHz]","IWavePhi [deg]","IWaveTheta [deg]","Phi [deg]","Theta [deg]","re(rEPhi) [mV]","im(rEPhi) [mV]","re(rETheta) [mV]","im(rETheta) [mV]"
1.2812,180,90,-45,125.264,16.2330149090255,38.6945501610485,8.96177728662308,22.1875187836766
"Freq [GHz]","IWavePhi [deg]","IWaveTheta [deg]","Phi [deg]","Theta [deg]","re(rEPhi) [mV]","im(rEPhi) [mV]","re(rETheta) [mV]","im(rETheta) [mV]"
1.2812,180,90,135,125.264,-16.1179891908495,-38.6576903840401,-8.93380495844014,-22.2006370152253
"Freq [GHz]","IWavePhi [deg]","IWaveTheta [deg]","Phi [deg]","Theta [deg]","re(rEPhi) [mV]","im(rEPhi) [mV]","re(rETheta) [mV]","im(rETheta) [mV]"
1.2812,180,90,-135,125.264,-16.0616934712249,-38.6319940276384,8.86703442144391,22.1863621332828
"Freq [GHz]","IWavePhi [deg]","IWaveTheta [deg]","Phi [deg]","Theta [deg]","re(rEPhi) [mV]","im(rEPhi) [mV]","re(rETheta) [mV]","im(rETheta) [mV]"
1.2812,180,90,0,90,-29.0239829493733,-68.8451235077385,0.0433401690194083,0.0160407893142035
"Freq [GHz]","IWavePhi [deg]","IWaveTheta [deg]","Phi [deg]","Theta [deg]","re(rEPhi) [mV]","im(rEPhi) [mV]","re(rETheta) [mV]","im(rETheta) [mV]"
1.2812,180,90,180,90,29.0211113646851,68.8066511277616,0.0331747196638405,0.0212869533551127
"Freq [GHz]","IWavePhi [deg]","IWaveTheta [deg]","Phi [deg]","Theta [deg]","re(rEPhi) [mV]","im(rEPhi) [mV]","re(rETheta) [mV]","im(rETheta) [mV]"
1.2812,180,90,90,90,0.00306279264622368,-0.00789176270368174,-0.0234630225012483,0.0220821155249198
"Freq [GHz]","IWavePhi [deg]","IWaveTheta [deg]","Phi [deg]","Theta [deg]","re(rEPhi) [mV]","im(rEPhi) [mV]","re(rETheta) [mV]","im(rETheta) [mV]"
1.2812,180,90,-90,90,-0.0226427938043456,0.00644860174817768,0.0269545948723771,-0.0254849697393596
"Freq [GHz]","IWavePhi [deg]","IWaveTheta [deg]","Phi [deg]","Theta [deg]","re(rEPhi) [mV]","im(rEPhi) [mV]","re(rETheta) [mV]","im(rETheta) [mV]"
1.2812,180,90,0,0,-20.4647593000369,-52.8818156218556,0.00208885711903264,-0.0132700072673926
"Freq [GHz]","IWavePhi [deg]","IWaveTheta [deg]","Phi [deg]","Theta [deg]","re(rEPhi) [mV]","im(rEPhi) [mV]","re(rETheta) [mV]","im(rETheta) [mV]"
1.2812,180,90,0,180,-20.4169298350584,-52.7554892789319,0.0237905748930808,0.0161236076849278
"Freq [GHz]","IWavePhi [deg]","IWaveTheta [deg]","Phi [deg]","Theta [deg]","re(rEPhi) [mV]","im(rEPhi) [mV]","re(rETheta) [mV]","im(rETheta) [mV]"
1.2812,180,90,45,54.736,-16.17999504611,-38.7060254715436,-8.97882236669471,-22.1593835085973
"Freq [GHz]","IWavePhi [deg]","IWaveTheta [deg]","Phi [deg]","Theta [deg]","re(rEPhi) [mV]","im(rEPhi) [mV]","re(rETheta) [mV]","im(rETheta) [mV]"
1.2812,180,90,135,54.736,16.1333020507698,38.7840817708362,-8.96694189583027,-22.249735847502
"Freq [GHz]","IWavePhi [deg]","IWaveTheta [deg]","Phi [deg]","Theta [deg]","re(rEPhi) [mV]","im(rEPhi) [mV]","re(rETheta) [mV]","im(rETheta) [mV]"
1.2812,180,90,-45,54.736,-16.2038857855369,-38.7452777155363,9.00473213451452,22.2284250260239
"Freq [GHz]","IWavePhi [deg]","IWaveTheta [deg]","Phi [deg]","Theta [deg]","re(rEPhi) [mV]","im(rEPhi) [mV]","re(rETheta) [mV]","im(rETheta) [mV]"
1.2812,180,90,45,125.264,-16.1171056748664,-38.746206184801,8.93636173440502,22.2407201146126
"Freq [GHz]","IWavePhi [deg]","IWaveTheta [deg]","Phi [deg]","Theta [deg]","re(rEPhi) [mV]","im(rEPhi) [mV]","re(rETheta) [mV]","im(rETheta) [mV]"
1.2812,180,90,-135,54.736,16.2361700528939,38.7622581815166,9.03046402664208,22.228399675528
"Freq [GHz]","IWavePhi [deg]","IWaveTheta [deg]","Phi [deg]","Theta [deg]","re(rEPhi) [mV]","im(rEPhi) [mV]","re(rETheta) [mV]","im(rETheta) [mV]"
1.2812,180,90,-45,125.264,-16.2330149090281,-38.6945501610491,-8.96177728662156,-22.1875187836762
"Freq [GHz]","IWavePhi [deg]","IWaveTheta [deg]","Phi [deg]","Theta [deg]","re(rEPhi) [mV]","im(rEPhi) [mV]","re(rETheta) [mV]","im(rETheta) [mV]"
1.2812,180,90,135,125.264,16.1179891908462,38.6576903840382,8.933804958442,22.2006370152264
"Freq [GHz]","IWavePhi [deg]","IWaveTheta [deg]","Phi [deg]","Theta [deg]","re(rEPhi) [mV]","im(rEPhi) [mV]","re(rETheta) [mV]","im(rETheta) [mV]"
1.2812,180,90,-135,125.264,16.0616934712267,38.63199402764,-8.86703442144287,-22.186362133282
"Freq [GHz]","IWavePhi [deg]","IWaveTheta [deg]","Phi [deg]","Theta [deg]","re(rEPhi) [mV]","im(rEPhi) [mV]","re(rETheta) [mV]","im(rETheta) [mV]"
1.2812,180,90,0,90,2.4044234320532e-15,5.28987550898513e-15,-3.07041520684518e-15,1.6982906728574e-15
"Freq [GHz]","IWavePhi [deg]","IWaveTheta [deg]","Phi [deg]","Theta [deg]","re(rEPhi) [mV]","im(rEPhi) [mV]","re(rETheta) [mV]","im(rETheta) [mV]"
1.2812,180,90,180,90,-2.4005584283247e-15,-5.28211198409569e-15,-3.07039022971695e-15,1.69643690119372e-15
"Freq [GHz]","IWavePhi [deg]","IWaveTheta [deg]","Phi [deg]","Theta [deg]","re(rEPhi) [mV]","im(rEPhi) [mV]","re(rETheta) [mV]","im(rETheta) [mV]"
1.2812,180,90,90,90,-1.6837069330042e-19,-7.08578308576217e-19,-3.21413946784859e-15,1.67494117484342e-15
"Freq [GHz]","IWavePhi [deg]","IWaveTheta [deg]","Phi [deg]","Theta [deg]","re(rEPhi) [mV]","im(rEPhi) [mV]","re(rETheta) [mV]","im(rETheta) [mV]"
1.2812,180,90,-90,90,2.57197801368263e-18,3.86503125174778e-19,3.3832735665437e-15,-6.52427142393707e-16
"Freq [GHz]","IWavePhi [deg]","IWaveTheta [deg]","Phi [deg]","Theta [deg]","re(rEPhi) [mV]","im(rEPhi) [mV]","re(rETheta) [mV]","im(rETheta) [mV]"
1.2812,180,90,0,0,5.80051414443838e-15,3.60231737556391e-15,-2.58582127667705e-18,2.29530468639136e-18
"Freq [GHz]","IWavePhi [deg]","IWaveTheta [deg]","Phi [deg]","Theta [deg]","re(rEPhi) [mV]","im(rEPhi) [mV]","re(rETheta) [mV]","im(rETheta) [mV]"
1.2812,180,90,0,180,-2.3638658497414e-15,4.51129978944018e-15,-4.89312811946993e-18,-5.34482478628538e-19
"Freq [GHz]","IWavePhi [deg]","IWaveTheta [deg]","Phi [deg]","Theta [deg]","re(rEPhi) [mV]","im(rEPhi) [mV]","re(rETheta) [mV]","im(rETheta) [mV]"
1.2812,180,90,45,54.736,7.9200009402347e-16,3.34391309106162e-15,-3.23416974962986e-15,3.67782523003174e-15
"Freq [GHz]","IWavePhi [deg]","IWaveTheta [deg]","Phi [deg]","Theta [deg]","re(rEPhi) [mV]","im(rEPhi) [mV]","re(rETheta) [mV]","im(rETheta) [mV]"
1.2812,180,90,135,54.736,-7.91314421816985e-16,-3.34949527538365e-15,-3.23541215268918e-15,3.68691231229911e-15
"Freq [GHz]","IWavePhi [deg]","IWaveTheta [deg]","Phi [deg]","Theta [deg]","re(rEPhi) [mV]","im(rEPhi) [mV]","re(rETheta) [mV]","im(rETheta) [mV]"
1.2812,180,90,-45,54.736,4.75250141837884e-15,2.20743652022295e-15,-1.94088331989907e-15,-1.06965478693007e-15
"Freq [GHz]","IWavePhi [deg]","IWaveTheta [deg]","Phi [deg]","Theta [deg]","re(rEPhi) [mV]","im(rEPhi) [mV]","re(rETheta) [mV]","im(rETheta) [mV]"
1.2812,180,90,45,125.264,-3.80879351025678e-15,3.81564551524e-15,-1.34837389395529e-15,-4.73526197260763e-16
"Freq [GHz]","IWavePhi [deg]","IWaveTheta [deg]","Phi [deg]","Theta [deg]","re(rEPhi) [mV]","im(rEPhi) [mV]","re(rETheta) [mV]","im(rETheta) [mV]"
1.2812,180,90,-135,54.736,-4.75262356306742e-15,-2.20985917063035e-15,-1.94276603734552e-15,-1.06636713624491e-15
"Freq [GHz]","IWavePhi [deg]","IWaveTheta [deg]","Phi [deg]","Theta [deg]","re(rEPhi) [mV]","im(rEPhi) [mV]","re(rETheta) [mV]","im(rETheta) [mV]"
1.2812,180,90,-45,125.264,2.8901276875621e-15,2.53400564810667e-15,2.4512077825928e-15,1.61588927671639e-15
"Freq [GHz]","IWavePhi [deg]","IWaveTheta [deg]","Phi [deg]","Theta [deg]","re(rEPhi) [mV]","im(rEPhi) [mV]","re(rETheta) [mV]","im(rETheta) [mV]"
1.2812,180,90,135,125.264,3.80886026720206e-15,-3.80429611476662e-15,-1.34825296040786e-15,-4.6948741619635e-16
"Freq [GHz]","IWavePhi [deg]","IWaveTheta [deg]","Phi [deg]","Theta [deg]","re(rEPhi) [mV]","im(rEPhi) [mV]","re(rETheta) [mV]","im(rETheta) [mV]"
1.2812,180,90,-135,125.264,-2.87850350409934e-15,-2.52295746974895e-15,2.44836389604361e-15,1.61160190908966e-15
"Freq [GHz]","IWavePhi [deg]","IWaveTheta [deg]","Phi [deg]","Theta [deg]","re(rEPhi) [mV]","im(rEPhi) [mV]","re(rETheta) [mV]","im(rETheta) [mV]"
1.2812,180,90,0,90,-2.26923726841419e-18,-2.40842791611658e-20,3.08609532826041e-15,-1.67249175303677e-15
"Freq [GHz]","IWavePhi [deg]","IWaveTheta [deg]","Phi [deg]","Theta [deg]","re(rEPhi) [mV]","im(rEPhi) [mV]","re(rETheta) [mV]","im(rETheta) [mV]"
1.2812,180,90,180,90,4.71847346414237e-18,1.31377273885798e-18,3.0826647609103e-15,-1.67719527301735e-15
"Freq [GHz]","IWavePhi [deg]","IWaveTheta [deg]","Phi [deg]","Theta [deg]","re(rEPhi) [mV]","im(rEPhi) [mV]","re(rETheta) [mV]","im(rETheta) [mV]"
1.2812,180,90,90,90,-5.36140522445704e-19,-1.89340473508995e-18,-3.38580370424676e-15,6.50835608888213e-16
"Freq [GHz]","IWavePhi [deg]","IWaveTheta [deg]","Phi [deg]","Theta [deg]","re(rEPhi) [mV]","im(rEPhi) [mV]","re(rETheta) [mV]","im(rETheta) [mV]"
1.2812,180,90,-90,90,-1.94500748909856e-18,4.83628900075484e-19,3.21756426795948e-15,-1.68458901152006e-15
"Freq [GHz]","IWavePhi [deg]","IWaveTheta [deg]","Phi [deg]","Theta [deg]","re(rEPhi) [mV]","im(rEPhi) [mV]","re(rETheta) [mV]","im(rETheta) [mV]"
1.2812,180,90,0,0,4.07499406270312e-15,-4.56379709871361e-16,1.45973682512496e-18,1.81665474241243e-19
"Freq [GHz]","IWavePhi [deg]","IWaveTheta [deg]","Phi [deg]","Theta [deg]","re(rEPhi) [mV]","im(rEPhi) [mV]","re(rETheta) [mV]","im(rETheta) [mV]"
1.2812,180,90,0,180,-4.08114208799292e-15,4.57537953366242e-16,1.75921060881138e-18,-1.53715778471755e-18
"Freq [GHz]","IWavePhi [deg]","IWaveTheta [deg]","Phi [deg]","Theta [deg]","re(rEPhi) [mV]","im(rEPhi) [mV]","re(rETheta) [mV]","im(rETheta) [mV]"
1.2812,180,90,45,54.736,9.33323147920674e-16,-1.58163903154061e-16,-2.51499073105132e-16,-2.66049394562777e-16
"Freq [GHz]","IWavePhi [deg]","IWaveTheta [deg]","Phi [deg]","Theta [deg]","re(rEPhi) [mV]","im(rEPhi) [mV]","re(rETheta) [mV]","im(rETheta) [mV]"
1.2812,180,90,135,54.736,-9.33893587442996e-16,1.60679685919745e-16,-2.46972913867686e-16,-2.63408418324124e-16
"Freq [GHz]","IWavePhi [deg]","IWaveTheta [deg]","Phi [deg]","Theta [deg]","re(rEPhi) [mV]","im(rEPhi) [mV]","re(rETheta) [mV]","im(rETheta) [mV]"
1.2812,180,90,-45,54.736,2.29534782257785e-15,-2.31679979657549e-16,2.30655662235184e-15,-1.60290533212783e-15
"Freq [GHz]","IWavePhi [deg]","IWaveTheta [deg]","Phi [deg]","Theta [deg]","re(rEPhi) [mV]","im(rEPhi) [mV]","re(rETheta) [mV]","im(rETheta) [mV]"
1.2812,180,90,45,125.264,-9.32786924203175e-16,1.59814814004244e-16,-2.4760099748339e-16,-2.64319993950153e-16
"Freq [GHz]","IWavePhi [deg]","IWaveTheta [deg]","Phi [deg]","Theta [deg]","re(rEPhi) [mV]","im(rEPhi) [mV]","re(rETheta) [mV]","im(rETheta) [mV]"
1.2812,180,90,-135,54.736,-2.29556202768388e-15,2.32868667556727e-16,2.3038713971887e-15,-1.60312565031037e-15
"Freq [GHz]","IWavePhi [deg]","IWaveTheta [deg]","Phi [deg]","Theta [deg]","re(rEPhi) [mV]","im(rEPhi) [mV]","re(rETheta) [mV]","im(rETheta) [mV]"
1.2812,180,90,-45,125.264,-2.3057024577458e-15,2.37374617824572e-16,2.30292270447096e-15,-1.60597389470059e-15
"Freq [GHz]","IWavePhi [deg]","IWaveTheta [deg]","Phi [deg]","Theta [deg]","re(rEPhi) [mV]","im(rEPhi) [mV]","re(rETheta) [mV]","im(rETheta) [mV]"
1.2812,180,90,135,125.264,9.31544490164406e-16,-1.55189848184243e-16,-2.5008626633436e-16,-2.60901668623147e-16
"Freq [GHz]","IWavePhi [deg]","IWaveTheta [deg]","Phi [deg]","Theta [deg]","re(rEPhi) [mV]","im(rEPhi) [mV]","re(rETheta) [mV]","im(rETheta) [mV]"
1.2812,180,90,-135,125.264,2.30596412675903e-15,-2.35979550095105e-16,2.30074813346265e-15,-1.59163072957155e-15
"Freq [GHz]","IWavePhi [deg]","IWaveTheta [deg]","Phi [deg]","Theta [deg]","re(rEPhi) [mV]","im(rEPhi) [mV]","re(rETheta) [mV]","im(rETheta) [mV]"
1.2812,180,90,0,90,20.4282785187488,52.8474577857096,-0.0755718600422611,-0.0681524487084996
"Freq [GHz]","IWavePhi [deg]","IWaveTheta [deg]","Phi [deg]","Theta [deg]","re(rEPhi) [mV]","im(rEPhi) [mV]","re(rETheta) [mV]","im(rETheta) [mV]"
1.2812,180,90,180,90,-20.4142083080022,-52.8059565467094,-0.0483740654600976,-0.035848923670911
"Freq [GHz]","IWavePhi [deg]","IWaveTheta [deg]","Phi [deg]","Theta [deg]","re(rEPhi) [mV]","im(rEPhi) [mV]","re(rETheta) [mV]","im(rETheta) [mV]"
1.2812,180,90,90,90,0.00280162223219033,0.0113694673724304,25.4760121151784,-2.84645564157539
"Freq [GHz]","IWavePhi [deg]","IWaveTheta [deg]","Phi [deg]","Theta [deg]","re(rEPhi) [mV]","im(rEPhi) [mV]","re(rETheta) [mV]","im(rETheta) [mV]"
1.2812,180,90,-90,90,0.0218212484890363,-0.00365879903571748,-25.4773512402257,2.91195024789626
"Freq [GHz]","IWavePhi [deg]","IWaveTheta [deg]","Phi [deg]","Theta [deg]","re(rEPhi) [mV]","im(rEPhi) [mV]","re(rETheta) [mV]","im(rETheta) [mV]"
1.2812,180,90,0,0,29.0969939829864,50.3363084860541,0.000496691595514936,0.00677794890577225
"Freq [GHz]","IWavePhi [deg]","IWaveTheta [deg]","Phi [deg]","Theta [deg]","re(rEPhi) [mV]","im(rEPhi) [mV]","re(rETheta) [mV]","im(rETheta) [mV]"
1.2812,180,90,0,180,6.2696534748359,30.778640925325,-0.0168246179007278,-0.0115243062323353
"Freq [GHz]","IWavePhi [deg]","IWaveTheta [deg]","Phi [deg]","Theta [deg]","re(rEPhi) [mV]","im(rEPhi) [mV]","re(rETheta) [mV]","im(rETheta) [mV]"
1.2812,180,90,45,54.736,16.1583145480812,33.4425284600593,26.9942249662936,17.2879621198931
"Freq [GHz]","IWavePhi [deg]","IWaveTheta [deg]","Phi [deg]","Theta [deg]","re(rEPhi) [mV]","im(rEPhi) [mV]","re(rETheta) [mV]","im(rETheta) [mV]"
1.2812,180,90,135,54.736,-16.1292702223395,-33.5018471146434,26.9832348727818,17.3202390282623
"Freq [GHz]","IWavePhi [deg]","IWaveTheta [deg]","Phi [deg]","Theta [deg]","re(rEPhi) [mV]","im(rEPhi) [mV]","re(rETheta) [mV]","im(rETheta) [mV]"
1.2812,180,90,-45,54.736,16.1952215391049,33.469154216586,-27.0747616363611,-17.3273526912509
"Freq [GHz]","IWavePhi [deg]","IWaveTheta [deg]","Phi [deg]","Theta [deg]","re(rEPhi) [mV]","im(rEPhi) [mV]","re(rETheta) [mV]","im(rETheta) [mV]"
1.2812,180,90,45,125.264,7.98689018085961,26.044957385182,11.6775999930167,-16.8454632182792
"Freq [GHz]","IWavePhi [deg]","IWaveTheta [deg]","Phi [deg]","Theta [deg]","re(rEPhi) [mV]","im(rEPhi) [mV]","re(rETheta) [mV]","im(rETheta) [mV]"
1.2812,180,90,-135,54.736,-16.226191977194,-33.4624347503841,-27.0783535408976,-17.3010364608115
"Freq [GHz]","IWavePhi [deg]","IWaveTheta [deg]","Phi [deg]","Theta [deg]","re(rEPhi) [mV]","im(rEPhi) [mV]","re(rETheta) [mV]","im(rETheta) [mV]"
1.2812,180,90,-45,125.264,8.10361476482558,25.95073038154,-11.7117980892808,16.7842626311721
"Freq [GHz]","IWavePhi [deg]","IWaveTheta [deg]","Phi [deg]","Theta [deg]","re(rEPhi) [mV]","im(rEPhi) [mV]","re(rETheta) [mV]","im(rETheta) [mV]"
1.2812,180,90,135,125.264,-7.99296196425337,-25.9783198412363,11.6787151700859,-16.7914422000362
"Freq [GHz]","IWavePhi [deg]","IWaveTheta [deg]","Phi [deg]","Theta [deg]","re(rEPhi) [mV]","im(rEPhi) [mV]","re(rETheta) [mV]","im(rETheta) [mV]"
1.2812,180,90,-135,125.264,-7.95619089157448,-25.9174151690688,-11.7878310605841,16.7424195312881
"Freq [GHz]","IWavePhi [deg]","IWaveTheta [deg]","Phi [deg]","Theta [deg]","re(rEPhi) [mV]","im(rEPhi) [mV]","re(rETheta) [mV]","im(rETheta) [mV]"
1.2812,180,90,0,90,20.3869004744714,52.883301896344,0.00669181343298682,0.0468935554566755
"Freq [GHz]","IWavePhi [deg]","IWaveTheta [deg]","Phi [deg]","Theta [deg]","re(rEPhi) [mV]","im(rEPhi) [mV]","re(rETheta) [mV]","im(rETheta) [mV]"
1.2812,180,90,180,90,-20.3956021006197,-52.8645751438747,-0.00743717178436132,0.00611002924722931
"Freq [GHz]","IWavePhi [deg]","IWaveTheta [deg]","Phi [deg]","Theta [deg]","re(rEPhi) [mV]","im(rEPhi) [mV]","re(rETheta) [mV]","im(rETheta) [mV]"
1.2812,180,90,90,90,-0.00866560863364479,0.000710012499567484,-25.4404236016343,2.81523417910739
"Freq [GHz]","IWavePhi [deg]","IWaveTheta [deg]","Phi [deg]","Theta [deg]","re(rEPhi) [mV]","im(rEPhi) [mV]","re(rETheta) [mV]","im(rETheta) [mV]"
1.2812,180,90,-90,90,0.0135658154065487,-0.00638309209178062,25.4394877103537,-2.8723057669292
"Freq [GHz]","IWavePhi [deg]","IWaveTheta [deg]","Phi [deg]","Theta [deg]","re(rEPhi) [mV]","im(rEPhi) [mV]","re(rETheta) [mV]","im(rETheta) [mV]"
1.2812,180,90,0,0,6.30564433661104,30.9217271905612,-0.00424327998105577,0.0150229449780053
"Freq [GHz]","IWavePhi [deg]","IWaveTheta [deg]","Phi [deg]","Theta [deg]","re(rEPhi) [mV]","im(rEPhi) [mV]","re(rETheta) [mV]","im(rETheta) [mV]"
1.2812,180,90,0,180,29.0660344515148,50.283030353589,-0.018817550071453,-0.0128926021410347
"Freq [GHz]","IWavePhi [deg]","IWaveTheta [deg]","Phi [deg]","Theta [deg]","re(rEPhi) [mV]","im(rEPhi) [mV]","re(rETheta) [mV]","im(rETheta) [mV]"
1.2812,180,90,45,54.736,8.04831345087376,26.0169181348864,-11.6670431853925,16.7625522715832
"Freq [GHz]","IWavePhi [deg]","IWaveTheta [deg]","Phi [deg]","Theta [deg]","re(rEPhi) [mV]","im(rEPhi) [mV]","re(rETheta) [mV]","im(rETheta) [mV]"
1.2812,180,90,135,54.736,-8.00587899830783,-26.0761942286007,-11.6771578873479,16.8689947674912
"Freq [GHz]","IWavePhi [deg]","IWaveTheta [deg]","Phi [deg]","Theta [deg]","re(rEPhi) [mV]","im(rEPhi) [mV]","re(rETheta) [mV]","im(rETheta) [mV]"
1.2812,180,90,-45,54.736,8.0498658827804,26.0357231320687,11.7083277383938,-16.8174540414055
"Freq [GHz]","IWavePhi [deg]","IWaveTheta [deg]","Phi [deg]","Theta [deg]","re(rEPhi) [mV]","im(rEPhi) [mV]","re(rETheta) [mV]","im(rETheta) [mV]"
1.2812,180,90,45,125.264,16.1275297509816,33.4698496374806,-26.9425372972262,-17.3246576988978
"Freq [GHz]","IWavePhi [deg]","IWaveTheta [deg]","Phi [deg]","Theta [deg]","re(rEPhi) [mV]","im(rEPhi) [mV]","re(rETheta) [mV]","im(rETheta) [mV]"
1.2812,180,90,-135,54.736,-8.06680433178003,-26.068008438286,11.6731237670432,-16.8430813064018
