"Freq [GHz]","IWavePhi [deg]","IWaveTheta [deg]","Phi [deg]","Theta [deg]","re(rEPhi) [mV]","im(rEPhi) [mV]","re(rETheta) [mV]","im(rETheta) [mV]"
1.0676,180,90,0,90,26.1817451466969,80.200817856199,-0.0853302214083418,-0.139494589588896
"Freq [GHz]","IWavePhi [deg]","IWaveTheta [deg]","Phi [deg]","Theta [deg]","re(rEPhi) [mV]","im(rEPhi) [mV]","re(rETheta) [mV]","im(rETheta) [mV]"
1.0676,180,90,180,90,-25.9925621250688,-79.9881824216837,-0.0935800691540314,-0.100603950527188
"Freq [GHz]","IWavePhi [deg]","IWaveTheta [deg]","Phi [deg]","Theta [deg]","re(rEPhi) [mV]","im(rEPhi) [mV]","re(rETheta) [mV]","im(rETheta) [mV]"
1.0676,180,90,90,90,-0.0159489731208034,-0.059164991762237,-0.150889460037093,0.0212331962708923
"Freq [GHz]","IWavePhi [deg]","IWaveTheta [deg]","Phi [deg]","Theta [deg]","re(rEPhi) [mV]","im(rEPhi) [mV]","re(rETheta) [mV]","im(rETheta) [mV]"
1.0676,180,90,-90,90,-0.072533727255483,-0.0268249065260246,0.00275766720889396,-0.00972188439846529
"Freq [GHz]","IWavePhi [deg]","IWaveTheta [deg]","Phi [deg]","Theta [deg]","re(rEPhi) [mV]","im(rEPhi) [mV]","re(rETheta) [mV]","im(rETheta) [mV]"
1.0676,180,90,0,0,20.5475296446357,66.4867970310068,-0.137541894031711,0.0932318378398928
"Freq [GHz]","IWavePhi [deg]","IWaveTheta [deg]","Phi [deg]","Theta [deg]","re(rEPhi) [mV]","im(rEPhi) [mV]","re(rETheta) [mV]","im(rETheta) [mV]"
1.0676,180,90,0,180,20.6284226500891,66.5007611445236,0.104697525634324,-0.137829847765862
"Freq [GHz]","IWavePhi [deg]","IWaveTheta [deg]","Phi [deg]","Theta [deg]","re(rEPhi) [mV]","im(rEPhi) [mV]","re(rETheta) [mV]","im(rETheta) [mV]"
1.0676,180,90,45,54.736,15.4855179630404,47.7271894385311,8.64688388407625,27.3510810218591
"Freq [GHz]","IWavePhi [deg]","IWaveTheta [deg]","Phi [deg]","Theta [deg]","re(rEPhi) [mV]","im(rEPhi) [mV]","re(rETheta) [mV]","im(rETheta) [mV]"
1.0676,180,90,135,54.736,-15.6026746242366,-47.6830001219948,8.55548254177346,27.2904054019655
"Freq [GHz]","IWavePhi [deg]","IWaveTheta [deg]","Phi [deg]","Theta [deg]","re(rEPhi) [mV]","im(rEPhi) [mV]","re(rETheta) [mV]","im(rETheta) [mV]"
1.0676,180,90,-45,54.736,15.340011751695,47.7662579389433,-8.54957185038316,-27.488253604584
"Freq [GHz]","IWavePhi [deg]","IWaveTheta [deg]","Phi [deg]","Theta [deg]","re(rEPhi) [mV]","im(rEPhi) [mV]","re(rETheta) [mV]","im(rETheta) [mV]"
1.0676,180,90,45,125.264,15.5066193423562,47.7142614199033,-8.8421911126125,-27.5072317477516
"Freq [GHz]","IWavePhi [deg]","IWaveTheta [deg]","Phi [deg]","Theta [deg]","re(rEPhi) [mV]","im(rEPhi) [mV]","re(rETheta) [mV]","im(rETheta) [mV]"
1.0676,180,90,-135,54.736,-15.6306109825656,-47.8481298251859,-8.69129975467291,-27.4647057144709
"Freq [GHz]","IWavePhi [deg]","IWaveTheta [deg]","Phi [deg]","Theta [deg]","re(rEPhi) [mV]","im(rEPhi) [mV]","re(rETheta) [mV]","im(rETheta) [mV]"
1.0676,180,90,-45,125.264,15.6004483940568,47.7264378471679,8.74010270288727,27.3741748805722
"Freq [GHz]","IWavePhi [deg]","IWaveTheta [deg]","Phi [deg]","Theta [deg]","re(rEPhi) [mV]","im(rEPhi) [mV]","re(rETheta) [mV]","im(rETheta) [mV]"
1.0676,180,90,135,125.264,-15.6034045029241,-48.0110470132384,-8.85762067201643,-27.6320192620269
"Freq [GHz]","IWavePhi [deg]","IWaveTheta [deg]","Phi [deg]","Theta [deg]","re(rEPhi) [mV]","im(rEPhi) [mV]","re(rETheta) [mV]","im(rETheta) [mV]"
1.0676,180,90,-135,125.264,-15.5477488229785,-47.8861385104946,8.68931802568079,27.3133015229697
"Freq [GHz]","IWavePhi [deg]","IWaveTheta [deg]","Phi [deg]","Theta [deg]","re(rEPhi) [mV]","im(rEPhi) [mV]","re(rETheta) [mV]","im(rETheta) [mV]"
1.0676,180,90,0,90,-26.1817451466969,-80.200817856199,0.0853302214096823,0.139494589588926
"Freq [GHz]","IWavePhi [deg]","IWaveTheta [deg]","Phi [deg]","Theta [deg]","re(rEPhi) [mV]","im(rEPhi) [mV]","re(rETheta) [mV]","im(rETheta) [mV]"
1.0676,180,90,180,90,25.9925621250688,79.9881824216837,0.0935800691604294,0.100603950527001
"Freq [GHz]","IWavePhi [deg]","IWaveTheta [deg]","Phi [deg]","Theta [deg]","re(rEPhi) [mV]","im(rEPhi) [mV]","re(rETheta) [mV]","im(rETheta) [mV]"
1.0676,180,90,90,90,0.0159489731199579,0.0591649917670192,0.150889460039894,-0.0212331962791
"Freq [GHz]","IWavePhi [deg]","IWaveTheta [deg]","Phi [deg]","Theta [deg]","re(rEPhi) [mV]","im(rEPhi) [mV]","re(rETheta) [mV]","im(rETheta) [mV]"
1.0676,180,90,-90,90,0.0725337272547486,0.026824906522681,-0.00275766721097271,0.00972188439793942
"Freq [GHz]","IWavePhi [deg]","IWaveTheta [deg]","Phi [deg]","Theta [deg]","re(rEPhi) [mV]","im(rEPhi) [mV]","re(rETheta) [mV]","im(rETheta) [mV]"
1.0676,180,90,0,0,-20.5475296446357,-66.4867970310068,0.137541894036201,-0.0932318378381553
"Freq [GHz]","IWavePhi [deg]","IWaveTheta [deg]","Phi [deg]","Theta [deg]","re(rEPhi) [mV]","im(rEPhi) [mV]","re(rETheta) [mV]","im(rETheta) [mV]"
1.0676,180,90,0,180,-20.6284226500891,-66.5007611445236,-0.104697525631288,0.137829847764163
"Freq [GHz]","IWavePhi [deg]","IWaveTheta [deg]","Phi [deg]","Theta [deg]","re(rEPhi) [mV]","im(rEPhi) [mV]","re(rETheta) [mV]","im(rETheta) [mV]"
1.0676,180,90,45,54.736,-15.4855179630404,-47.7271894385295,-8.64688388407434,-27.3510810218614
"Freq [GHz]","IWavePhi [deg]","IWaveTheta [deg]","Phi [deg]","Theta [deg]","re(rEPhi) [mV]","im(rEPhi) [mV]","re(rETheta) [mV]","im(rETheta) [mV]"
1.0676,180,90,135,54.736,15.6026746242357,47.6830001219978,-8.555482541775,-27.2904054019705
"Freq [GHz]","IWavePhi [deg]","IWaveTheta [deg]","Phi [deg]","Theta [deg]","re(rEPhi) [mV]","im(rEPhi) [mV]","re(rETheta) [mV]","im(rETheta) [mV]"
1.0676,180,90,-45,54.736,-15.3400117516966,-47.7662579389416,8.54957185037902,27.4882536045874
"Freq [GHz]","IWavePhi [deg]","IWaveTheta [deg]","Phi [deg]","Theta [deg]","re(rEPhi) [mV]","im(rEPhi) [mV]","re(rETheta) [mV]","im(rETheta) [mV]"
1.0676,180,90,45,125.264,-15.5066193423578,-47.7142614199038,8.84219111261296,27.5072317477505
"Freq [GHz]","IWavePhi [deg]","IWaveTheta [deg]","Phi [deg]","Theta [deg]","re(rEPhi) [mV]","im(rEPhi) [mV]","re(rETheta) [mV]","im(rETheta) [mV]"
1.0676,180,90,-135,54.736,15.6306109825646,47.8481298251872,8.69129975467627,27.464705714474
"Freq [GHz]","IWavePhi [deg]","IWaveTheta [deg]","Phi [deg]","Theta [deg]","re(rEPhi) [mV]","im(rEPhi) [mV]","re(rETheta) [mV]","im(rETheta) [mV]"
1.0676,180,90,-45,125.264,-15.600448394058,-47.7264378471699,-8.74010270288723,-27.3741748805717
"Freq [GHz]","IWavePhi [deg]","IWaveTheta [deg]","Phi [deg]","Theta [deg]","re(rEPhi) [mV]","im(rEPhi) [mV]","re(rETheta) [mV]","im(rETheta) [mV]"
1.0676,180,90,135,125.264,15.6034045029227,48.0110470132377,8.85762067201879,27.6320192620236
"Freq [GHz]","IWavePhi [deg]","IWaveTheta [deg]","Phi [deg]","Theta [deg]","re(rEPhi) [mV]","im(rEPhi) [mV]","re(rETheta) [mV]","im(rETheta) [mV]"
1.0676,180,90,-135,125.264,15.5477488229792,47.8861385104939,-8.68931802567806,-27.3133015229668
"Freq [GHz]","IWavePhi [deg]","IWaveTheta [deg]","Phi [deg]","Theta [deg]","re(rEPhi) [mV]","im(rEPhi) [mV]","re(rETheta) [mV]","im(rETheta) [mV]"
1.0676,180,90,0,90,3.54432194866043e-15,1.05554023656606e-14,-1.23069917352456e-17,-7.63305444125281e-18
"Freq [GHz]","IWavePhi [deg]","IWaveTheta [deg]","Phi [deg]","Theta [deg]","re(rEPhi) [mV]","im(rEPhi) [mV]","re(rETheta) [mV]","im(rETheta) [mV]"
1.0676,180,90,180,90,-3.51067851981683e-15,-1.05400537171237e-14,-1.45872065812398e-17,-4.12419520781735e-18
"Freq [GHz]","IWavePhi [deg]","IWaveTheta [deg]","Phi [deg]","Theta [deg]","re(rEPhi) [mV]","im(rEPhi) [mV]","re(rETheta) [mV]","im(rETheta) [mV]"
1.0676,180,90,90,90,-5.3238086683653e-19,-5.10505391674559e-18,-6.18242322883784e-19,8.45414895988287e-18
"Freq [GHz]","IWavePhi [deg]","IWaveTheta [deg]","Phi [deg]","Theta [deg]","re(rEPhi) [mV]","im(rEPhi) [mV]","re(rETheta) [mV]","im(rETheta) [mV]"
1.0676,180,90,-90,90,-1.10822854534506e-17,-6.58525812284296e-18,-1.03151811453939e-17,6.08849681799662e-18
"Freq [GHz]","IWavePhi [deg]","IWaveTheta [deg]","Phi [deg]","Theta [deg]","re(rEPhi) [mV]","im(rEPhi) [mV]","re(rETheta) [mV]","im(rETheta) [mV]"
1.0676,180,90,0,0,2.78285660216556e-15,8.76198483497302e-15,-2.00783505868264e-17,1.57647561376481e-17
"Freq [GHz]","IWavePhi [deg]","IWaveTheta [deg]","Phi [deg]","Theta [deg]","re(rEPhi) [mV]","im(rEPhi) [mV]","re(rETheta) [mV]","im(rETheta) [mV]"
1.0676,180,90,0,180,2.81675771782505e-15,8.75861654853545e-15,1.00383149473831e-17,-1.78731089484184e-17
"Freq [GHz]","IWavePhi [deg]","IWaveTheta [deg]","Phi [deg]","Theta [deg]","re(rEPhi) [mV]","im(rEPhi) [mV]","re(rETheta) [mV]","im(rETheta) [mV]"
1.0676,180,90,45,54.736,4.1491782698755e-17,6.47567702659022e-15,-3.2056200841895e-17,3.72446947544656e-15
"Freq [GHz]","IWavePhi [deg]","IWaveTheta [deg]","Phi [deg]","Theta [deg]","re(rEPhi) [mV]","im(rEPhi) [mV]","re(rETheta) [mV]","im(rETheta) [mV]"
1.0676,180,90,135,54.736,-5.51652599175756e-17,-6.45805115864194e-15,-5.12582940706875e-17,3.71372445643881e-15
"Freq [GHz]","IWavePhi [deg]","IWaveTheta [deg]","Phi [deg]","Theta [deg]","re(rEPhi) [mV]","im(rEPhi) [mV]","re(rETheta) [mV]","im(rETheta) [mV]"
1.0676,180,90,-45,54.736,3.91928825804147e-15,6.10888779888221e-15,-2.25268776008041e-15,-3.49937196742813e-15
"Freq [GHz]","IWavePhi [deg]","IWaveTheta [deg]","Phi [deg]","Theta [deg]","re(rEPhi) [mV]","im(rEPhi) [mV]","re(rETheta) [mV]","im(rETheta) [mV]"
1.0676,180,90,45,125.264,4.90353452146804e-17,6.46380900488015e-15,2.63555123633443e-17,-3.72842813265135e-15
"Freq [GHz]","IWavePhi [deg]","IWaveTheta [deg]","Phi [deg]","Theta [deg]","re(rEPhi) [mV]","im(rEPhi) [mV]","re(rETheta) [mV]","im(rETheta) [mV]"
1.0676,180,90,-135,54.736,-3.95240054786512e-15,-6.1135165908141e-15,-2.26536582364857e-15,-3.4923912855772e-15
"Freq [GHz]","IWavePhi [deg]","IWaveTheta [deg]","Phi [deg]","Theta [deg]","re(rEPhi) [mV]","im(rEPhi) [mV]","re(rETheta) [mV]","im(rETheta) [mV]"
1.0676,180,90,-45,125.264,3.94947524555241e-15,6.09971390402136e-15,2.25885928173003e-15,3.49528715757404e-15
"Freq [GHz]","IWavePhi [deg]","IWaveTheta [deg]","Phi [deg]","Theta [deg]","re(rEPhi) [mV]","im(rEPhi) [mV]","re(rETheta) [mV]","im(rETheta) [mV]"
1.0676,180,90,135,125.264,-6.90038413143101e-17,-6.50993216123668e-15,1.8342348827289e-17,-3.74813444693036e-15
"Freq [GHz]","IWavePhi [deg]","IWaveTheta [deg]","Phi [deg]","Theta [deg]","re(rEPhi) [mV]","im(rEPhi) [mV]","re(rETheta) [mV]","im(rETheta) [mV]"
1.0676,180,90,-135,125.264,-3.95078824348625e-15,-6.12196548681807e-15,2.25519328847996e-15,3.49354308928952e-15
"Freq [GHz]","IWavePhi [deg]","IWaveTheta [deg]","Phi [deg]","Theta [deg]","re(rEPhi) [mV]","im(rEPhi) [mV]","re(rETheta) [mV]","im(rETheta) [mV]"
1.0676,180,90,0,90,-1.17936968743824e-15,-3.52241241145602e-15,6.62832971668156e-18,8.51415134783519e-18
"Freq [GHz]","IWavePhi [deg]","IWaveTheta [deg]","Phi [deg]","Theta [deg]","re(rEPhi) [mV]","im(rEPhi) [mV]","re(rETheta) [mV]","im(rETheta) [mV]"
1.0676,180,90,180,90,1.17397664365795e-15,3.50876906079569e-15,6.58836145420139e-18,6.22174742522776e-18
"Freq [GHz]","IWavePhi [deg]","IWaveTheta [deg]","Phi [deg]","Theta [deg]","re(rEPhi) [mV]","im(rEPhi) [mV]","re(rETheta) [mV]","im(rETheta) [mV]"
1.0676,180,90,90,90,1.23556361293459e-18,3.66198463345973e-18,1.30978423009461e-17,-5.64503088342602e-19
"Freq [GHz]","IWavePhi [deg]","IWaveTheta [deg]","Phi [deg]","Theta [deg]","re(rEPhi) [mV]","im(rEPhi) [mV]","re(rETheta) [mV]","im(rETheta) [mV]"
1.0676,180,90,-90,90,2.6183102914135e-18,2.5797719016825e-19,-3.28765839446364e-18,3.38988515042712e-18
"Freq [GHz]","IWavePhi [deg]","IWaveTheta [deg]","Phi [deg]","Theta [deg]","re(rEPhi) [mV]","im(rEPhi) [mV]","re(rETheta) [mV]","im(rETheta) [mV]"
1.0676,180,90,0,0,-9.33288954219551e-16,-2.91555627597412e-15,5.47229448753706e-18,-2.66238480528181e-18
"Freq [GHz]","IWavePhi [deg]","IWaveTheta [deg]","Phi [deg]","Theta [deg]","re(rEPhi) [mV]","im(rEPhi) [mV]","re(rETheta) [mV]","im(rETheta) [mV]"
1.0676,180,90,0,180,-9.29348768883053e-16,-2.91924000714408e-15,-6.04384132459265e-18,6.07083204990734e-18
"Freq [GHz]","IWavePhi [deg]","IWaveTheta [deg]","Phi [deg]","Theta [deg]","re(rEPhi) [mV]","im(rEPhi) [mV]","re(rETheta) [mV]","im(rETheta) [mV]"
1.0676,180,90,45,54.736,-1.31342474257481e-15,-2.03097032532644e-15,-7.46521718181835e-16,-1.16132110852331e-15
"Freq [GHz]","IWavePhi [deg]","IWaveTheta [deg]","Phi [deg]","Theta [deg]","re(rEPhi) [mV]","im(rEPhi) [mV]","re(rETheta) [mV]","im(rETheta) [mV]"
1.0676,180,90,135,54.736,1.31930276612013e-15,2.03321306799414e-15,-7.44955578871282e-16,-1.1594756074322e-15
"Freq [GHz]","IWavePhi [deg]","IWaveTheta [deg]","Phi [deg]","Theta [deg]","re(rEPhi) [mV]","im(rEPhi) [mV]","re(rETheta) [mV]","im(rETheta) [mV]"
1.0676,180,90,-45,54.736,-8.85808568075906e-18,-2.15568826203601e-15,-2.00146659879884e-17,1.24546586805545e-15
"Freq [GHz]","IWavePhi [deg]","IWaveTheta [deg]","Phi [deg]","Theta [deg]","re(rEPhi) [mV]","im(rEPhi) [mV]","re(rETheta) [mV]","im(rETheta) [mV]"
1.0676,180,90,45,125.264,-1.31379294225489e-15,-2.03460099670391e-15,7.6524360783976e-16,1.17124543118566e-15
"Freq [GHz]","IWavePhi [deg]","IWaveTheta [deg]","Phi [deg]","Theta [deg]","re(rEPhi) [mV]","im(rEPhi) [mV]","re(rETheta) [mV]","im(rETheta) [mV]"
1.0676,180,90,-135,54.736,2.33131691776918e-17,2.16146472992425e-15,-1.16636069124411e-17,1.24571509264595e-15
"Freq [GHz]","IWavePhi [deg]","IWaveTheta [deg]","Phi [deg]","Theta [deg]","re(rEPhi) [mV]","im(rEPhi) [mV]","re(rETheta) [mV]","im(rETheta) [mV]"
1.0676,180,90,-45,125.264,-2.09132067875082e-17,-2.15579939857939e-15,9.15364085439503e-18,-1.23741587109639e-15
"Freq [GHz]","IWavePhi [deg]","IWaveTheta [deg]","Phi [deg]","Theta [deg]","re(rEPhi) [mV]","im(rEPhi) [mV]","re(rETheta) [mV]","im(rETheta) [mV]"
1.0676,180,90,135,125.264,1.3155810728739e-15,2.0452401293966e-15,7.6396331861903e-16,1.17561387364404e-15
"Freq [GHz]","IWavePhi [deg]","IWaveTheta [deg]","Phi [deg]","Theta [deg]","re(rEPhi) [mV]","im(rEPhi) [mV]","re(rETheta) [mV]","im(rETheta) [mV]"
1.0676,180,90,-135,125.264,1.57219611235418e-17,2.16246259128722e-15,1.23234055916395e-17,-1.23268603398638e-15
"Freq [GHz]","IWavePhi [deg]","IWaveTheta [deg]","Phi [deg]","Theta [deg]","re(rEPhi) [mV]","im(rEPhi) [mV]","re(rETheta) [mV]","im(rETheta) [mV]"
1.0676,180,90,0,90,20.7275775147684,66.5919957192773,-0.129087904560442,-0.111059698121566
"Freq [GHz]","IWavePhi [deg]","IWaveTheta [deg]","Phi [deg]","Theta [deg]","re(rEPhi) [mV]","im(rEPhi) [mV]","re(rETheta) [mV]","im(rETheta) [mV]"
1.0676,180,90,180,90,-20.5667684340881,-66.4210198200748,-0.0629468558532985,-0.127005036695615
"Freq [GHz]","IWavePhi [deg]","IWaveTheta [deg]","Phi [deg]","Theta [deg]","re(rEPhi) [mV]","im(rEPhi) [mV]","re(rETheta) [mV]","im(rETheta) [mV]"
1.0676,180,90,90,90,-0.0144954675276709,-0.0449914758933967,18.2971100515817,0.198643133937797
"Freq [GHz]","IWavePhi [deg]","IWaveTheta [deg]","Phi [deg]","Theta [deg]","re(rEPhi) [mV]","im(rEPhi) [mV]","re(rETheta) [mV]","im(rETheta) [mV]"
1.0676,180,90,-90,90,-0.0562598134511352,-0.0154899119990774,-18.4391316003936,-0.192024657280169
"Freq [GHz]","IWavePhi [deg]","IWaveTheta [deg]","Phi [deg]","Theta [deg]","re(rEPhi) [mV]","im(rEPhi) [mV]","re(rETheta) [mV]","im(rETheta) [mV]"
1.0676,180,90,0,0,28.9376053058156,59.101377461186,-0.0998731255183848,0.0794040315514956
"Freq [GHz]","IWavePhi [deg]","IWaveTheta [deg]","Phi [deg]","Theta [deg]","re(rEPhi) [mV]","im(rEPhi) [mV]","re(rETheta) [mV]","im(rETheta) [mV]"
1.0676,180,90,0,180,7.29828571840878,51.3454572214792,0.0846051038314827,-0.121163094654205
"Freq [GHz]","IWavePhi [deg]","IWaveTheta [deg]","Phi [deg]","Theta [deg]","re(rEPhi) [mV]","im(rEPhi) [mV]","re(rETheta) [mV]","im(rETheta) [mV]"
1.0676,180,90,45,54.736,16.7510508217192,41.1506462628104,20.9807688934027,23.7278624953943
"Freq [GHz]","IWavePhi [deg]","IWaveTheta [deg]","Phi [deg]","Theta [deg]","re(rEPhi) [mV]","im(rEPhi) [mV]","re(rETheta) [mV]","im(rETheta) [mV]"
1.0676,180,90,135,54.736,-16.8451706522455,-41.121150676622,20.8919884787693,23.7061175649253
"Freq [GHz]","IWavePhi [deg]","IWaveTheta [deg]","Phi [deg]","Theta [deg]","re(rEPhi) [mV]","im(rEPhi) [mV]","re(rETheta) [mV]","im(rETheta) [mV]"
1.0676,180,90,-45,54.736,16.6892445135157,41.1709876760593,-20.929186090373,-23.8778691076176
"Freq [GHz]","IWavePhi [deg]","IWaveTheta [deg]","Phi [deg]","Theta [deg]","re(rEPhi) [mV]","im(rEPhi) [mV]","re(rETheta) [mV]","im(rETheta) [mV]"
1.0676,180,90,45,125.264,8.53948320865276,38.113282033722,5.68516212742509,-21.8395972277565
"Freq [GHz]","IWavePhi [deg]","IWaveTheta [deg]","Phi [deg]","Theta [deg]","re(rEPhi) [mV]","im(rEPhi) [mV]","re(rETheta) [mV]","im(rETheta) [mV]"
1.0676,180,90,-135,54.736,-16.924415305911,-41.2188445784687,-21.0562811859709,-23.8058815235014
"Freq [GHz]","IWavePhi [deg]","IWaveTheta [deg]","Phi [deg]","Theta [deg]","re(rEPhi) [mV]","im(rEPhi) [mV]","re(rETheta) [mV]","im(rETheta) [mV]"
1.0676,180,90,-45,125.264,8.67334584768845,38.1263091368744,-5.73375876607654,21.7394470413649
"Freq [GHz]","IWavePhi [deg]","IWaveTheta [deg]","Phi [deg]","Theta [deg]","re(rEPhi) [mV]","im(rEPhi) [mV]","re(rETheta) [mV]","im(rETheta) [mV]"
1.0676,180,90,135,125.264,-8.61429280909958,-38.3665867056408,5.60894618802574,-21.9512766530206
"Freq [GHz]","IWavePhi [deg]","IWaveTheta [deg]","Phi [deg]","Theta [deg]","re(rEPhi) [mV]","im(rEPhi) [mV]","re(rETheta) [mV]","im(rETheta) [mV]"
1.0676,180,90,-135,125.264,-8.60931330558849,-38.2421074388172,-5.80197884763884,21.6525165270456
"Freq [GHz]","IWavePhi [deg]","IWaveTheta [deg]","Phi [deg]","Theta [deg]","re(rEPhi) [mV]","im(rEPhi) [mV]","re(rETheta) [mV]","im(rETheta) [mV]"
1.0676,180,90,0,90,20.7350368005819,66.5308367194601,-0.0232378824344257,-0.115517147496501
"Freq [GHz]","IWavePhi [deg]","IWaveTheta [deg]","Phi [deg]","Theta [deg]","re(rEPhi) [mV]","im(rEPhi) [mV]","re(rETheta) [mV]","im(rETheta) [mV]"
1.0676,180,90,180,90,-20.5804967068165,-66.3489436007783,-0.102446292689755,-0.0347154300298347
"Freq [GHz]","IWavePhi [deg]","IWaveTheta [deg]","Phi [deg]","Theta [deg]","re(rEPhi) [mV]","im(rEPhi) [mV]","re(rETheta) [mV]","im(rETheta) [mV]"
1.0676,180,90,90,90,-0.0116034031383617,-0.054242451319328,-18.5477018050324,-0.165859544035038
"Freq [GHz]","IWavePhi [deg]","IWaveTheta [deg]","Phi [deg]","Theta [deg]","re(rEPhi) [mV]","im(rEPhi) [mV]","re(rETheta) [mV]","im(rETheta) [mV]"
1.0676,180,90,-90,90,-0.0631495245931198,-0.0304819124995113,18.444987982165,0.184604572638041
"Freq [GHz]","IWavePhi [deg]","IWaveTheta [deg]","Phi [deg]","Theta [deg]","re(rEPhi) [mV]","im(rEPhi) [mV]","re(rETheta) [mV]","im(rETheta) [mV]"
1.0676,180,90,0,0,7.25993242475941,51.3091701964692,-0.130706300459157,0.073504175373466
"Freq [GHz]","IWavePhi [deg]","IWaveTheta [deg]","Phi [deg]","Theta [deg]","re(rEPhi) [mV]","im(rEPhi) [mV]","re(rETheta) [mV]","im(rETheta) [mV]"
1.0676,180,90,0,180,29.0302938354664,59.1088124384927,0.090423621046071,-0.103530887447241
"Freq [GHz]","IWavePhi [deg]","IWaveTheta [deg]","Phi [deg]","Theta [deg]","re(rEPhi) [mV]","im(rEPhi) [mV]","re(rETheta) [mV]","im(rETheta) [mV]"
1.0676,180,90,45,54.736,8.58057547094129,38.086395856187,-5.81448469786353,21.6966113620435
"Freq [GHz]","IWavePhi [deg]","IWaveTheta [deg]","Phi [deg]","Theta [deg]","re(rEPhi) [mV]","im(rEPhi) [mV]","re(rETheta) [mV]","im(rETheta) [mV]"
1.0676,180,90,135,54.736,-8.68225669358906,-38.0420798770738,-5.87566627194724,21.6156621865729
"Freq [GHz]","IWavePhi [deg]","IWaveTheta [deg]","Phi [deg]","Theta [deg]","re(rEPhi) [mV]","im(rEPhi) [mV]","re(rETheta) [mV]","im(rETheta) [mV]"
1.0676,180,90,-45,54.736,8.40128771467184,38.1204998318983,5.9100228972457,-21.7626023012101
"Freq [GHz]","IWavePhi [deg]","IWaveTheta [deg]","Phi [deg]","Theta [deg]","re(rEPhi) [mV]","im(rEPhi) [mV]","re(rETheta) [mV]","im(rETheta) [mV]"
1.0676,180,90,45,125.264,16.8291921910081,41.1100067795907,-21.1907031735317,-23.8466838445272
"Freq [GHz]","IWavePhi [deg]","IWaveTheta [deg]","Phi [deg]","Theta [deg]","re(rEPhi) [mV]","im(rEPhi) [mV]","re(rETheta) [mV]","im(rETheta) [mV]"
1.0676,180,90,-135,54.736,-8.64794003618234,-38.2096172575908,5.8044538237179,-21.7936121036506
