"Freq [GHz]","IWavePhi [deg]","IWaveTheta [deg]","Phi [deg]","Theta [deg]","re(rEPhi) [mV]","im(rEPhi) [mV]","re(rETheta) [mV]","im(rETheta) [mV]"
0.7829,180,90,0,90,-34.3869222337174,92.8185772091656,0.0142577224224251,-0.0153269045565909
"Freq [GHz]","IWavePhi [deg]","IWaveTheta [deg]","Phi [deg]","Theta [deg]","re(rEPhi) [mV]","im(rEPhi) [mV]","re(rETheta) [mV]","im(rETheta) [mV]"
0.7829,180,90,180,90,34.4092382893891,-92.7855658500006,0.0136373882442878,-0.0318299983951177
"Freq [GHz]","IWavePhi [deg]","IWaveTheta [deg]","Phi [deg]","Theta [deg]","re(rEPhi) [mV]","im(rEPhi) [mV]","re(rETheta) [mV]","im(rETheta) [mV]"
0.7829,180,90,90,90,-0.00471083580831488,0.0123547503398057,-0.00470836512670029,-0.00443061503959626
"Freq [GHz]","IWavePhi [deg]","IWaveTheta [deg]","Phi [deg]","Theta [deg]","re(rEPhi) [mV]","im(rEPhi) [mV]","re(rETheta) [mV]","im(rETheta) [mV]"
0.7829,180,90,-90,90,0.00433939292376473,-0.00655737101782979,0.00979632474447458,0.00737576675398949
"Freq [GHz]","IWavePhi [deg]","IWaveTheta [deg]","Phi [deg]","Theta [deg]","re(rEPhi) [mV]","im(rEPhi) [mV]","re(rETheta) [mV]","im(rETheta) [mV]"
0.7829,180,90,0,0,-31.6475918196276,84.3104720917165,0.0376096523902627,-0.0219776620278105
"Freq [GHz]","IWavePhi [deg]","IWaveTheta [deg]","Phi [deg]","Theta [deg]","re(rEPhi) [mV]","im(rEPhi) [mV]","re(rETheta) [mV]","im(rETheta) [mV]"
0.7829,180,90,0,180,-31.6041098585051,84.3386016477255,-0.0547515816820278,0.0431458599593611
"Freq [GHz]","IWavePhi [deg]","IWaveTheta [deg]","Phi [deg]","Theta [deg]","re(rEPhi) [mV]","im(rEPhi) [mV]","re(rETheta) [mV]","im(rETheta) [mV]"
0.7829,180,90,45,54.736,-22.4625423521532,60.0397478637712,-12.8973043870005,34.4424820591248
"Freq [GHz]","IWavePhi [deg]","IWaveTheta [deg]","Phi [deg]","Theta [deg]","re(rEPhi) [mV]","im(rEPhi) [mV]","re(rETheta) [mV]","im(rETheta) [mV]"
0.7829,180,90,135,54.736,22.4274017668937,-59.9578556030623,-12.9031740911672,34.4010822819924
"Freq [GHz]","IWavePhi [deg]","IWaveTheta [deg]","Phi [deg]","Theta [deg]","re(rEPhi) [mV]","im(rEPhi) [mV]","re(rETheta) [mV]","im(rETheta) [mV]"
0.7829,180,90,-45,54.736,-22.434117932564,60.0776927013173,12.9861086098832,-34.4456632787066
"Freq [GHz]","IWavePhi [deg]","IWaveTheta [deg]","Phi [deg]","Theta [deg]","re(rEPhi) [mV]","im(rEPhi) [mV]","re(rETheta) [mV]","im(rETheta) [mV]"
0.7829,180,90,45,125.264,-22.469655529861,59.994853723196,12.9100036197203,-34.4530562749766
"Freq [GHz]","IWavePhi [deg]","IWaveTheta [deg]","Phi [deg]","Theta [deg]","re(rEPhi) [mV]","im(rEPhi) [mV]","re(rETheta) [mV]","im(rETheta) [mV]"
0.7829,180,90,-135,54.736,22.3281495561468,-60.1229261559993,12.8962869851938,-34.4783648454143
"Freq [GHz]","IWavePhi [deg]","IWaveTheta [deg]","Phi [deg]","Theta [deg]","re(rEPhi) [mV]","im(rEPhi) [mV]","re(rETheta) [mV]","im(rETheta) [mV]"
0.7829,180,90,-45,125.264,-22.2810493353968,60.0683797456249,-12.8606780599707,34.4264867713698
"Freq [GHz]","IWavePhi [deg]","IWaveTheta [deg]","Phi [deg]","Theta [deg]","re(rEPhi) [mV]","im(rEPhi) [mV]","re(rETheta) [mV]","im(rETheta) [mV]"
0.7829,180,90,135,125.264,22.3995966076946,-60.1196484590517,12.8907857636607,-34.522347788224
"Freq [GHz]","IWavePhi [deg]","IWaveTheta [deg]","Phi [deg]","Theta [deg]","re(rEPhi) [mV]","im(rEPhi) [mV]","re(rETheta) [mV]","im(rETheta) [mV]"
0.7829,180,90,-135,125.264,22.3829092717632,-60.1203230319255,-12.9057040088538,34.4302217428983
"Freq [GHz]","IWavePhi [deg]","IWaveTheta [deg]","Phi [deg]","Theta [deg]","re(rEPhi) [mV]","im(rEPhi) [mV]","re(rETheta) [mV]","im(rETheta) [mV]"
0.7829,360,90,0,90,34.3869222337174,-92.8185772091656,-0.0142577224224246,0.0153269045565905
"Freq [GHz]","IWavePhi [deg]","IWaveTheta [deg]","Phi [deg]","Theta [deg]","re(rEPhi) [mV]","im(rEPhi) [mV]","re(rETheta) [mV]","im(rETheta) [mV]"
0.7829,360,90,180,90,-34.4092382893891,92.7855658500006,-0.0136373882442872,0.0318299983951182
"Freq [GHz]","IWavePhi [deg]","IWaveTheta [deg]","Phi [deg]","Theta [deg]","re(rEPhi) [mV]","im(rEPhi) [mV]","re(rETheta) [mV]","im(rETheta) [mV]"
0.7829,360,90,90,90,0.00471083580831488,-0.0123547503398057,0.00470836512670029,0.00443061503959626
"Freq [GHz]","IWavePhi [deg]","IWaveTheta [deg]","Phi [deg]","Theta [deg]","re(rEPhi) [mV]","im(rEPhi) [mV]","re(rETheta) [mV]","im(rETheta) [mV]"
0.7829,360,90,-90,90,-0.00433939292376473,0.00655737101782979,-0.00979632474447444,-0.00737576675398949
"Freq [GHz]","IWavePhi [deg]","IWaveTheta [deg]","Phi [deg]","Theta [deg]","re(rEPhi) [mV]","im(rEPhi) [mV]","re(rETheta) [mV]","im(rETheta) [mV]"
0.7829,360,90,0,0,31.6475918196276,-84.3104720917165,-0.0376096523902627,0.02197766202781
"Freq [GHz]","IWavePhi [deg]","IWaveTheta [deg]","Phi [deg]","Theta [deg]","re(rEPhi) [mV]","im(rEPhi) [mV]","re(rETheta) [mV]","im(rETheta) [mV]"
0.7829,360,90,0,180,31.6041098585051,-84.3386016477255,0.0547515816820278,-0.0431458599593618
"Freq [GHz]","IWavePhi [deg]","IWaveTheta [deg]","Phi [deg]","Theta [deg]","re(rEPhi) [mV]","im(rEPhi) [mV]","re(rETheta) [mV]","im(rETheta) [mV]"
0.7829,360,90,45,54.736,22.4625423521532,-60.0397478637712,12.8973043870005,-34.4424820591248
"Freq [GHz]","IWavePhi [deg]","IWaveTheta [deg]","Phi [deg]","Theta [deg]","re(rEPhi) [mV]","im(rEPhi) [mV]","re(rETheta) [mV]","im(rETheta) [mV]"
0.7829,360,90,135,54.736,-22.4274017668937,59.9578556030623,12.9031740911672,-34.4010822819924
"Freq [GHz]","IWavePhi [deg]","IWaveTheta [deg]","Phi [deg]","Theta [deg]","re(rEPhi) [mV]","im(rEPhi) [mV]","re(rETheta) [mV]","im(rETheta) [mV]"
0.7829,360,90,-45,54.736,22.434117932564,-60.0776927013173,-12.9861086098832,34.4456632787066
"Freq [GHz]","IWavePhi [deg]","IWaveTheta [deg]","Phi [deg]","Theta [deg]","re(rEPhi) [mV]","im(rEPhi) [mV]","re(rETheta) [mV]","im(rETheta) [mV]"
0.7829,360,90,45,125.264,22.469655529861,-59.994853723196,-12.9100036197203,34.4530562749766
"Freq [GHz]","IWavePhi [deg]","IWaveTheta [deg]","Phi [deg]","Theta [deg]","re(rEPhi) [mV]","im(rEPhi) [mV]","re(rETheta) [mV]","im(rETheta) [mV]"
0.7829,360,90,-135,54.736,-22.3281495561468,60.1229261559993,-12.8962869851938,34.4783648454143
"Freq [GHz]","IWavePhi [deg]","IWaveTheta [deg]","Phi [deg]","Theta [deg]","re(rEPhi) [mV]","im(rEPhi) [mV]","re(rETheta) [mV]","im(rETheta) [mV]"
0.7829,360,90,-45,125.264,22.2810493353968,-60.0683797456249,12.8606780599707,-34.4264867713698
"Freq [GHz]","IWavePhi [deg]","IWaveTheta [deg]","Phi [deg]","Theta [deg]","re(rEPhi) [mV]","im(rEPhi) [mV]","re(rETheta) [mV]","im(rETheta) [mV]"
0.7829,360,90,135,125.264,-22.3995966076946,60.1196484590517,-12.8907857636607,34.522347788224
"Freq [GHz]","IWavePhi [deg]","IWaveTheta [deg]","Phi [deg]","Theta [deg]","re(rEPhi) [mV]","im(rEPhi) [mV]","re(rETheta) [mV]","im(rETheta) [mV]"
0.7829,360,90,-135,125.264,-22.3829092717632,60.1203230319255,12.9057040088538,-34.4302217428983
"Freq [GHz]","IWavePhi [deg]","IWaveTheta [deg]","Phi [deg]","Theta [deg]","re(rEPhi) [mV]","im(rEPhi) [mV]","re(rETheta) [mV]","im(rETheta) [mV]"
0.7829,270,90,0,90,-4.85602001365839e-15,1.4670257366949e-14,-2.91386921811646e-18,-5.8915108707916e-18
"Freq [GHz]","IWavePhi [deg]","IWaveTheta [deg]","Phi [deg]","Theta [deg]","re(rEPhi) [mV]","im(rEPhi) [mV]","re(rETheta) [mV]","im(rETheta) [mV]"
0.7829,270,90,180,90,4.85586906761589e-15,-1.46667353247816e-14,3.62332414902975e-18,-6.00999537455863e-18
"Freq [GHz]","IWavePhi [deg]","IWaveTheta [deg]","Phi [deg]","Theta [deg]","re(rEPhi) [mV]","im(rEPhi) [mV]","re(rETheta) [mV]","im(rETheta) [mV]"
0.7829,270,90,90,90,-6.49780256314339e-19,4.80655462674696e-18,1.71208882340839e-17,2.23184658805277e-18
"Freq [GHz]","IWavePhi [deg]","IWaveTheta [deg]","Phi [deg]","Theta [deg]","re(rEPhi) [mV]","im(rEPhi) [mV]","re(rETheta) [mV]","im(rETheta) [mV]"
0.7829,270,90,-90,90,3.15725475740843e-18,-3.3169975378879e-19,-1.42661786280739e-17,-7.40020471473074e-18
"Freq [GHz]","IWavePhi [deg]","IWaveTheta [deg]","Phi [deg]","Theta [deg]","re(rEPhi) [mV]","im(rEPhi) [mV]","re(rETheta) [mV]","im(rETheta) [mV]"
0.7829,270,90,0,0,-4.44200562740574e-15,1.32601719374061e-14,3.49683426175027e-18,-4.05161565304916e-18
"Freq [GHz]","IWavePhi [deg]","IWaveTheta [deg]","Phi [deg]","Theta [deg]","re(rEPhi) [mV]","im(rEPhi) [mV]","re(rETheta) [mV]","im(rETheta) [mV]"
0.7829,270,90,0,180,-4.4138039985521e-15,1.32688182161483e-14,-9.54612769757655e-18,7.98367544617233e-18
"Freq [GHz]","IWavePhi [deg]","IWaveTheta [deg]","Phi [deg]","Theta [deg]","re(rEPhi) [mV]","im(rEPhi) [mV]","re(rETheta) [mV]","im(rETheta) [mV]"
0.7829,270,90,45,54.736,-3.70700360329772e-15,9.4559986655574e-15,-2.13934817168714e-15,5.4288890668743e-15
"Freq [GHz]","IWavePhi [deg]","IWaveTheta [deg]","Phi [deg]","Theta [deg]","re(rEPhi) [mV]","im(rEPhi) [mV]","re(rETheta) [mV]","im(rETheta) [mV]"
0.7829,270,90,135,54.736,3.6897414554472e-15,-9.44860912959323e-15,-2.12854492829928e-15,5.42380001859451e-15
"Freq [GHz]","IWavePhi [deg]","IWaveTheta [deg]","Phi [deg]","Theta [deg]","re(rEPhi) [mV]","im(rEPhi) [mV]","re(rETheta) [mV]","im(rETheta) [mV]"
0.7829,270,90,-45,54.736,-2.63450746753598e-15,9.44552038528789e-15,1.51009242165036e-15,-5.42306214117094e-15
"Freq [GHz]","IWavePhi [deg]","IWaveTheta [deg]","Phi [deg]","Theta [deg]","re(rEPhi) [mV]","im(rEPhi) [mV]","re(rETheta) [mV]","im(rETheta) [mV]"
0.7829,270,90,45,125.264,-3.69369270865114e-15,9.46729407541288e-15,2.14271616388505e-15,-5.44129714868038e-15
"Freq [GHz]","IWavePhi [deg]","IWaveTheta [deg]","Phi [deg]","Theta [deg]","re(rEPhi) [mV]","im(rEPhi) [mV]","re(rETheta) [mV]","im(rETheta) [mV]"
0.7829,270,90,-135,54.736,2.61775358269002e-15,-9.45294904740342e-15,1.50059539314948e-15,-5.42771170220571e-15
"Freq [GHz]","IWavePhi [deg]","IWaveTheta [deg]","Phi [deg]","Theta [deg]","re(rEPhi) [mV]","im(rEPhi) [mV]","re(rETheta) [mV]","im(rETheta) [mV]"
0.7829,270,90,-45,125.264,-2.59823515689539e-15,9.43050218341524e-15,-1.50548720809788e-15,5.40184963781562e-15
"Freq [GHz]","IWavePhi [deg]","IWaveTheta [deg]","Phi [deg]","Theta [deg]","re(rEPhi) [mV]","im(rEPhi) [mV]","re(rETheta) [mV]","im(rETheta) [mV]"
0.7829,270,90,135,125.264,3.6873209886854e-15,-9.48325629405895e-15,2.14240859299133e-15,-5.44622473254031e-15
"Freq [GHz]","IWavePhi [deg]","IWaveTheta [deg]","Phi [deg]","Theta [deg]","re(rEPhi) [mV]","im(rEPhi) [mV]","re(rETheta) [mV]","im(rETheta) [mV]"
0.7829,270,90,-135,125.264,2.60868705566971e-15,-9.44810189555264e-15,-1.50611716774042e-15,5.41498975863111e-15
"Freq [GHz]","IWavePhi [deg]","IWaveTheta [deg]","Phi [deg]","Theta [deg]","re(rEPhi) [mV]","im(rEPhi) [mV]","re(rETheta) [mV]","im(rETheta) [mV]"
0.7829,90,90,0,90,1.64199224269843e-15,-4.87169432711074e-15,1.52579070864886e-19,3.98198075797165e-18
"Freq [GHz]","IWavePhi [deg]","IWaveTheta [deg]","Phi [deg]","Theta [deg]","re(rEPhi) [mV]","im(rEPhi) [mV]","re(rETheta) [mV]","im(rETheta) [mV]"
0.7829,90,90,180,90,-1.64403541607601e-15,4.8685258368793e-15,-1.6467779015249e-18,4.42037848795849e-18
"Freq [GHz]","IWavePhi [deg]","IWaveTheta [deg]","Phi [deg]","Theta [deg]","re(rEPhi) [mV]","im(rEPhi) [mV]","re(rETheta) [mV]","im(rETheta) [mV]"
0.7829,90,90,90,90,4.61168794375553e-19,-1.53618396986589e-18,-2.32484827343993e-18,8.87760354374364e-19
"Freq [GHz]","IWavePhi [deg]","IWaveTheta [deg]","Phi [deg]","Theta [deg]","re(rEPhi) [mV]","im(rEPhi) [mV]","re(rETheta) [mV]","im(rETheta) [mV]"
0.7829,90,90,-90,90,-1.40806016341925e-18,1.59048445763408e-19,1.18276136062771e-18,2.65199140440441e-18
"Freq [GHz]","IWavePhi [deg]","IWaveTheta [deg]","Phi [deg]","Theta [deg]","re(rEPhi) [mV]","im(rEPhi) [mV]","re(rETheta) [mV]","im(rETheta) [mV]"
0.7829,90,90,0,0,1.50004160820711e-15,-4.40605770443411e-15,-7.85761105475434e-19,8.20291444196767e-19
"Freq [GHz]","IWavePhi [deg]","IWaveTheta [deg]","Phi [deg]","Theta [deg]","re(rEPhi) [mV]","im(rEPhi) [mV]","re(rETheta) [mV]","im(rETheta) [mV]"
0.7829,90,90,0,180,1.49828621124782e-15,-4.40627492378802e-15,3.45909206652576e-18,-1.68884782796583e-18
"Freq [GHz]","IWavePhi [deg]","IWaveTheta [deg]","Phi [deg]","Theta [deg]","re(rEPhi) [mV]","im(rEPhi) [mV]","re(rETheta) [mV]","im(rETheta) [mV]"
0.7829,90,90,45,54.736,8.94053169680847e-16,-3.13128452950448e-15,5.11147988553549e-16,-1.79592712055409e-15
"Freq [GHz]","IWavePhi [deg]","IWaveTheta [deg]","Phi [deg]","Theta [deg]","re(rEPhi) [mV]","im(rEPhi) [mV]","re(rETheta) [mV]","im(rETheta) [mV]"
0.7829,90,90,135,54.736,-8.88425544427518e-16,3.12918510517323e-15,5.07186812211787e-16,-1.79400872692316e-15
"Freq [GHz]","IWavePhi [deg]","IWaveTheta [deg]","Phi [deg]","Theta [deg]","re(rEPhi) [mV]","im(rEPhi) [mV]","re(rETheta) [mV]","im(rETheta) [mV]"
0.7829,90,90,-45,54.736,1.24956154009467e-15,-3.14565518869507e-15,-7.26093918269293e-16,1.80603890358276e-15
"Freq [GHz]","IWavePhi [deg]","IWaveTheta [deg]","Phi [deg]","Theta [deg]","re(rEPhi) [mV]","im(rEPhi) [mV]","re(rETheta) [mV]","im(rETheta) [mV]"
0.7829,90,90,45,125.264,8.9176036047264e-16,-3.13431808661044e-15,-5.10497869561143e-16,1.80298017405182e-15
"Freq [GHz]","IWavePhi [deg]","IWaveTheta [deg]","Phi [deg]","Theta [deg]","re(rEPhi) [mV]","im(rEPhi) [mV]","re(rETheta) [mV]","im(rETheta) [mV]"
0.7829,90,90,-135,54.736,-1.24429006600702e-15,3.14741685302148e-15,-7.22584413285808e-16,1.80777701482738e-15
"Freq [GHz]","IWavePhi [deg]","IWaveTheta [deg]","Phi [deg]","Theta [deg]","re(rEPhi) [mV]","im(rEPhi) [mV]","re(rETheta) [mV]","im(rETheta) [mV]"
0.7829,90,90,-45,125.264,1.23926349349533e-15,-3.14090978554128e-15,7.20595047169146e-16,-1.7973431109392e-15
"Freq [GHz]","IWavePhi [deg]","IWaveTheta [deg]","Phi [deg]","Theta [deg]","re(rEPhi) [mV]","im(rEPhi) [mV]","re(rETheta) [mV]","im(rETheta) [mV]"
0.7829,90,90,135,125.264,-8.90028478304961e-16,3.14040897450172e-15,-5.10156077643793e-16,1.80488481852304e-15
"Freq [GHz]","IWavePhi [deg]","IWaveTheta [deg]","Phi [deg]","Theta [deg]","re(rEPhi) [mV]","im(rEPhi) [mV]","re(rETheta) [mV]","im(rETheta) [mV]"
0.7829,90,90,-135,125.264,-1.24323698938588e-15,3.14507279666871e-15,7.21280510520092e-16,-1.80169023851369e-15
"Freq [GHz]","IWavePhi [deg]","IWaveTheta [deg]","Phi [deg]","Theta [deg]","re(rEPhi) [mV]","im(rEPhi) [mV]","re(rETheta) [mV]","im(rETheta) [mV]"
0.7829,180,180,0,90,-31.4960127956346,84.169123890018,0.0168718846541362,-0.0147573010406258
"Freq [GHz]","IWavePhi [deg]","IWaveTheta [deg]","Phi [deg]","Theta [deg]","re(rEPhi) [mV]","im(rEPhi) [mV]","re(rETheta) [mV]","im(rETheta) [mV]"
0.7829,180,180,180,90,31.4496358002346,-84.1901467794634,0.0160745372573213,-0.0344810978056652
"Freq [GHz]","IWavePhi [deg]","IWaveTheta [deg]","Phi [deg]","Theta [deg]","re(rEPhi) [mV]","im(rEPhi) [mV]","re(rETheta) [mV]","im(rETheta) [mV]"
0.7829,180,180,90,90,-0.0118812439000608,0.0121910461507184,9.57185860403046,0.444139445890963
"Freq [GHz]","IWavePhi [deg]","IWaveTheta [deg]","Phi [deg]","Theta [deg]","re(rEPhi) [mV]","im(rEPhi) [mV]","re(rETheta) [mV]","im(rETheta) [mV]"
0.7829,180,180,-90,90,0.00428127759717073,-0.00974007162777223,-9.57232603054735,-0.465132100111406
"Freq [GHz]","IWavePhi [deg]","IWaveTheta [deg]","Phi [deg]","Theta [deg]","re(rEPhi) [mV]","im(rEPhi) [mV]","re(rETheta) [mV]","im(rETheta) [mV]"
0.7829,180,180,0,0,-20.4961403836708,77.2803398054491,0.0262442653755774,-0.0207717281649433
"Freq [GHz]","IWavePhi [deg]","IWaveTheta [deg]","Phi [deg]","Theta [deg]","re(rEPhi) [mV]","im(rEPhi) [mV]","re(rETheta) [mV]","im(rETheta) [mV]"
0.7829,180,180,0,180,-36.1259415451119,75.5615893289303,-0.0550444823308756,0.0329635954189282
"Freq [GHz]","IWavePhi [deg]","IWaveTheta [deg]","Phi [deg]","Theta [deg]","re(rEPhi) [mV]","im(rEPhi) [mV]","re(rETheta) [mV]","im(rETheta) [mV]"
0.7829,180,180,45,54.736,-17.3181308952892,54.7855999582265,-4.67614629921396,31.6799878574267
"Freq [GHz]","IWavePhi [deg]","IWaveTheta [deg]","Phi [deg]","Theta [deg]","re(rEPhi) [mV]","im(rEPhi) [mV]","re(rETheta) [mV]","im(rETheta) [mV]"
0.7829,180,180,135,54.736,17.2912525677319,-54.7070132985896,-4.65616678968738,31.6379827710799
"Freq [GHz]","IWavePhi [deg]","IWaveTheta [deg]","Phi [deg]","Theta [deg]","re(rEPhi) [mV]","im(rEPhi) [mV]","re(rETheta) [mV]","im(rETheta) [mV]"
0.7829,180,180,-45,54.736,-17.3174491546082,54.8190698148098,4.75316816804196,-31.6927237895369
"Freq [GHz]","IWavePhi [deg]","IWaveTheta [deg]","Phi [deg]","Theta [deg]","re(rEPhi) [mV]","im(rEPhi) [mV]","re(rETheta) [mV]","im(rETheta) [mV]"
0.7829,180,180,45,125.264,-23.4761947617882,54.0678793973408,18.4677867672251,-30.8052170256435
"Freq [GHz]","IWavePhi [deg]","IWaveTheta [deg]","Phi [deg]","Theta [deg]","re(rEPhi) [mV]","im(rEPhi) [mV]","re(rETheta) [mV]","im(rETheta) [mV]"
0.7829,180,180,-135,54.736,17.2226201273074,-54.8488396703545,4.67693190632477,-31.7293670718306
"Freq [GHz]","IWavePhi [deg]","IWaveTheta [deg]","Phi [deg]","Theta [deg]","re(rEPhi) [mV]","im(rEPhi) [mV]","re(rETheta) [mV]","im(rETheta) [mV]"
0.7829,180,180,-45,125.264,-23.3043147850049,54.1092560347581,-18.4219651696854,30.7389292055606
"Freq [GHz]","IWavePhi [deg]","IWaveTheta [deg]","Phi [deg]","Theta [deg]","re(rEPhi) [mV]","im(rEPhi) [mV]","re(rETheta) [mV]","im(rETheta) [mV]"
0.7829,180,180,135,125.264,23.4203573453374,-54.1836701300169,18.4365089649924,-30.8638267653159
"Freq [GHz]","IWavePhi [deg]","IWaveTheta [deg]","Phi [deg]","Theta [deg]","re(rEPhi) [mV]","im(rEPhi) [mV]","re(rETheta) [mV]","im(rETheta) [mV]"
0.7829,180,180,-135,125.264,23.4157134984649,-54.1462962354226,-18.4698872477829,30.7642313655769
"Freq [GHz]","IWavePhi [deg]","IWaveTheta [deg]","Phi [deg]","Theta [deg]","re(rEPhi) [mV]","im(rEPhi) [mV]","re(rETheta) [mV]","im(rETheta) [mV]"
0.7829,180,0,0,90,-30.9733861259878,84.9633850488333,-0.00409480514939719,-0.0710635789947322
"Freq [GHz]","IWavePhi [deg]","IWaveTheta [deg]","Phi [deg]","Theta [deg]","re(rEPhi) [mV]","im(rEPhi) [mV]","re(rETheta) [mV]","im(rETheta) [mV]"
0.7829,180,0,180,90,30.9602067829096,-84.9527786061424,0.0115511281481455,-0.0834033048068361
"Freq [GHz]","IWavePhi [deg]","IWaveTheta [deg]","Phi [deg]","Theta [deg]","re(rEPhi) [mV]","im(rEPhi) [mV]","re(rETheta) [mV]","im(rETheta) [mV]"
0.7829,180,0,90,90,-0.00911930340910694,0.0178397426688812,-9.59517686711148,-0.469949375306675
"Freq [GHz]","IWavePhi [deg]","IWaveTheta [deg]","Phi [deg]","Theta [deg]","re(rEPhi) [mV]","im(rEPhi) [mV]","re(rETheta) [mV]","im(rETheta) [mV]"
0.7829,180,0,-90,90,0.0192480559132105,-0.0101556556974875,9.63200983191861,0.430524405990632
"Freq [GHz]","IWavePhi [deg]","IWaveTheta [deg]","Phi [deg]","Theta [deg]","re(rEPhi) [mV]","im(rEPhi) [mV]","re(rETheta) [mV]","im(rETheta) [mV]"
0.7829,180,0,0,0,-35.6017804427867,76.0974076263019,0.010701966723552,-0.0191406691307236
"Freq [GHz]","IWavePhi [deg]","IWaveTheta [deg]","Phi [deg]","Theta [deg]","re(rEPhi) [mV]","im(rEPhi) [mV]","re(rETheta) [mV]","im(rETheta) [mV]"
0.7829,180,0,0,180,-19.8500488006494,77.8799371968616,-0.0581450542758251,0.0284864565403368
"Freq [GHz]","IWavePhi [deg]","IWaveTheta [deg]","Phi [deg]","Theta [deg]","re(rEPhi) [mV]","im(rEPhi) [mV]","re(rETheta) [mV]","im(rETheta) [mV]"
0.7829,180,0,45,54.736,-23.0783597765432,54.4636776726163,-18.2582141496589,30.9745833537329
"Freq [GHz]","IWavePhi [deg]","IWaveTheta [deg]","Phi [deg]","Theta [deg]","re(rEPhi) [mV]","im(rEPhi) [mV]","re(rETheta) [mV]","im(rETheta) [mV]"
0.7829,180,0,135,54.736,23.0462623558991,-54.3961948638248,-18.2386331920222,30.930758904787
"Freq [GHz]","IWavePhi [deg]","IWaveTheta [deg]","Phi [deg]","Theta [deg]","re(rEPhi) [mV]","im(rEPhi) [mV]","re(rETheta) [mV]","im(rETheta) [mV]"
0.7829,180,0,-45,54.736,-23.0735958237637,54.5876741972544,18.3361904386253,-31.0960215765524
"Freq [GHz]","IWavePhi [deg]","IWaveTheta [deg]","Phi [deg]","Theta [deg]","re(rEPhi) [mV]","im(rEPhi) [mV]","re(rETheta) [mV]","im(rETheta) [mV]"
0.7829,180,0,45,125.264,-16.8590547413808,55.1808856626239,4.38994445364109,-31.9838770845599
"Freq [GHz]","IWavePhi [deg]","IWaveTheta [deg]","Phi [deg]","Theta [deg]","re(rEPhi) [mV]","im(rEPhi) [mV]","re(rETheta) [mV]","im(rETheta) [mV]"
0.7829,180,0,-135,54.736,22.9944757983472,-54.5607152591101,18.2793437069595,-31.0790467426556
