"Freq [GHz]","IWavePhi [deg]","IWaveTheta [deg]","Phi [deg]","Theta [deg]","re(rEPhi) [mV]","im(rEPhi) [mV]","re(rETheta) [mV]","im(rETheta) [mV]"
0.9965,180,90,0,90,20.5044697051169,86.3133974101419,-0.0218680945387486,-0.0252929765262007
"Freq [GHz]","IWavePhi [deg]","IWaveTheta [deg]","Phi [deg]","Theta [deg]","re(rEPhi) [mV]","im(rEPhi) [mV]","re(rETheta) [mV]","im(rETheta) [mV]"
0.9965,180,90,180,90,-20.5240639316255,-86.3229272206339,0.00404809877688686,-0.0320367197636029
"Freq [GHz]","IWavePhi [deg]","IWaveTheta [deg]","Phi [deg]","Theta [deg]","re(rEPhi) [mV]","im(rEPhi) [mV]","re(rETheta) [mV]","im(rETheta) [mV]"
0.9965,180,90,90,90,-0.0102589464254983,-0.0109044770405045,-0.00238239273862959,-0.0150075933042054
"Freq [GHz]","IWavePhi [deg]","IWaveTheta [deg]","Phi [deg]","Theta [deg]","re(rEPhi) [mV]","im(rEPhi) [mV]","re(rETheta) [mV]","im(rETheta) [mV]"
0.9965,180,90,-90,90,-0.00918052138544743,-0.0100875328276352,-0.0158327258188221,-0.000736202851773291
"Freq [GHz]","IWavePhi [deg]","IWaveTheta [deg]","Phi [deg]","Theta [deg]","re(rEPhi) [mV]","im(rEPhi) [mV]","re(rETheta) [mV]","im(rETheta) [mV]"
0.9965,180,90,0,0,16.6874533458655,73.6612881603507,0.00953053658277147,-0.0127637244773829
"Freq [GHz]","IWavePhi [deg]","IWaveTheta [deg]","Phi [deg]","Theta [deg]","re(rEPhi) [mV]","im(rEPhi) [mV]","re(rETheta) [mV]","im(rETheta) [mV]"
0.9965,180,90,0,180,16.7172753626269,73.7155785162167,0.0101214877281207,0.00314120940927604
"Freq [GHz]","IWavePhi [deg]","IWaveTheta [deg]","Phi [deg]","Theta [deg]","re(rEPhi) [mV]","im(rEPhi) [mV]","re(rETheta) [mV]","im(rETheta) [mV]"
0.9965,180,90,0,90,-20.5044697051169,-86.3133974101419,0.0218680945341482,0.0252929765288006
"Freq [GHz]","IWavePhi [deg]","IWaveTheta [deg]","Phi [deg]","Theta [deg]","re(rEPhi) [mV]","im(rEPhi) [mV]","re(rETheta) [mV]","im(rETheta) [mV]"
0.9965,180,90,180,90,20.5240639316255,86.3229272206339,-0.00404809878736146,0.0320367197730788
"Freq [GHz]","IWavePhi [deg]","IWaveTheta [deg]","Phi [deg]","Theta [deg]","re(rEPhi) [mV]","im(rEPhi) [mV]","re(rETheta) [mV]","im(rETheta) [mV]"
0.9965,180,90,90,90,0.0102589464254986,0.0109044770405002,0.00238239272629962,0.0150075933103107
"Freq [GHz]","IWavePhi [deg]","IWaveTheta [deg]","Phi [deg]","Theta [deg]","re(rEPhi) [mV]","im(rEPhi) [mV]","re(rETheta) [mV]","im(rETheta) [mV]"
0.9965,180,90,-90,90,0.00918052138544779,0.0100875328276381,0.0158327258205242,0.000736202844902638
"Freq [GHz]","IWavePhi [deg]","IWaveTheta [deg]","Phi [deg]","Theta [deg]","re(rEPhi) [mV]","im(rEPhi) [mV]","re(rETheta) [mV]","im(rETheta) [mV]"
0.9965,180,90,0,0,-16.6874533458655,-73.6612881603507,-0.0095305365824728,0.0127637244773594
"Freq [GHz]","IWavePhi [deg]","IWaveTheta [deg]","Phi [deg]","Theta [deg]","re(rEPhi) [mV]","im(rEPhi) [mV]","re(rETheta) [mV]","im(rETheta) [mV]"
0.9965,180,90,0,180,-16.7172753626269,-73.7155785162167,-0.0101214877278219,-0.00314120940925253
"Freq [GHz]","IWavePhi [deg]","IWaveTheta [deg]","Phi [deg]","Theta [deg]","re(rEPhi) [mV]","im(rEPhi) [mV]","re(rETheta) [mV]","im(rETheta) [mV]"
0.9965,180,90,0,90,1.9208099900677e-15,7.92038905933672e-15,-3.25627731433015e-15,1.02264166968904e-15
"Freq [GHz]","IWavePhi [deg]","IWaveTheta [deg]","Phi [deg]","Theta [deg]","re(rEPhi) [mV]","im(rEPhi) [mV]","re(rETheta) [mV]","im(rETheta) [mV]"
0.9965,180,90,180,90,-1.92223617117859e-15,-7.92100607038736e-15,-3.2547084536256e-15,1.01998210959701e-15
"Freq [GHz]","IWavePhi [deg]","IWaveTheta [deg]","Phi [deg]","Theta [deg]","re(rEPhi) [mV]","im(rEPhi) [mV]","re(rETheta) [mV]","im(rETheta) [mV]"
0.9965,180,90,90,90,-4.274737976579e-19,-1.01464626549756e-18,-1.7418297886659e-15,6.93018512617558e-16
"Freq [GHz]","IWavePhi [deg]","IWaveTheta [deg]","Phi [deg]","Theta [deg]","re(rEPhi) [mV]","im(rEPhi) [mV]","re(rETheta) [mV]","im(rETheta) [mV]"
0.9965,180,90,-90,90,-7.0595098945042e-19,-6.26772382029622e-19,-3.38965285164529e-16,2.99462817950615e-16
"Freq [GHz]","IWavePhi [deg]","IWaveTheta [deg]","Phi [deg]","Theta [deg]","re(rEPhi) [mV]","im(rEPhi) [mV]","re(rETheta) [mV]","im(rETheta) [mV]"
0.9965,180,90,0,0,4.02975711001211e-15,6.8623009637138e-15,8.14712069459956e-19,-4.96431294791921e-19
"Freq [GHz]","IWavePhi [deg]","IWaveTheta [deg]","Phi [deg]","Theta [deg]","re(rEPhi) [mV]","im(rEPhi) [mV]","re(rETheta) [mV]","im(rETheta) [mV]"
0.9965,180,90,0,180,-8.89107505402975e-16,6.66077854649702e-15,5.08585992927161e-19,6.12249940751678e-19
"Freq [GHz]","IWavePhi [deg]","IWaveTheta [deg]","Phi [deg]","Theta [deg]","re(rEPhi) [mV]","im(rEPhi) [mV]","re(rETheta) [mV]","im(rETheta) [mV]"
0.9965,180,90,0,90,-5.26658881392843e-19,1.71222679334082e-18,3.25579164351303e-15,-1.01788567227133e-15
"Freq [GHz]","IWavePhi [deg]","IWaveTheta [deg]","Phi [deg]","Theta [deg]","re(rEPhi) [mV]","im(rEPhi) [mV]","re(rETheta) [mV]","im(rETheta) [mV]"
0.9965,180,90,180,90,3.74392550150505e-19,-1.36686605597073e-18,3.25659299676655e-15,-1.01603048645971e-15
"Freq [GHz]","IWavePhi [deg]","IWaveTheta [deg]","Phi [deg]","Theta [deg]","re(rEPhi) [mV]","im(rEPhi) [mV]","re(rETheta) [mV]","im(rETheta) [mV]"
0.9965,180,90,90,90,-3.46360103708565e-19,8.66531707386769e-19,3.37474428241422e-16,-2.91573535459868e-16
"Freq [GHz]","IWavePhi [deg]","IWaveTheta [deg]","Phi [deg]","Theta [deg]","re(rEPhi) [mV]","im(rEPhi) [mV]","re(rETheta) [mV]","im(rETheta) [mV]"
0.9965,180,90,-90,90,-8.97222272885641e-20,-6.10751392396661e-19,1.7431216291955e-15,-6.94836608344798e-16
"Freq [GHz]","IWavePhi [deg]","IWaveTheta [deg]","Phi [deg]","Theta [deg]","re(rEPhi) [mV]","im(rEPhi) [mV]","re(rETheta) [mV]","im(rETheta) [mV]"
0.9965,180,90,0,0,2.46148465339595e-15,1.035265280196e-16,1.52064009637132e-21,-4.62710670515972e-19
"Freq [GHz]","IWavePhi [deg]","IWaveTheta [deg]","Phi [deg]","Theta [deg]","re(rEPhi) [mV]","im(rEPhi) [mV]","re(rETheta) [mV]","im(rETheta) [mV]"
0.9965,180,90,0,180,-2.46051474471314e-15,-1.01806289552948e-16,4.36004591233288e-19,-4.98901766581238e-19
"Freq [GHz]","IWavePhi [deg]","IWaveTheta [deg]","Phi [deg]","Theta [deg]","re(rEPhi) [mV]","im(rEPhi) [mV]","re(rETheta) [mV]","im(rETheta) [mV]"
0.9965,180,90,0,90,16.7465005376784,73.5921565465351,-0.0242148621509879,-0.0293695243771808
"Freq [GHz]","IWavePhi [deg]","IWaveTheta [deg]","Phi [deg]","Theta [deg]","re(rEPhi) [mV]","im(rEPhi) [mV]","re(rETheta) [mV]","im(rETheta) [mV]"
0.9965,180,90,180,90,-16.7623611002289,-73.5982263835032,-0.00564593464261094,-0.0257327048656741
"Freq [GHz]","IWavePhi [deg]","IWaveTheta [deg]","Phi [deg]","Theta [deg]","re(rEPhi) [mV]","im(rEPhi) [mV]","re(rETheta) [mV]","im(rETheta) [mV]"
0.9965,180,90,90,90,-0.0079568085121491,-0.00732859707236873,15.312406760946,0.614247597804814
"Freq [GHz]","IWavePhi [deg]","IWaveTheta [deg]","Phi [deg]","Theta [deg]","re(rEPhi) [mV]","im(rEPhi) [mV]","re(rETheta) [mV]","im(rETheta) [mV]"
0.9965,180,90,-90,90,-0.00708059639008437,-0.00859884239962139,-15.3214411426066,-0.631466007608038
"Freq [GHz]","IWavePhi [deg]","IWaveTheta [deg]","Phi [deg]","Theta [deg]","re(rEPhi) [mV]","im(rEPhi) [mV]","re(rETheta) [mV]","im(rETheta) [mV]"
0.9965,180,90,0,0,25.2277608823692,65.5054008933418,0.00700043498565769,-0.00828948845968725
"Freq [GHz]","IWavePhi [deg]","IWaveTheta [deg]","Phi [deg]","Theta [deg]","re(rEPhi) [mV]","im(rEPhi) [mV]","re(rETheta) [mV]","im(rETheta) [mV]"
0.9965,180,90,0,180,4.80645197255695,60.1679020039584,0.00885766713909865,0.000135081664466726
"Freq [GHz]","IWavePhi [deg]","IWaveTheta [deg]","Phi [deg]","Theta [deg]","re(rEPhi) [mV]","im(rEPhi) [mV]","re(rETheta) [mV]","im(rETheta) [mV]"
0.9965,180,90,0,90,16.7361163090836,73.5963260038595,-0.0128935727247618,-0.0142998019709378
"Freq [GHz]","IWavePhi [deg]","IWaveTheta [deg]","Phi [deg]","Theta [deg]","re(rEPhi) [mV]","im(rEPhi) [mV]","re(rETheta) [mV]","im(rETheta) [mV]"
0.9965,180,90,180,90,-16.7541320144947,-73.6056403083727,0.0127275447433136,-0.0297645519043533
"Freq [GHz]","IWavePhi [deg]","IWaveTheta [deg]","Phi [deg]","Theta [deg]","re(rEPhi) [mV]","im(rEPhi) [mV]","re(rETheta) [mV]","im(rETheta) [mV]"
0.9965,180,90,90,90,-0.0094644430565981,-0.0113748231094361,-15.3145509643375,-0.640101976671087
"Freq [GHz]","IWavePhi [deg]","IWaveTheta [deg]","Phi [deg]","Theta [deg]","re(rEPhi) [mV]","im(rEPhi) [mV]","re(rETheta) [mV]","im(rETheta) [mV]"
0.9965,180,90,-90,90,-0.00861050764068128,-0.00828180528191634,15.2968717779266,0.629973247700188
"Freq [GHz]","IWavePhi [deg]","IWaveTheta [deg]","Phi [deg]","Theta [deg]","re(rEPhi) [mV]","im(rEPhi) [mV]","re(rETheta) [mV]","im(rETheta) [mV]"
0.9965,180,90,0,0,4.76534312477271,60.1306519454842,0.00938616527710392,-0.0134746409145214
"Freq [GHz]","IWavePhi [deg]","IWaveTheta [deg]","Phi [deg]","Theta [deg]","re(rEPhi) [mV]","im(rEPhi) [mV]","re(rETheta) [mV]","im(rETheta) [mV]"
0.9965,180,90,0,180,25.2376637709156,65.557416248869,0.00839298387235097,0.00551074040852902
"Freq [GHz]","IWavePhi [deg]","IWaveTheta [deg]","Phi [deg]","Theta [deg]","re(rEPhi) [mV]","im(rEPhi) [mV]","re(rETheta) [mV]","im(rETheta) [mV]"
0.9965,180,90,0,90,0.0136206679841554,0.030640879919927,36.7605093472677,-13.5533863486112
"Freq [GHz]","IWavePhi [deg]","IWaveTheta [deg]","Phi [deg]","Theta [deg]","re(rEPhi) [mV]","im(rEPhi) [mV]","re(rETheta) [mV]","im(rETheta) [mV]"
0.9965,180,90,180,90,-0.0144907537845813,-0.0236927464033125,36.7707945335788,-13.5240420546056
"Freq [GHz]","IWavePhi [deg]","IWaveTheta [deg]","Phi [deg]","Theta [deg]","re(rEPhi) [mV]","im(rEPhi) [mV]","re(rETheta) [mV]","im(rETheta) [mV]"
0.9965,180,90,90,90,-0.00375215253690369,0.00548305130960738,20.2825059197174,-6.29626280780485
"Freq [GHz]","IWavePhi [deg]","IWaveTheta [deg]","Phi [deg]","Theta [deg]","re(rEPhi) [mV]","im(rEPhi) [mV]","re(rETheta) [mV]","im(rETheta) [mV]"
0.9965,180,90,-90,90,-0.00324059146093979,-0.00700400726431509,20.2663453870523,-6.34580789345628
"Freq [GHz]","IWavePhi [deg]","IWaveTheta [deg]","Phi [deg]","Theta [deg]","re(rEPhi) [mV]","im(rEPhi) [mV]","re(rETheta) [mV]","im(rETheta) [mV]"
0.9965,180,90,0,0,0.00835028947218506,0.00803722712350349,-0.00052724223256709,-0.0056998495749026
"Freq [GHz]","IWavePhi [deg]","IWaveTheta [deg]","Phi [deg]","Theta [deg]","re(rEPhi) [mV]","im(rEPhi) [mV]","re(rETheta) [mV]","im(rETheta) [mV]"
0.9965,180,90,0,180,0.0242428013832687,0.0298284644026315,0.00395095960436156,-0.00471377677077864
"Freq [GHz]","IWavePhi [deg]","IWaveTheta [deg]","Phi [deg]","Theta [deg]","re(rEPhi) [mV]","im(rEPhi) [mV]","re(rETheta) [mV]","im(rETheta) [mV]"
0.9965,180,90,0,90,0.0136206679840335,0.0306408799196127,36.7605093472677,-13.5533863486112
"Freq [GHz]","IWavePhi [deg]","IWaveTheta [deg]","Phi [deg]","Theta [deg]","re(rEPhi) [mV]","im(rEPhi) [mV]","re(rETheta) [mV]","im(rETheta) [mV]"
0.9965,180,90,180,90,-0.0144907537844602,-0.0236927464036285,36.7707945335788,-13.5240420546056
"Freq [GHz]","IWavePhi [deg]","IWaveTheta [deg]","Phi [deg]","Theta [deg]","re(rEPhi) [mV]","im(rEPhi) [mV]","re(rETheta) [mV]","im(rETheta) [mV]"
0.9965,180,90,90,90,-0.00375215253721146,0.00548305130974212,20.2825059197174,-6.29626280780485
"Freq [GHz]","IWavePhi [deg]","IWaveTheta [deg]","Phi [deg]","Theta [deg]","re(rEPhi) [mV]","im(rEPhi) [mV]","re(rETheta) [mV]","im(rETheta) [mV]"
0.9965,180,90,-90,90,-0.00324059146061215,-0.00700400726413513,20.2663453870523,-6.34580789345628
"Freq [GHz]","IWavePhi [deg]","IWaveTheta [deg]","Phi [deg]","Theta [deg]","re(rEPhi) [mV]","im(rEPhi) [mV]","re(rETheta) [mV]","im(rETheta) [mV]"
0.9965,180,90,0,0,0.00835028947220903,0.00803722712350178,-0.000527242232581506,-0.00569984957488278
"Freq [GHz]","IWavePhi [deg]","IWaveTheta [deg]","Phi [deg]","Theta [deg]","re(rEPhi) [mV]","im(rEPhi) [mV]","re(rETheta) [mV]","im(rETheta) [mV]"
0.9965,180,90,0,180,0.0242428013832907,0.0298284644026337,0.00395095960434715,-0.00471377677079864
"Freq [GHz]","IWavePhi [deg]","IWaveTheta [deg]","Phi [deg]","Theta [deg]","re(rEPhi) [mV]","im(rEPhi) [mV]","re(rETheta) [mV]","im(rETheta) [mV]"
0.9965,180,90,0,90,0.0161054099483559,0.0128522941826633,20.2294407610636,-6.37684696516767
"Freq [GHz]","IWavePhi [deg]","IWaveTheta [deg]","Phi [deg]","Theta [deg]","re(rEPhi) [mV]","im(rEPhi) [mV]","re(rETheta) [mV]","im(rETheta) [mV]"
0.9965,180,90,180,90,-0.0169893371659099,-0.0104764396916016,20.2325611724018,-6.36392215140925
"Freq [GHz]","IWavePhi [deg]","IWaveTheta [deg]","Phi [deg]","Theta [deg]","re(rEPhi) [mV]","im(rEPhi) [mV]","re(rETheta) [mV]","im(rETheta) [mV]"
0.9965,180,90,90,90,-0.00208267390114078,0.00108336028117811,10.8406649644894,-4.3203159932777
"Freq [GHz]","IWavePhi [deg]","IWaveTheta [deg]","Phi [deg]","Theta [deg]","re(rEPhi) [mV]","im(rEPhi) [mV]","re(rETheta) [mV]","im(rETheta) [mV]"
0.9965,180,90,-90,90,-0.00218723172649445,-0.00357015195450991,2.08486539607159,-1.859831355809
"Freq [GHz]","IWavePhi [deg]","IWaveTheta [deg]","Phi [deg]","Theta [deg]","re(rEPhi) [mV]","im(rEPhi) [mV]","re(rETheta) [mV]","im(rETheta) [mV]"
0.9965,180,90,0,0,-15.3010863535722,-0.631936781671416,-0.000417200614677519,-0.00294048946635631
"Freq [GHz]","IWavePhi [deg]","IWaveTheta [deg]","Phi [deg]","Theta [deg]","re(rEPhi) [mV]","im(rEPhi) [mV]","re(rETheta) [mV]","im(rETheta) [mV]"
0.9965,180,90,0,180,15.3202962358301,0.648229435064085,0.00100223525244192,-0.00137874602225701
"Freq [GHz]","IWavePhi [deg]","IWaveTheta [deg]","Phi [deg]","Theta [deg]","re(rEPhi) [mV]","im(rEPhi) [mV]","re(rETheta) [mV]","im(rETheta) [mV]"
0.9965,180,90,0,90,-0.0032749736785607,0.0106473449518867,20.2459161852168,-6.32965193451749
"Freq [GHz]","IWavePhi [deg]","IWaveTheta [deg]","Phi [deg]","Theta [deg]","re(rEPhi) [mV]","im(rEPhi) [mV]","re(rETheta) [mV]","im(rETheta) [mV]"
0.9965,180,90,180,90,0.00232812093922804,-0.008499793131902,20.2508993592673,-6.31811563863448
"Freq [GHz]","IWavePhi [deg]","IWaveTheta [deg]","Phi [deg]","Theta [deg]","re(rEPhi) [mV]","im(rEPhi) [mV]","re(rETheta) [mV]","im(rETheta) [mV]"
0.9965,180,90,90,90,-0.00215382273661639,0.00538845771686252,2.09856147638253,-1.81312992330035
"Freq [GHz]","IWavePhi [deg]","IWaveTheta [deg]","Phi [deg]","Theta [deg]","re(rEPhi) [mV]","im(rEPhi) [mV]","re(rETheta) [mV]","im(rETheta) [mV]"
0.9965,180,90,-90,90,-0.000557929796864638,-0.00379790359946643,10.8394818711692,-4.32079364286676
"Freq [GHz]","IWavePhi [deg]","IWaveTheta [deg]","Phi [deg]","Theta [deg]","re(rEPhi) [mV]","im(rEPhi) [mV]","re(rETheta) [mV]","im(rETheta) [mV]"
0.9965,180,90,0,0,15.3065728846627,0.643772598398277,9.45644205253135e-06,-0.00287733555803172
"Freq [GHz]","IWavePhi [deg]","IWaveTheta [deg]","Phi [deg]","Theta [deg]","re(rEPhi) [mV]","im(rEPhi) [mV]","re(rETheta) [mV]","im(rETheta) [mV]"
0.9965,180,90,0,180,-15.3005415676818,-0.633075398367872,0.00271128197986134,-0.00310238429447771
"Freq [GHz]","IWavePhi [deg]","IWaveTheta [deg]","Phi [deg]","Theta [deg]","re(rEPhi) [mV]","im(rEPhi) [mV]","re(rETheta) [mV]","im(rETheta) [mV]"
0.9965,180,90,0,90,1.02463989000284e-15,4.50523933901997e-15,-1.30744540662339e-15,4.79888885882789e-16
"Freq [GHz]","IWavePhi [deg]","IWaveTheta [deg]","Phi [deg]","Theta [deg]","re(rEPhi) [mV]","im(rEPhi) [mV]","re(rETheta) [mV]","im(rETheta) [mV]"
0.9965,180,90,180,90,-1.02557730194502e-15,-4.50584245823505e-15,-1.30668714321503e-15,4.79073702511334e-16
"Freq [GHz]","IWavePhi [deg]","IWaveTheta [deg]","Phi [deg]","Theta [deg]","re(rEPhi) [mV]","im(rEPhi) [mV]","re(rETheta) [mV]","im(rETheta) [mV]"
0.9965,180,90,90,90,-3.50107242097124e-19,-6.47770052239848e-19,2.17310576431569e-16,2.61409310877469e-16
"Freq [GHz]","IWavePhi [deg]","IWaveTheta [deg]","Phi [deg]","Theta [deg]","re(rEPhi) [mV]","im(rEPhi) [mV]","re(rETheta) [mV]","im(rETheta) [mV]"
0.9965,180,90,-90,90,-3.10556928077749e-19,-2.94167676809834e-19,-1.65760151985516e-15,1.86805327473021e-16
"Freq [GHz]","IWavePhi [deg]","IWaveTheta [deg]","Phi [deg]","Theta [deg]","re(rEPhi) [mV]","im(rEPhi) [mV]","re(rETheta) [mV]","im(rETheta) [mV]"
0.9965,180,90,0,0,1.54424928525331e-15,4.01082495967908e-15,4.28766348968019e-19,-3.12485425662827e-19
"Freq [GHz]","IWavePhi [deg]","IWaveTheta [deg]","Phi [deg]","Theta [deg]","re(rEPhi) [mV]","im(rEPhi) [mV]","re(rETheta) [mV]","im(rETheta) [mV]"
0.9965,180,90,0,180,2.93118490098898e-16,3.68327270594978e-15,4.13967159368931e-19,1.84623744212681e-19
"Freq [GHz]","IWavePhi [deg]","IWaveTheta [deg]","Phi [deg]","Theta [deg]","re(rEPhi) [mV]","im(rEPhi) [mV]","re(rETheta) [mV]","im(rETheta) [mV]"
0.9965,180,90,0,90,-1.0240887072988e-15,-4.50166898853449e-15,5.47758384751585e-15,-2.0184538230003e-15
"Freq [GHz]","IWavePhi [deg]","IWaveTheta [deg]","Phi [deg]","Theta [deg]","re(rEPhi) [mV]","im(rEPhi) [mV]","re(rETheta) [mV]","im(rETheta) [mV]"
0.9965,180,90,180,90,1.0250758255677e-15,4.50334107707016e-15,5.47749288728025e-15,-2.01311526266042e-15
"Freq [GHz]","IWavePhi [deg]","IWaveTheta [deg]","Phi [deg]","Theta [deg]","re(rEPhi) [mV]","im(rEPhi) [mV]","re(rETheta) [mV]","im(rETheta) [mV]"
0.9965,180,90,90,90,3.60047673434604e-20,1.49633878777512e-18,3.95723384615128e-15,-8.99086882650946e-16
"Freq [GHz]","IWavePhi [deg]","IWaveTheta [deg]","Phi [deg]","Theta [deg]","re(rEPhi) [mV]","im(rEPhi) [mV]","re(rETheta) [mV]","im(rETheta) [mV]"
0.9965,180,90,-90,90,7.7035409841765e-20,-6.07297427426833e-19,2.08168041596784e-15,-9.84021754019439e-16
"Freq [GHz]","IWavePhi [deg]","IWaveTheta [deg]","Phi [deg]","Theta [deg]","re(rEPhi) [mV]","im(rEPhi) [mV]","re(rETheta) [mV]","im(rETheta) [mV]"
0.9965,180,90,0,0,-2.91452104993844e-16,-3.68055495054674e-15,-7.31551605600137e-19,-5.64361094789708e-20
"Freq [GHz]","IWavePhi [deg]","IWaveTheta [deg]","Phi [deg]","Theta [deg]","re(rEPhi) [mV]","im(rEPhi) [mV]","re(rETheta) [mV]","im(rETheta) [mV]"
0.9965,180,90,0,180,-1.54321448360331e-15,-4.00961895205052e-15,1.25421054181696e-19,-1.0040641714291e-18
