"Freq [GHz]","IWavePhi [deg]","IWaveTheta [deg]","Phi [deg]","Theta [deg]","re(rEPhi) [mV]","im(rEPhi) [mV]","re(rETheta) [mV]","im(rETheta) [mV]"
0.8541,180,90,0,90,-6.06807498225123,99.4635588220304,-0.03286940770147,-0.0989835151594772
"Freq [GHz]","IWavePhi [deg]","IWaveTheta [deg]","Phi [deg]","Theta [deg]","re(rEPhi) [mV]","im(rEPhi) [mV]","re(rETheta) [mV]","im(rETheta) [mV]"
0.8541,180,90,180,90,6.07892690213394,-99.4459927757954,0.0083596172535849,-0.152555549920295
"Freq [GHz]","IWavePhi [deg]","IWaveTheta [deg]","Phi [deg]","Theta [deg]","re(rEPhi) [mV]","im(rEPhi) [mV]","re(rETheta) [mV]","im(rETheta) [mV]"
0.8541,180,90,90,90,0.0432266553408068,0.0358326833952066,0.0365475104210439,-0.0798668551055027
"Freq [GHz]","IWavePhi [deg]","IWaveTheta [deg]","Phi [deg]","Theta [deg]","re(rEPhi) [mV]","im(rEPhi) [mV]","re(rETheta) [mV]","im(rETheta) [mV]"
0.8541,180,90,-90,90,0.0439304712483801,-0.0294035730890954,-0.0303638414292099,-0.0508483358855903
"Freq [GHz]","IWavePhi [deg]","IWaveTheta [deg]","Phi [deg]","Theta [deg]","re(rEPhi) [mV]","im(rEPhi) [mV]","re(rETheta) [mV]","im(rETheta) [mV]"
0.8541,180,90,0,0,-5.76712461818094,88.2000134576187,-0.0051141440363281,-0.0665907018614515
"Freq [GHz]","IWavePhi [deg]","IWaveTheta [deg]","Phi [deg]","Theta [deg]","re(rEPhi) [mV]","im(rEPhi) [mV]","re(rETheta) [mV]","im(rETheta) [mV]"
0.8541,180,90,0,180,-5.80389027380003,88.2245251242018,0.00628624186308939,0.118064240269188
"Freq [GHz]","IWavePhi [deg]","IWaveTheta [deg]","Phi [deg]","Theta [deg]","re(rEPhi) [mV]","im(rEPhi) [mV]","re(rETheta) [mV]","im(rETheta) [mV]"
0.8541,180,90,45,54.736,-3.96983073895263,63.0935631507817,-2.3484328978516,36.0942551905693
"Freq [GHz]","IWavePhi [deg]","IWaveTheta [deg]","Phi [deg]","Theta [deg]","re(rEPhi) [mV]","im(rEPhi) [mV]","re(rETheta) [mV]","im(rETheta) [mV]"
0.8541,180,90,135,54.736,3.98721442774623,-63.0089374002194,-2.34635559570168,36.0257046379168
"Freq [GHz]","IWavePhi [deg]","IWaveTheta [deg]","Phi [deg]","Theta [deg]","re(rEPhi) [mV]","im(rEPhi) [mV]","re(rETheta) [mV]","im(rETheta) [mV]"
0.8541,180,90,-45,54.736,-3.92985874198675,63.162325156455,2.37988994409215,-36.2872592118357
"Freq [GHz]","IWavePhi [deg]","IWaveTheta [deg]","Phi [deg]","Theta [deg]","re(rEPhi) [mV]","im(rEPhi) [mV]","re(rETheta) [mV]","im(rETheta) [mV]"
0.8541,180,90,45,125.264,-3.94404064937062,63.1283631244728,2.31952156641473,-36.2721890265655
"Freq [GHz]","IWavePhi [deg]","IWaveTheta [deg]","Phi [deg]","Theta [deg]","re(rEPhi) [mV]","im(rEPhi) [mV]","re(rETheta) [mV]","im(rETheta) [mV]"
0.8541,180,90,-135,54.736,3.82624795212928,-63.1420665925249,2.2974080906763,-36.2749669236685
"Freq [GHz]","IWavePhi [deg]","IWaveTheta [deg]","Phi [deg]","Theta [deg]","re(rEPhi) [mV]","im(rEPhi) [mV]","re(rETheta) [mV]","im(rETheta) [mV]"
0.8541,180,90,-45,125.264,-3.83813689808468,62.9854195402209,-2.36757915770855,36.0360181380186
"Freq [GHz]","IWavePhi [deg]","IWaveTheta [deg]","Phi [deg]","Theta [deg]","re(rEPhi) [mV]","im(rEPhi) [mV]","re(rETheta) [mV]","im(rETheta) [mV]"
0.8541,180,90,135,125.264,3.8395387748073,-63.1552418235111,2.28621669388971,-36.2833683288906
"Freq [GHz]","IWavePhi [deg]","IWaveTheta [deg]","Phi [deg]","Theta [deg]","re(rEPhi) [mV]","im(rEPhi) [mV]","re(rETheta) [mV]","im(rETheta) [mV]"
0.8541,180,90,-135,125.264,3.88430789450175,-63.0853825050874,-2.34996339585595,36.0992081801961
"Freq [GHz]","IWavePhi [deg]","IWaveTheta [deg]","Phi [deg]","Theta [deg]","re(rEPhi) [mV]","im(rEPhi) [mV]","re(rETheta) [mV]","im(rETheta) [mV]"
0.8541,180,90,0,90,6.06807498225124,-99.4635588220304,0.032869407715765,0.0989835151638751
"Freq [GHz]","IWavePhi [deg]","IWaveTheta [deg]","Phi [deg]","Theta [deg]","re(rEPhi) [mV]","im(rEPhi) [mV]","re(rETheta) [mV]","im(rETheta) [mV]"
0.8541,180,90,180,90,-6.07892690213395,99.4459927757954,-0.00835961723925877,0.152555549915889
"Freq [GHz]","IWavePhi [deg]","IWaveTheta [deg]","Phi [deg]","Theta [deg]","re(rEPhi) [mV]","im(rEPhi) [mV]","re(rETheta) [mV]","im(rETheta) [mV]"
0.8541,180,90,90,90,-0.0432266553417372,-0.0358326833972922,-0.0365475104265059,0.0798668550915454
"Freq [GHz]","IWavePhi [deg]","IWaveTheta [deg]","Phi [deg]","Theta [deg]","re(rEPhi) [mV]","im(rEPhi) [mV]","re(rETheta) [mV]","im(rETheta) [mV]"
0.8541,180,90,-90,90,-0.0439304712474411,0.0294035730869999,0.0303638414237673,0.0508483358995235
"Freq [GHz]","IWavePhi [deg]","IWaveTheta [deg]","Phi [deg]","Theta [deg]","re(rEPhi) [mV]","im(rEPhi) [mV]","re(rETheta) [mV]","im(rETheta) [mV]"
0.8541,180,90,0,0,5.76712461818094,-88.2000134576187,0.00511414403463309,0.0665907018629811
"Freq [GHz]","IWavePhi [deg]","IWaveTheta [deg]","Phi [deg]","Theta [deg]","re(rEPhi) [mV]","im(rEPhi) [mV]","re(rETheta) [mV]","im(rETheta) [mV]"
0.8541,180,90,0,180,5.80389027380004,-88.2245251242018,-0.0062862418614038,-0.118064240267668
"Freq [GHz]","IWavePhi [deg]","IWaveTheta [deg]","Phi [deg]","Theta [deg]","re(rEPhi) [mV]","im(rEPhi) [mV]","re(rETheta) [mV]","im(rETheta) [mV]"
0.8541,180,90,45,54.736,3.96983073895406,-63.0935631507823,2.3484328978619,-36.094255190574
"Freq [GHz]","IWavePhi [deg]","IWaveTheta [deg]","Phi [deg]","Theta [deg]","re(rEPhi) [mV]","im(rEPhi) [mV]","re(rETheta) [mV]","im(rETheta) [mV]"
0.8541,180,90,135,54.736,-3.98721442774655,63.0089374002179,2.34635559569937,-36.0257046379297
"Freq [GHz]","IWavePhi [deg]","IWaveTheta [deg]","Phi [deg]","Theta [deg]","re(rEPhi) [mV]","im(rEPhi) [mV]","re(rETheta) [mV]","im(rETheta) [mV]"
0.8541,180,90,-45,54.736,3.92985874198561,-63.1623251564562,-2.37988994408467,36.2872592118441
"Freq [GHz]","IWavePhi [deg]","IWaveTheta [deg]","Phi [deg]","Theta [deg]","re(rEPhi) [mV]","im(rEPhi) [mV]","re(rETheta) [mV]","im(rETheta) [mV]"
0.8541,180,90,45,125.264,3.94404064937213,-63.128363124472,-2.31952156640298,36.2721890265715
"Freq [GHz]","IWavePhi [deg]","IWaveTheta [deg]","Phi [deg]","Theta [deg]","re(rEPhi) [mV]","im(rEPhi) [mV]","re(rETheta) [mV]","im(rETheta) [mV]"
0.8541,180,90,-135,54.736,-3.8262479521308,63.1420665925256,-2.29740809066456,36.2749669236625
"Freq [GHz]","IWavePhi [deg]","IWaveTheta [deg]","Phi [deg]","Theta [deg]","re(rEPhi) [mV]","im(rEPhi) [mV]","re(rETheta) [mV]","im(rETheta) [mV]"
0.8541,180,90,-45,125.264,3.838136898085,-62.9854195402225,2.36757915770623,-36.0360181380057
"Freq [GHz]","IWavePhi [deg]","IWaveTheta [deg]","Phi [deg]","Theta [deg]","re(rEPhi) [mV]","im(rEPhi) [mV]","re(rETheta) [mV]","im(rETheta) [mV]"
0.8541,180,90,135,125.264,-3.83953877480615,63.1552418235099,-2.28621669388226,36.2833683288822
"Freq [GHz]","IWavePhi [deg]","IWaveTheta [deg]","Phi [deg]","Theta [deg]","re(rEPhi) [mV]","im(rEPhi) [mV]","re(rETheta) [mV]","im(rETheta) [mV]"
0.8541,180,90,-135,125.264,-3.88430789450317,63.0853825050868,2.34996339586624,-36.0992081801914
"Freq [GHz]","IWavePhi [deg]","IWaveTheta [deg]","Phi [deg]","Theta [deg]","re(rEPhi) [mV]","im(rEPhi) [mV]","re(rETheta) [mV]","im(rETheta) [mV]"
0.8541,180,90,0,90,-8.69717285633587e-16,1.47262744148665e-14,-6.01439484258487e-18,-1.32143502769755e-17
"Freq [GHz]","IWavePhi [deg]","IWaveTheta [deg]","Phi [deg]","Theta [deg]","re(rEPhi) [mV]","im(rEPhi) [mV]","re(rETheta) [mV]","im(rETheta) [mV]"
0.8541,180,90,180,90,8.71769155244186e-16,-1.47224038017256e-14,6.93287945031654e-19,-2.14259773925931e-17
"Freq [GHz]","IWavePhi [deg]","IWaveTheta [deg]","Phi [deg]","Theta [deg]","re(rEPhi) [mV]","im(rEPhi) [mV]","re(rETheta) [mV]","im(rETheta) [mV]"
0.8541,180,90,90,90,6.84802251847731e-18,4.97512723068768e-18,1.01277771471869e-17,-1.13921155208627e-17
"Freq [GHz]","IWavePhi [deg]","IWaveTheta [deg]","Phi [deg]","Theta [deg]","re(rEPhi) [mV]","im(rEPhi) [mV]","re(rETheta) [mV]","im(rETheta) [mV]"
0.8541,180,90,-90,90,6.02077407683132e-18,-4.04768370165822e-18,-9.89757231687187e-18,-6.64590661215634e-18
"Freq [GHz]","IWavePhi [deg]","IWaveTheta [deg]","Phi [deg]","Theta [deg]","re(rEPhi) [mV]","im(rEPhi) [mV]","re(rETheta) [mV]","im(rETheta) [mV]"
0.8541,180,90,0,0,-8.29786139986256e-16,1.30569985614683e-14,-1.16071633017144e-18,-9.89049233801251e-18
"Freq [GHz]","IWavePhi [deg]","IWaveTheta [deg]","Phi [deg]","Theta [deg]","re(rEPhi) [mV]","im(rEPhi) [mV]","re(rETheta) [mV]","im(rETheta) [mV]"
0.8541,180,90,0,180,-8.28123224978624e-16,1.3060903227179e-14,1.61661308249748e-18,1.74086812409911e-17
"Freq [GHz]","IWavePhi [deg]","IWaveTheta [deg]","Phi [deg]","Theta [deg]","re(rEPhi) [mV]","im(rEPhi) [mV]","re(rETheta) [mV]","im(rETheta) [mV]"
0.8541,180,90,45,54.736,-1.37447787126824e-15,9.3549867096184e-15,-8.1143277435962e-16,5.3544090977212e-15
"Freq [GHz]","IWavePhi [deg]","IWaveTheta [deg]","Phi [deg]","Theta [deg]","re(rEPhi) [mV]","im(rEPhi) [mV]","re(rETheta) [mV]","im(rETheta) [mV]"
0.8541,180,90,135,54.736,1.37620028287847e-15,-9.34459028869653e-15,-8.10987412714384e-16,5.34422939547601e-15
"Freq [GHz]","IWavePhi [deg]","IWaveTheta [deg]","Phi [deg]","Theta [deg]","re(rEPhi) [mV]","im(rEPhi) [mV]","re(rETheta) [mV]","im(rETheta) [mV]"
0.8541,180,90,-45,54.736,1.83093447168706e-16,9.33642064996222e-15,-1.01783619787115e-16,-5.36245911603232e-15
"Freq [GHz]","IWavePhi [deg]","IWaveTheta [deg]","Phi [deg]","Theta [deg]","re(rEPhi) [mV]","im(rEPhi) [mV]","re(rETheta) [mV]","im(rETheta) [mV]"
0.8541,180,90,45,125.264,-1.36742498642809e-15,9.36109912523662e-15,8.10134160491343e-16,-5.37870627419492e-15
"Freq [GHz]","IWavePhi [deg]","IWaveTheta [deg]","Phi [deg]","Theta [deg]","re(rEPhi) [mV]","im(rEPhi) [mV]","re(rETheta) [mV]","im(rETheta) [mV]"
0.8541,180,90,-135,54.736,-1.98568708484198e-16,-9.33238339136184e-15,-1.13884182738101e-16,-5.3595098485536e-15
"Freq [GHz]","IWavePhi [deg]","IWaveTheta [deg]","Phi [deg]","Theta [deg]","re(rEPhi) [mV]","im(rEPhi) [mV]","re(rETheta) [mV]","im(rETheta) [mV]"
0.8541,180,90,-45,125.264,1.97802751466933e-16,9.30832485484673e-15,9.68648275407565e-17,5.32606771065038e-15
"Freq [GHz]","IWavePhi [deg]","IWaveTheta [deg]","Phi [deg]","Theta [deg]","re(rEPhi) [mV]","im(rEPhi) [mV]","re(rETheta) [mV]","im(rETheta) [mV]"
0.8541,180,90,135,125.264,1.35333821306673e-15,-9.36474545139641e-15,8.06072248011672e-16,-5.38030314367705e-15
"Freq [GHz]","IWavePhi [deg]","IWaveTheta [deg]","Phi [deg]","Theta [deg]","re(rEPhi) [mV]","im(rEPhi) [mV]","re(rETheta) [mV]","im(rETheta) [mV]"
0.8541,180,90,-135,125.264,-1.92561565670604e-16,-9.32395100255476e-15,9.97166944305396e-17,5.33509582570747e-15
"Freq [GHz]","IWavePhi [deg]","IWaveTheta [deg]","Phi [deg]","Theta [deg]","re(rEPhi) [mV]","im(rEPhi) [mV]","re(rETheta) [mV]","im(rETheta) [mV]"
0.8541,180,90,0,90,2.92224967446593e-16,-4.90764752170807e-15,2.53222767924278e-18,5.05732204200347e-18
"Freq [GHz]","IWavePhi [deg]","IWaveTheta [deg]","Phi [deg]","Theta [deg]","re(rEPhi) [mV]","im(rEPhi) [mV]","re(rETheta) [mV]","im(rETheta) [mV]"
0.8541,180,90,180,90,-2.92611829631111e-16,4.90721674023986e-15,7.02993216228595e-19,7.60214619781842e-18
"Freq [GHz]","IWavePhi [deg]","IWaveTheta [deg]","Phi [deg]","Theta [deg]","re(rEPhi) [mV]","im(rEPhi) [mV]","re(rETheta) [mV]","im(rETheta) [mV]"
0.8541,180,90,90,90,-1.99329984371253e-18,-1.88995245611694e-18,2.94251424017737e-19,3.77712741825703e-18
"Freq [GHz]","IWavePhi [deg]","IWaveTheta [deg]","Phi [deg]","Theta [deg]","re(rEPhi) [mV]","im(rEPhi) [mV]","re(rETheta) [mV]","im(rETheta) [mV]"
0.8541,180,90,-90,90,-2.32595242931371e-18,1.53961903113943e-18,2.4007965022477e-19,2.75810125380007e-18
"Freq [GHz]","IWavePhi [deg]","IWaveTheta [deg]","Phi [deg]","Theta [deg]","re(rEPhi) [mV]","im(rEPhi) [mV]","re(rETheta) [mV]","im(rETheta) [mV]"
0.8541,180,90,0,0,2.76354296556851e-16,-4.35242187422674e-15,9.04524826378768e-20,3.28350423991274e-18
"Freq [GHz]","IWavePhi [deg]","IWaveTheta [deg]","Phi [deg]","Theta [deg]","re(rEPhi) [mV]","im(rEPhi) [mV]","re(rETheta) [mV]","im(rETheta) [mV]"
0.8541,180,90,0,180,2.80499479925347e-16,-4.3535245162293e-15,-7.11738404943524e-20,-5.87012251458741e-18
"Freq [GHz]","IWavePhi [deg]","IWaveTheta [deg]","Phi [deg]","Theta [deg]","re(rEPhi) [mV]","im(rEPhi) [mV]","re(rETheta) [mV]","im(rETheta) [mV]"
0.8541,180,90,45,54.736,-5.80329758123465e-17,-3.10895438010748e-15,-3.22683389455256e-17,-1.77799524378861e-15
"Freq [GHz]","IWavePhi [deg]","IWaveTheta [deg]","Phi [deg]","Theta [deg]","re(rEPhi) [mV]","im(rEPhi) [mV]","re(rETheta) [mV]","im(rETheta) [mV]"
0.8541,180,90,135,54.736,5.68579930960371e-17,3.10404378818796e-15,-3.2301203263306e-17,-1.77462275937008e-15
"Freq [GHz]","IWavePhi [deg]","IWaveTheta [deg]","Phi [deg]","Theta [deg]","re(rEPhi) [mV]","im(rEPhi) [mV]","re(rETheta) [mV]","im(rETheta) [mV]"
0.8541,180,90,-45,54.736,4.57049757318126e-16,-3.12149135393621e-15,-2.7354905559763e-16,1.7936102910708e-15
"Freq [GHz]","IWavePhi [deg]","IWaveTheta [deg]","Phi [deg]","Theta [deg]","re(rEPhi) [mV]","im(rEPhi) [mV]","re(rETheta) [mV]","im(rETheta) [mV]"
0.8541,180,90,45,125.264,-5.84047443568801e-17,-3.11034387659318e-15,3.6420572103895e-17,1.78691092507867e-15
"Freq [GHz]","IWavePhi [deg]","IWaveTheta [deg]","Phi [deg]","Theta [deg]","re(rEPhi) [mV]","im(rEPhi) [mV]","re(rETheta) [mV]","im(rETheta) [mV]"
0.8541,180,90,-135,54.736,-4.51985021355005e-16,3.12082358972894e-15,-2.69425336394533e-16,1.7933678323688e-15
"Freq [GHz]","IWavePhi [deg]","IWaveTheta [deg]","Phi [deg]","Theta [deg]","re(rEPhi) [mV]","im(rEPhi) [mV]","re(rETheta) [mV]","im(rETheta) [mV]"
0.8541,180,90,-45,125.264,4.53057499941644e-16,-3.11338737992938e-15,2.7238815029145e-16,-1.78121656615802e-15
"Freq [GHz]","IWavePhi [deg]","IWaveTheta [deg]","Phi [deg]","Theta [deg]","re(rEPhi) [mV]","im(rEPhi) [mV]","re(rETheta) [mV]","im(rETheta) [mV]"
0.8541,180,90,135,125.264,6.40336106794481e-17,3.11178543059256e-15,3.83587090860907e-17,1.78748918512672e-15
"Freq [GHz]","IWavePhi [deg]","IWaveTheta [deg]","Phi [deg]","Theta [deg]","re(rEPhi) [mV]","im(rEPhi) [mV]","re(rETheta) [mV]","im(rETheta) [mV]"
0.8541,180,90,-135,125.264,-4.55896916261771e-16,3.1180443403325e-15,2.71619031068522e-16,-1.78444088702349e-15
"Freq [GHz]","IWavePhi [deg]","IWaveTheta [deg]","Phi [deg]","Theta [deg]","re(rEPhi) [mV]","im(rEPhi) [mV]","re(rETheta) [mV]","im(rETheta) [mV]"
0.8541,180,90,0,90,-5.81737731037554,88.3268121155026,-0.0177865103455236,-0.102804689880613
"Freq [GHz]","IWavePhi [deg]","IWaveTheta [deg]","Phi [deg]","Theta [deg]","re(rEPhi) [mV]","im(rEPhi) [mV]","re(rETheta) [mV]","im(rETheta) [mV]"
0.8541,180,90,180,90,5.82844592859635,-88.306671685046,0.0247816903703668,-0.140436458331444
"Freq [GHz]","IWavePhi [deg]","IWaveTheta [deg]","Phi [deg]","Theta [deg]","re(rEPhi) [mV]","im(rEPhi) [mV]","re(rETheta) [mV]","im(rETheta) [mV]"
0.8541,180,90,90,90,0.0377797600871949,0.0377646531273724,11.6297945215009,0.649952864407468
"Freq [GHz]","IWavePhi [deg]","IWaveTheta [deg]","Phi [deg]","Theta [deg]","re(rEPhi) [mV]","im(rEPhi) [mV]","re(rETheta) [mV]","im(rETheta) [mV]"
0.8541,180,90,-90,90,0.0389791630200127,-0.0220784083853955,-11.6489818612292,-0.755677268955487
"Freq [GHz]","IWavePhi [deg]","IWaveTheta [deg]","Phi [deg]","Theta [deg]","re(rEPhi) [mV]","im(rEPhi) [mV]","re(rETheta) [mV]","im(rETheta) [mV]"
0.8541,180,90,0,0,4.14386242108111,79.7765093866489,-0.00706544015798599,-0.0533372683591365
"Freq [GHz]","IWavePhi [deg]","IWaveTheta [deg]","Phi [deg]","Theta [deg]","re(rEPhi) [mV]","im(rEPhi) [mV]","re(rETheta) [mV]","im(rETheta) [mV]"
0.8541,180,90,0,180,-13.5377661292806,76.8886870401712,0.0108168376450799,0.104284223733196
"Freq [GHz]","IWavePhi [deg]","IWaveTheta [deg]","Phi [deg]","Theta [deg]","re(rEPhi) [mV]","im(rEPhi) [mV]","re(rETheta) [mV]","im(rETheta) [mV]"
0.8541,180,90,45,54.736,-0.189691270206193,56.6011134649547,6.43724705274161,32.769760017112
"Freq [GHz]","IWavePhi [deg]","IWaveTheta [deg]","Phi [deg]","Theta [deg]","re(rEPhi) [mV]","im(rEPhi) [mV]","re(rETheta) [mV]","im(rETheta) [mV]"
0.8541,180,90,135,54.736,0.191305834482055,-56.5230736485815,6.44540803708348,32.705891533007
"Freq [GHz]","IWavePhi [deg]","IWaveTheta [deg]","Phi [deg]","Theta [deg]","re(rEPhi) [mV]","im(rEPhi) [mV]","re(rETheta) [mV]","im(rETheta) [mV]"
0.8541,180,90,-45,54.736,-0.136163371919104,56.6616492751898,-6.41462483243352,-32.9543619925903
"Freq [GHz]","IWavePhi [deg]","IWaveTheta [deg]","Phi [deg]","Theta [deg]","re(rEPhi) [mV]","im(rEPhi) [mV]","re(rETheta) [mV]","im(rETheta) [mV]"
0.8541,180,90,45,125.264,-7.03564902740729,55.4905490047219,10.2468502343008,-31.4884655299479
"Freq [GHz]","IWavePhi [deg]","IWaveTheta [deg]","Phi [deg]","Theta [deg]","re(rEPhi) [mV]","im(rEPhi) [mV]","re(rETheta) [mV]","im(rETheta) [mV]"
0.8541,180,90,-135,54.736,0.0422740689437111,-56.6348502543032,-6.49693629353605,-32.9300029989479
"Freq [GHz]","IWavePhi [deg]","IWaveTheta [deg]","Phi [deg]","Theta [deg]","re(rEPhi) [mV]","im(rEPhi) [mV]","re(rETheta) [mV]","im(rETheta) [mV]"
0.8541,180,90,-45,125.264,-6.91930841457573,55.3651534968794,-10.2842483559901,31.2837785056505
"Freq [GHz]","IWavePhi [deg]","IWaveTheta [deg]","Phi [deg]","Theta [deg]","re(rEPhi) [mV]","im(rEPhi) [mV]","re(rETheta) [mV]","im(rETheta) [mV]"
0.8541,180,90,135,125.264,6.94580522940557,-55.5126595369688,10.2315419042642,-31.4955766486779
"Freq [GHz]","IWavePhi [deg]","IWaveTheta [deg]","Phi [deg]","Theta [deg]","re(rEPhi) [mV]","im(rEPhi) [mV]","re(rETheta) [mV]","im(rETheta) [mV]"
0.8541,180,90,-135,125.264,6.97050075368313,-55.4518159158145,-10.2757242257805,31.3447801488365
"Freq [GHz]","IWavePhi [deg]","IWaveTheta [deg]","Phi [deg]","Theta [deg]","re(rEPhi) [mV]","im(rEPhi) [mV]","re(rETheta) [mV]","im(rETheta) [mV]"
0.8541,180,90,0,90,-5.81514204072857,88.3234975871046,-0.0428955236503,-0.0726241769730868
"Freq [GHz]","IWavePhi [deg]","IWaveTheta [deg]","Phi [deg]","Theta [deg]","re(rEPhi) [mV]","im(rEPhi) [mV]","re(rETheta) [mV]","im(rETheta) [mV]"
0.8541,180,90,180,90,5.82312943431575,-88.3115010174681,-0.0123604647151949,-0.130465012409251
"Freq [GHz]","IWavePhi [deg]","IWaveTheta [deg]","Phi [deg]","Theta [deg]","re(rEPhi) [mV]","im(rEPhi) [mV]","re(rETheta) [mV]","im(rETheta) [mV]"
0.8541,180,90,90,90,0.0389271698179743,0.026010669429504,-11.5649128568623,-0.7936037249731
"Freq [GHz]","IWavePhi [deg]","IWaveTheta [deg]","Phi [deg]","Theta [deg]","re(rEPhi) [mV]","im(rEPhi) [mV]","re(rETheta) [mV]","im(rETheta) [mV]"
0.8541,180,90,-90,90,0.0393037960322429,-0.0298970940341945,11.5949571611306,0.667532173487052
"Freq [GHz]","IWavePhi [deg]","IWaveTheta [deg]","Phi [deg]","Theta [deg]","re(rEPhi) [mV]","im(rEPhi) [mV]","re(rETheta) [mV]","im(rETheta) [mV]"
0.8541,180,90,0,0,-13.5124832903638,76.8583468270429,-0.00130884316425072,-0.0648518079476285
"Freq [GHz]","IWavePhi [deg]","IWaveTheta [deg]","Phi [deg]","Theta [deg]","re(rEPhi) [mV]","im(rEPhi) [mV]","re(rETheta) [mV]","im(rETheta) [mV]"
0.8541,180,90,0,180,4.10375690831927,79.7958174338442,-0.000500456049499233,0.105664555100983
"Freq [GHz]","IWavePhi [deg]","IWaveTheta [deg]","Phi [deg]","Theta [deg]","re(rEPhi) [mV]","im(rEPhi) [mV]","re(rETheta) [mV]","im(rETheta) [mV]"
0.8541,180,90,45,54.736,-7.03598435435771,55.4531019325273,-10.2613495966896,31.3308110071106
"Freq [GHz]","IWavePhi [deg]","IWaveTheta [deg]","Phi [deg]","Theta [deg]","re(rEPhi) [mV]","im(rEPhi) [mV]","re(rETheta) [mV]","im(rETheta) [mV]"
0.8541,180,90,135,54.736,7.06602231889624,-55.3808227180205,-10.2653939530637,31.2739098816472
"Freq [GHz]","IWavePhi [deg]","IWaveTheta [deg]","Phi [deg]","Theta [deg]","re(rEPhi) [mV]","im(rEPhi) [mV]","re(rETheta) [mV]","im(rETheta) [mV]"
0.8541,180,90,-45,54.736,-7.01862553744856,55.5119998633995,10.2918735076972,-31.4872024807321
"Freq [GHz]","IWavePhi [deg]","IWaveTheta [deg]","Phi [deg]","Theta [deg]","re(rEPhi) [mV]","im(rEPhi) [mV]","re(rETheta) [mV]","im(rETheta) [mV]"
0.8541,180,90,45,125.264,-0.144889816265944,56.6277558625306,-6.4762261105422,-32.9315152577026
"Freq [GHz]","IWavePhi [deg]","IWaveTheta [deg]","Phi [deg]","Theta [deg]","re(rEPhi) [mV]","im(rEPhi) [mV]","re(rETheta) [mV]","im(rETheta) [mV]"
0.8541,180,90,-135,54.736,6.9286280298877,-55.5025764939688,10.2281201961424,-31.4887241804342
