"Freq [GHz]","IWavePhi [deg]","IWaveTheta [deg]","Phi [deg]","Theta [deg]","re(rEPhi) [mV]","im(rEPhi) [mV]","re(rETheta) [mV]","im(rETheta) [mV]"
1.5659,180,90,0,90,26.6745774522766,67.8372788867943,-0.00409178269454439,-0.0167405462408262
"Freq [GHz]","IWavePhi [deg]","IWaveTheta [deg]","Phi [deg]","Theta [deg]","re(rEPhi) [mV]","im(rEPhi) [mV]","re(rETheta) [mV]","im(rETheta) [mV]"
1.5659,180,90,180,90,-26.63633736755,-67.9653968420923,-0.0362556943402225,0.0382738186392391
"Freq [GHz]","IWavePhi [deg]","IWaveTheta [deg]","Phi [deg]","Theta [deg]","re(rEPhi) [mV]","im(rEPhi) [mV]","re(rETheta) [mV]","im(rETheta) [mV]"
1.5659,180,90,90,90,-0.0226634244930746,0.00339256323149006,0.00644440483456344,-0.066582298807243
"Freq [GHz]","IWavePhi [deg]","IWaveTheta [deg]","Phi [deg]","Theta [deg]","re(rEPhi) [mV]","im(rEPhi) [mV]","re(rETheta) [mV]","im(rETheta) [mV]"
1.5659,180,90,-90,90,0.0196480526052976,0.0168686746484632,-0.0563219891658724,0.00538428012022135
"Freq [GHz]","IWavePhi [deg]","IWaveTheta [deg]","Phi [deg]","Theta [deg]","re(rEPhi) [mV]","im(rEPhi) [mV]","re(rETheta) [mV]","im(rETheta) [mV]"
1.5659,180,90,0,0,14.3327657265563,45.5337475304063,0.0115560170982797,-0.00422425183151081
"Freq [GHz]","IWavePhi [deg]","IWaveTheta [deg]","Phi [deg]","Theta [deg]","re(rEPhi) [mV]","im(rEPhi) [mV]","re(rETheta) [mV]","im(rETheta) [mV]"
1.5659,180,90,0,180,14.084324552978,45.5403532477757,-0.0212206455920276,0.0280221313858631
"Freq [GHz]","IWavePhi [deg]","IWaveTheta [deg]","Phi [deg]","Theta [deg]","re(rEPhi) [mV]","im(rEPhi) [mV]","re(rETheta) [mV]","im(rETheta) [mV]"
1.5659,180,90,0,90,-26.6745774522766,-67.8372788867943,0.00409178269488163,0.0167405462408956
"Freq [GHz]","IWavePhi [deg]","IWaveTheta [deg]","Phi [deg]","Theta [deg]","re(rEPhi) [mV]","im(rEPhi) [mV]","re(rETheta) [mV]","im(rETheta) [mV]"
1.5659,180,90,180,90,26.63633736755,67.9653968420923,0.0362556943405597,-0.0382738186393083
"Freq [GHz]","IWavePhi [deg]","IWaveTheta [deg]","Phi [deg]","Theta [deg]","re(rEPhi) [mV]","im(rEPhi) [mV]","re(rETheta) [mV]","im(rETheta) [mV]"
1.5659,180,90,90,90,0.0226634244930746,-0.00339256323149006,-0.00644440483480299,0.0665822988069955
"Freq [GHz]","IWavePhi [deg]","IWaveTheta [deg]","Phi [deg]","Theta [deg]","re(rEPhi) [mV]","im(rEPhi) [mV]","re(rETheta) [mV]","im(rETheta) [mV]"
1.5659,180,90,-90,90,-0.0196480526052976,-0.0168686746484632,0.0563219891656335,-0.00538428011997359
"Freq [GHz]","IWavePhi [deg]","IWaveTheta [deg]","Phi [deg]","Theta [deg]","re(rEPhi) [mV]","im(rEPhi) [mV]","re(rETheta) [mV]","im(rETheta) [mV]"
1.5659,180,90,0,0,-14.3327657265563,-45.5337475304063,-0.0115560170982797,0.00422425183151081
"Freq [GHz]","IWavePhi [deg]","IWaveTheta [deg]","Phi [deg]","Theta [deg]","re(rEPhi) [mV]","im(rEPhi) [mV]","re(rETheta) [mV]","im(rETheta) [mV]"
1.5659,180,90,0,180,-14.084324552978,-45.5403532477757,0.0212206455920276,-0.0280221313858631
"Freq [GHz]","IWavePhi [deg]","IWaveTheta [deg]","Phi [deg]","Theta [deg]","re(rEPhi) [mV]","im(rEPhi) [mV]","re(rETheta) [mV]","im(rETheta) [mV]"
1.5659,180,90,0,90,2.22127393459761e-15,4.22370203879766e-15,-1.75952148748769e-15,8.4356995415624e-16
"Freq [GHz]","IWavePhi [deg]","IWaveTheta [deg]","Phi [deg]","Theta [deg]","re(rEPhi) [mV]","im(rEPhi) [mV]","re(rETheta) [mV]","im(rETheta) [mV]"
1.5659,180,90,180,90,-2.23043023226211e-15,-4.23780663722161e-15,-1.74818245762056e-15,8.330250040225e-16
"Freq [GHz]","IWavePhi [deg]","IWaveTheta [deg]","Phi [deg]","Theta [deg]","re(rEPhi) [mV]","im(rEPhi) [mV]","re(rETheta) [mV]","im(rETheta) [mV]"
1.5659,180,90,90,90,1.98893024198154e-18,3.90239093280125e-18,-3.6330161391783e-15,4.98922878043108e-15
"Freq [GHz]","IWavePhi [deg]","IWaveTheta [deg]","Phi [deg]","Theta [deg]","re(rEPhi) [mV]","im(rEPhi) [mV]","re(rETheta) [mV]","im(rETheta) [mV]"
1.5659,180,90,-90,90,-5.67330144915704e-18,-3.92338819634861e-18,4.92577903889914e-15,-4.28153691741044e-15
"Freq [GHz]","IWavePhi [deg]","IWaveTheta [deg]","Phi [deg]","Theta [deg]","re(rEPhi) [mV]","im(rEPhi) [mV]","re(rETheta) [mV]","im(rETheta) [mV]"
1.5659,180,90,0,0,5.4439292499563e-15,-3.18910435108759e-17,4.51829645329215e-18,1.78636878406143e-18
"Freq [GHz]","IWavePhi [deg]","IWaveTheta [deg]","Phi [deg]","Theta [deg]","re(rEPhi) [mV]","im(rEPhi) [mV]","re(rETheta) [mV]","im(rETheta) [mV]"
1.5659,180,90,0,180,-2.79531905812407e-15,5.69728230871856e-15,2.76205553212643e-18,1.56688276339247e-18
"Freq [GHz]","IWavePhi [deg]","IWaveTheta [deg]","Phi [deg]","Theta [deg]","re(rEPhi) [mV]","im(rEPhi) [mV]","re(rETheta) [mV]","im(rETheta) [mV]"
1.5659,180,90,0,90,-1.09615331524771e-17,4.89690379117562e-18,1.81210566273816e-15,-8.5028155969563e-16
"Freq [GHz]","IWavePhi [deg]","IWaveTheta [deg]","Phi [deg]","Theta [deg]","re(rEPhi) [mV]","im(rEPhi) [mV]","re(rETheta) [mV]","im(rETheta) [mV]"
1.5659,180,90,180,90,8.65500345100743e-18,-2.63428060773503e-18,1.8200381262284e-15,-8.49915909408274e-16
"Freq [GHz]","IWavePhi [deg]","IWaveTheta [deg]","Phi [deg]","Theta [deg]","re(rEPhi) [mV]","im(rEPhi) [mV]","re(rETheta) [mV]","im(rETheta) [mV]"
1.5659,180,90,90,90,-9.01891522139556e-19,1.09315234287863e-18,-4.95710269695171e-15,4.27262107602576e-15
"Freq [GHz]","IWavePhi [deg]","IWaveTheta [deg]","Phi [deg]","Theta [deg]","re(rEPhi) [mV]","im(rEPhi) [mV]","re(rETheta) [mV]","im(rETheta) [mV]"
1.5659,180,90,-90,90,5.22242739807267e-18,3.23911023940473e-18,3.64986385205426e-15,-5.00084532893708e-15
"Freq [GHz]","IWavePhi [deg]","IWaveTheta [deg]","Phi [deg]","Theta [deg]","re(rEPhi) [mV]","im(rEPhi) [mV]","re(rETheta) [mV]","im(rETheta) [mV]"
1.5659,180,90,0,0,4.12718446300833e-15,-2.86618621386716e-15,3.88745096266049e-18,1.89592065330916e-18
"Freq [GHz]","IWavePhi [deg]","IWaveTheta [deg]","Phi [deg]","Theta [deg]","re(rEPhi) [mV]","im(rEPhi) [mV]","re(rETheta) [mV]","im(rETheta) [mV]"
1.5659,180,90,0,180,-4.14133654346021e-15,2.85998506514017e-15,-2.98012928929772e-19,-2.89334267944049e-18
"Freq [GHz]","IWavePhi [deg]","IWaveTheta [deg]","Phi [deg]","Theta [deg]","re(rEPhi) [mV]","im(rEPhi) [mV]","re(rETheta) [mV]","im(rETheta) [mV]"
1.5659,180,90,0,90,14.0453459295197,45.4867164882031,-0.179029462433037,0.0346966967831648
"Freq [GHz]","IWavePhi [deg]","IWaveTheta [deg]","Phi [deg]","Theta [deg]","re(rEPhi) [mV]","im(rEPhi) [mV]","re(rETheta) [mV]","im(rETheta) [mV]"
1.5659,180,90,180,90,-14.0028062747186,-45.650397763466,-0.228253996581196,0.0550629354472657
"Freq [GHz]","IWavePhi [deg]","IWaveTheta [deg]","Phi [deg]","Theta [deg]","re(rEPhi) [mV]","im(rEPhi) [mV]","re(rETheta) [mV]","im(rETheta) [mV]"
1.5659,180,90,90,90,-0.0032429701905396,0.0152278715372229,25.6704638465687,-17.9346750618339
"Freq [GHz]","IWavePhi [deg]","IWaveTheta [deg]","Phi [deg]","Theta [deg]","re(rEPhi) [mV]","im(rEPhi) [mV]","re(rETheta) [mV]","im(rETheta) [mV]"
1.5659,180,90,-90,90,-0.00259494769681479,-0.000314526743619189,-25.6657921213822,17.9494183808618
"Freq [GHz]","IWavePhi [deg]","IWaveTheta [deg]","Phi [deg]","Theta [deg]","re(rEPhi) [mV]","im(rEPhi) [mV]","re(rETheta) [mV]","im(rETheta) [mV]"
1.5659,180,90,0,0,30.4623066601091,55.8720726418971,-0.00745201159102169,0.00800588663067151
"Freq [GHz]","IWavePhi [deg]","IWaveTheta [deg]","Phi [deg]","Theta [deg]","re(rEPhi) [mV]","im(rEPhi) [mV]","re(rETheta) [mV]","im(rETheta) [mV]"
1.5659,180,90,0,180,-2.76884781279549,5.60473751983741,-0.0208811592864848,0.0218689183070238
"Freq [GHz]","IWavePhi [deg]","IWaveTheta [deg]","Phi [deg]","Theta [deg]","re(rEPhi) [mV]","im(rEPhi) [mV]","re(rETheta) [mV]","im(rETheta) [mV]"
1.5659,180,90,0,90,14.0495431838961,45.6482231632739,0.163847246510181,-0.0507043913838344
"Freq [GHz]","IWavePhi [deg]","IWaveTheta [deg]","Phi [deg]","Theta [deg]","re(rEPhi) [mV]","im(rEPhi) [mV]","re(rETheta) [mV]","im(rETheta) [mV]"
1.5659,180,90,180,90,-14.0374978172691,-45.6631476730717,0.17277803168585,0.00999309766076779
"Freq [GHz]","IWavePhi [deg]","IWaveTheta [deg]","Phi [deg]","Theta [deg]","re(rEPhi) [mV]","im(rEPhi) [mV]","re(rETheta) [mV]","im(rETheta) [mV]"
1.5659,180,90,90,90,-0.0247940512066712,-0.0121633830968647,-25.667082906127,17.8292372627079
"Freq [GHz]","IWavePhi [deg]","IWaveTheta [deg]","Phi [deg]","Theta [deg]","re(rEPhi) [mV]","im(rEPhi) [mV]","re(rETheta) [mV]","im(rETheta) [mV]"
1.5659,180,90,-90,90,0.0249358037840088,0.0204388829531103,25.6107720408269,-17.9314247988592
"Freq [GHz]","IWavePhi [deg]","IWaveTheta [deg]","Phi [deg]","Theta [deg]","re(rEPhi) [mV]","im(rEPhi) [mV]","re(rETheta) [mV]","im(rETheta) [mV]"
1.5659,180,90,0,0,-2.69133006623966,5.70996285855529,0.0246833985713354,-0.0142144818963838
"Freq [GHz]","IWavePhi [deg]","IWaveTheta [deg]","Phi [deg]","Theta [deg]","re(rEPhi) [mV]","im(rEPhi) [mV]","re(rETheta) [mV]","im(rETheta) [mV]"
1.5659,180,90,0,180,30.191731816579,55.9963919002824,-0.0100540574908791,0.0179496642826706
"Freq [GHz]","IWavePhi [deg]","IWaveTheta [deg]","Phi [deg]","Theta [deg]","re(rEPhi) [mV]","im(rEPhi) [mV]","re(rETheta) [mV]","im(rETheta) [mV]"
1.5659,180,90,0,90,0.0404429616694304,0.0418656901346725,54.6980628090688,-78.2502305474631
"Freq [GHz]","IWavePhi [deg]","IWaveTheta [deg]","Phi [deg]","Theta [deg]","re(rEPhi) [mV]","im(rEPhi) [mV]","re(rETheta) [mV]","im(rETheta) [mV]"
1.5659,180,90,180,90,-0.0933780489255004,-0.0136777797459886,54.6752243585758,-78.3434987142064
"Freq [GHz]","IWavePhi [deg]","IWaveTheta [deg]","Phi [deg]","Theta [deg]","re(rEPhi) [mV]","im(rEPhi) [mV]","re(rETheta) [mV]","im(rETheta) [mV]"
1.5659,180,90,90,90,0.0257722627778227,-0.00691182544564116,11.1362935060422,-5.37576381287511
"Freq [GHz]","IWavePhi [deg]","IWaveTheta [deg]","Phi [deg]","Theta [deg]","re(rEPhi) [mV]","im(rEPhi) [mV]","re(rETheta) [mV]","im(rETheta) [mV]"
1.5659,180,90,-90,90,0.0368195188409334,0.00761615542486008,10.8084426282552,-5.34267566620162
"Freq [GHz]","IWavePhi [deg]","IWaveTheta [deg]","Phi [deg]","Theta [deg]","re(rEPhi) [mV]","im(rEPhi) [mV]","re(rETheta) [mV]","im(rETheta) [mV]"
1.5659,180,90,0,0,-0.121852846832561,0.0876165834810666,0.0520064367977753,0.00212397004847512
"Freq [GHz]","IWavePhi [deg]","IWaveTheta [deg]","Phi [deg]","Theta [deg]","re(rEPhi) [mV]","im(rEPhi) [mV]","re(rETheta) [mV]","im(rETheta) [mV]"
1.5659,180,90,0,180,0.172491336314798,-0.0458600588182481,-0.0131679171163639,-0.0347495143255062
"Freq [GHz]","IWavePhi [deg]","IWaveTheta [deg]","Phi [deg]","Theta [deg]","re(rEPhi) [mV]","im(rEPhi) [mV]","re(rETheta) [mV]","im(rETheta) [mV]"
1.5659,180,90,0,90,0.0404429616694304,0.0418656901346725,54.6980628090688,-78.2502305474631
"Freq [GHz]","IWavePhi [deg]","IWaveTheta [deg]","Phi [deg]","Theta [deg]","re(rEPhi) [mV]","im(rEPhi) [mV]","re(rETheta) [mV]","im(rETheta) [mV]"
1.5659,180,90,180,90,-0.0933780489255004,-0.0136777797459886,54.6752243585758,-78.3434987142064
"Freq [GHz]","IWavePhi [deg]","IWaveTheta [deg]","Phi [deg]","Theta [deg]","re(rEPhi) [mV]","im(rEPhi) [mV]","re(rETheta) [mV]","im(rETheta) [mV]"
1.5659,180,90,90,90,0.0257722627778227,-0.00691182544564116,11.1362935060422,-5.37576381287511
"Freq [GHz]","IWavePhi [deg]","IWaveTheta [deg]","Phi [deg]","Theta [deg]","re(rEPhi) [mV]","im(rEPhi) [mV]","re(rETheta) [mV]","im(rETheta) [mV]"
1.5659,180,90,-90,90,0.0368195188409334,0.00761615542486008,10.8084426282552,-5.34267566620162
"Freq [GHz]","IWavePhi [deg]","IWaveTheta [deg]","Phi [deg]","Theta [deg]","re(rEPhi) [mV]","im(rEPhi) [mV]","re(rETheta) [mV]","im(rETheta) [mV]"
1.5659,180,90,0,0,-0.121852846832561,0.0876165834810666,0.0520064367977753,0.00212397004847512
"Freq [GHz]","IWavePhi [deg]","IWaveTheta [deg]","Phi [deg]","Theta [deg]","re(rEPhi) [mV]","im(rEPhi) [mV]","re(rETheta) [mV]","im(rETheta) [mV]"
1.5659,180,90,0,180,0.172491336314798,-0.0458600588182481,-0.0131679171163639,-0.0347495143255062
"Freq [GHz]","IWavePhi [deg]","IWaveTheta [deg]","Phi [deg]","Theta [deg]","re(rEPhi) [mV]","im(rEPhi) [mV]","re(rETheta) [mV]","im(rETheta) [mV]"
1.5659,180,90,0,90,0.0750728489911469,-0.0579285989312968,10.851558530935,-5.22503031924692
"Freq [GHz]","IWavePhi [deg]","IWaveTheta [deg]","Phi [deg]","Theta [deg]","re(rEPhi) [mV]","im(rEPhi) [mV]","re(rETheta) [mV]","im(rETheta) [mV]"
1.5659,180,90,180,90,-0.0283021614097998,0.0679672770460897,10.8017066236404,-5.19050681657762
"Freq [GHz]","IWavePhi [deg]","IWaveTheta [deg]","Phi [deg]","Theta [deg]","re(rEPhi) [mV]","im(rEPhi) [mV]","re(rETheta) [mV]","im(rETheta) [mV]"
1.5659,180,90,90,90,0.00301322520600333,-0.0120746879933413,22.703209692059,-31.1842958752782
"Freq [GHz]","IWavePhi [deg]","IWaveTheta [deg]","Phi [deg]","Theta [deg]","re(rEPhi) [mV]","im(rEPhi) [mV]","re(rETheta) [mV]","im(rETheta) [mV]"
1.5659,180,90,-90,90,-0.0140613716633266,-0.00924724588606886,-30.6343511311338,26.7618312030597
"Freq [GHz]","IWavePhi [deg]","IWaveTheta [deg]","Phi [deg]","Theta [deg]","re(rEPhi) [mV]","im(rEPhi) [mV]","re(rETheta) [mV]","im(rETheta) [mV]"
1.5659,180,90,0,0,-25.5775263499421,17.8845419795822,0.00143581812010953,0.00622118071219466
"Freq [GHz]","IWavePhi [deg]","IWaveTheta [deg]","Phi [deg]","Theta [deg]","re(rEPhi) [mV]","im(rEPhi) [mV]","re(rETheta) [mV]","im(rETheta) [mV]"
1.5659,180,90,0,180,25.6474737756321,-17.8865021344168,-0.00652047407060367,0.0114601109909149
"Freq [GHz]","IWavePhi [deg]","IWaveTheta [deg]","Phi [deg]","Theta [deg]","re(rEPhi) [mV]","im(rEPhi) [mV]","re(rETheta) [mV]","im(rETheta) [mV]"
1.5659,180,90,0,90,-0.0681635216669825,0.0304511094655513,11.2684542984869,-5.2874171662631
"Freq [GHz]","IWavePhi [deg]","IWaveTheta [deg]","Phi [deg]","Theta [deg]","re(rEPhi) [mV]","im(rEPhi) [mV]","re(rETheta) [mV]","im(rETheta) [mV]"
1.5659,180,90,180,90,0.0538205620079966,-0.0163811160196469,11.3177817744283,-5.28514336526994
"Freq [GHz]","IWavePhi [deg]","IWaveTheta [deg]","Phi [deg]","Theta [deg]","re(rEPhi) [mV]","im(rEPhi) [mV]","re(rETheta) [mV]","im(rETheta) [mV]"
1.5659,180,90,90,90,-0.00560835002555517,0.00679775660399405,-30.8254018582017,26.5690001023494
"Freq [GHz]","IWavePhi [deg]","IWaveTheta [deg]","Phi [deg]","Theta [deg]","re(rEPhi) [mV]","im(rEPhi) [mV]","re(rETheta) [mV]","im(rETheta) [mV]"
1.5659,180,90,-90,90,0.0324752397988673,0.020142208638515,22.6964269738961,-31.0974125972913
"Freq [GHz]","IWavePhi [deg]","IWaveTheta [deg]","Phi [deg]","Theta [deg]","re(rEPhi) [mV]","im(rEPhi) [mV]","re(rETheta) [mV]","im(rETheta) [mV]"
1.5659,180,90,0,0,25.6646125129388,-17.8231817464883,0.0241738481655114,0.0117896323722807
"Freq [GHz]","IWavePhi [deg]","IWaveTheta [deg]","Phi [deg]","Theta [deg]","re(rEPhi) [mV]","im(rEPhi) [mV]","re(rETheta) [mV]","im(rETheta) [mV]"
1.5659,180,90,0,180,-25.7526163253769,17.7846201375267,-0.00185323724177703,-0.0179919786905408
"Freq [GHz]","IWavePhi [deg]","IWaveTheta [deg]","Phi [deg]","Theta [deg]","re(rEPhi) [mV]","im(rEPhi) [mV]","re(rETheta) [mV]","im(rETheta) [mV]"
1.5659,180,90,0,90,8.58089199698297e-16,2.78385845444371e-15,-1.74388966705225e-15,2.49126418586051e-15
"Freq [GHz]","IWavePhi [deg]","IWaveTheta [deg]","Phi [deg]","Theta [deg]","re(rEPhi) [mV]","im(rEPhi) [mV]","re(rETheta) [mV]","im(rETheta) [mV]"
1.5659,180,90,180,90,-8.537880558663e-16,-2.79491031525379e-15,-1.74588764930442e-15,2.49556861001862e-15
"Freq [GHz]","IWavePhi [deg]","IWaveTheta [deg]","Phi [deg]","Theta [deg]","re(rEPhi) [mV]","im(rEPhi) [mV]","re(rETheta) [mV]","im(rETheta) [mV]"
1.5659,180,90,90,90,-1.038875078546e-18,1.11790117918478e-18,1.22371558124861e-15,-9.26354520061371e-16
"Freq [GHz]","IWavePhi [deg]","IWaveTheta [deg]","Phi [deg]","Theta [deg]","re(rEPhi) [mV]","im(rEPhi) [mV]","re(rETheta) [mV]","im(rETheta) [mV]"
1.5659,180,90,-90,90,-1.28785747334827e-18,-1.81250214494174e-19,-1.90784470290945e-15,1.26733699568962e-15
"Freq [GHz]","IWavePhi [deg]","IWaveTheta [deg]","Phi [deg]","Theta [deg]","re(rEPhi) [mV]","im(rEPhi) [mV]","re(rETheta) [mV]","im(rETheta) [mV]"
1.5659,180,90,0,0,1.86944732110229e-15,3.4176706666112e-15,-2.29670389196774e-18,6.63914407181724e-19
"Freq [GHz]","IWavePhi [deg]","IWaveTheta [deg]","Phi [deg]","Theta [deg]","re(rEPhi) [mV]","im(rEPhi) [mV]","re(rETheta) [mV]","im(rETheta) [mV]"
1.5659,180,90,0,180,-1.75520693358534e-16,3.45894978195252e-16,-6.60773605186005e-19,2.37643849046694e-18
"Freq [GHz]","IWavePhi [deg]","IWaveTheta [deg]","Phi [deg]","Theta [deg]","re(rEPhi) [mV]","im(rEPhi) [mV]","re(rETheta) [mV]","im(rETheta) [mV]"
1.5659,180,90,0,90,-8.57822233365426e-16,-2.79064696174715e-15,7.26859502695119e-15,-1.04286299308447e-14
"Freq [GHz]","IWavePhi [deg]","IWaveTheta [deg]","Phi [deg]","Theta [deg]","re(rEPhi) [mV]","im(rEPhi) [mV]","re(rETheta) [mV]","im(rETheta) [mV]"
1.5659,180,90,180,90,8.49968243396039e-16,2.7947717938298e-15,7.26618993352835e-15,-1.0444399874818e-14
"Freq [GHz]","IWavePhi [deg]","IWaveTheta [deg]","Phi [deg]","Theta [deg]","re(rEPhi) [mV]","im(rEPhi) [mV]","re(rETheta) [mV]","im(rETheta) [mV]"
1.5659,180,90,90,90,4.877839114673e-18,-3.39252653079804e-19,3.02449208942069e-15,-1.8060604612842e-15
"Freq [GHz]","IWavePhi [deg]","IWaveTheta [deg]","Phi [deg]","Theta [deg]","re(rEPhi) [mV]","im(rEPhi) [mV]","re(rETheta) [mV]","im(rETheta) [mV]"
1.5659,180,90,-90,90,3.58039090509941e-18,1.34340136473253e-19,-1.46912405567024e-16,3.83624500586015e-16
"Freq [GHz]","IWavePhi [deg]","IWaveTheta [deg]","Phi [deg]","Theta [deg]","re(rEPhi) [mV]","im(rEPhi) [mV]","re(rETheta) [mV]","im(rETheta) [mV]"
1.5659,180,90,0,0,1.51937101514884e-16,-3.39784520233692e-16,4.68314184764505e-18,2.2195635283539e-18
"Freq [GHz]","IWavePhi [deg]","IWaveTheta [deg]","Phi [deg]","Theta [deg]","re(rEPhi) [mV]","im(rEPhi) [mV]","re(rETheta) [mV]","im(rETheta) [mV]"
1.5659,180,90,0,180,-1.83028619133202e-15,-3.43203690862566e-15,-3.86551190312128e-19,-6.07575472888927e-18
