"Freq [GHz]","IWavePhi [deg]","IWaveTheta [deg]","Phi [deg]","Theta [deg]","re(rEPhi) [mV]","im(rEPhi) [mV]","re(rETheta) [mV]","im(rETheta) [mV]"
1.1388,180,90,0,90,28.4058854451186,74.8695496053252,-0.0499712370420482,-0.048684523089839
"Freq [GHz]","IWavePhi [deg]","IWaveTheta [deg]","Phi [deg]","Theta [deg]","re(rEPhi) [mV]","im(rEPhi) [mV]","re(rETheta) [mV]","im(rETheta) [mV]"
1.1388,180,90,180,90,-28.3933964084475,-74.8783442449866,-0.0450924453136462,-0.0566513778738985
"Freq [GHz]","IWavePhi [deg]","IWaveTheta [deg]","Phi [deg]","Theta [deg]","re(rEPhi) [mV]","im(rEPhi) [mV]","re(rETheta) [mV]","im(rETheta) [mV]"
1.1388,180,90,90,90,-0.00168668576313604,-0.00438166462273701,0.00455438446012209,-0.0342162668941914
"Freq [GHz]","IWavePhi [deg]","IWaveTheta [deg]","Phi [deg]","Theta [deg]","re(rEPhi) [mV]","im(rEPhi) [mV]","re(rETheta) [mV]","im(rETheta) [mV]"
1.1388,180,90,-90,90,0.0112244351736725,0.00960515806651526,-0.0498508360412863,0.00168561336621072
"Freq [GHz]","IWavePhi [deg]","IWaveTheta [deg]","Phi [deg]","Theta [deg]","re(rEPhi) [mV]","im(rEPhi) [mV]","re(rETheta) [mV]","im(rETheta) [mV]"
1.1388,180,90,0,0,21.8876859276896,60.9434171400011,-0.00232125249953213,-0.00610676604279107
"Freq [GHz]","IWavePhi [deg]","IWaveTheta [deg]","Phi [deg]","Theta [deg]","re(rEPhi) [mV]","im(rEPhi) [mV]","re(rETheta) [mV]","im(rETheta) [mV]"
1.1388,180,90,0,180,21.9258730926572,60.8766193474955,-0.00581242078670341,-0.0204543502495062
"Freq [GHz]","IWavePhi [deg]","IWaveTheta [deg]","Phi [deg]","Theta [deg]","re(rEPhi) [mV]","im(rEPhi) [mV]","re(rETheta) [mV]","im(rETheta) [mV]"
1.1388,180,90,45,54.736,16.31135445769,43.8505899181478,9.12949940535111,25.0733382436778
"Freq [GHz]","IWavePhi [deg]","IWaveTheta [deg]","Phi [deg]","Theta [deg]","re(rEPhi) [mV]","im(rEPhi) [mV]","re(rETheta) [mV]","im(rETheta) [mV]"
1.1388,180,90,135,54.736,-16.2958186369018,-43.8308298017642,9.09528398503137,25.1013226871839
"Freq [GHz]","IWavePhi [deg]","IWaveTheta [deg]","Phi [deg]","Theta [deg]","re(rEPhi) [mV]","im(rEPhi) [mV]","re(rETheta) [mV]","im(rETheta) [mV]"
1.1388,180,90,-45,54.736,16.296229834101,43.8643177299197,-9.14519593049025,-25.1492307697215
"Freq [GHz]","IWavePhi [deg]","IWaveTheta [deg]","Phi [deg]","Theta [deg]","re(rEPhi) [mV]","im(rEPhi) [mV]","re(rETheta) [mV]","im(rETheta) [mV]"
1.1388,180,90,45,125.264,16.316077905342,43.8031139368244,-9.13381639084747,-25.1058958412554
"Freq [GHz]","IWavePhi [deg]","IWaveTheta [deg]","Phi [deg]","Theta [deg]","re(rEPhi) [mV]","im(rEPhi) [mV]","re(rETheta) [mV]","im(rETheta) [mV]"
1.1388,180,90,-135,54.736,-16.3070644708346,-43.8706029668986,-9.15649878275972,-25.1444190322323
"Freq [GHz]","IWavePhi [deg]","IWaveTheta [deg]","Phi [deg]","Theta [deg]","re(rEPhi) [mV]","im(rEPhi) [mV]","re(rETheta) [mV]","im(rETheta) [mV]"
1.1388,180,90,-45,125.264,16.3386581311385,43.8302126021677,9.07673015180573,25.0873808604516
"Freq [GHz]","IWavePhi [deg]","IWaveTheta [deg]","Phi [deg]","Theta [deg]","re(rEPhi) [mV]","im(rEPhi) [mV]","re(rETheta) [mV]","im(rETheta) [mV]"
1.1388,180,90,135,125.264,-16.3875250554391,-43.7997963399847,-9.16355858106171,-25.1232427013638
"Freq [GHz]","IWavePhi [deg]","IWaveTheta [deg]","Phi [deg]","Theta [deg]","re(rEPhi) [mV]","im(rEPhi) [mV]","re(rETheta) [mV]","im(rETheta) [mV]"
1.1388,180,90,-135,125.264,-16.3121948200363,-43.7989354848762,9.06130523526405,25.0965952728243
"Freq [GHz]","IWavePhi [deg]","IWaveTheta [deg]","Phi [deg]","Theta [deg]","re(rEPhi) [mV]","im(rEPhi) [mV]","re(rETheta) [mV]","im(rETheta) [mV]"
1.1388,180,90,0,90,-28.4058854451187,-74.8695496053252,0.0499712370431097,0.0486845230893358
"Freq [GHz]","IWavePhi [deg]","IWaveTheta [deg]","Phi [deg]","Theta [deg]","re(rEPhi) [mV]","im(rEPhi) [mV]","re(rETheta) [mV]","im(rETheta) [mV]"
1.1388,180,90,180,90,28.3933964084473,74.8783442449866,0.0450924453125671,0.0566513778734037
"Freq [GHz]","IWavePhi [deg]","IWaveTheta [deg]","Phi [deg]","Theta [deg]","re(rEPhi) [mV]","im(rEPhi) [mV]","re(rETheta) [mV]","im(rETheta) [mV]"
1.1388,180,90,90,90,0.00168668576301372,0.0043816646227922,-0.0045543844611026,0.0342162668952107
"Freq [GHz]","IWavePhi [deg]","IWaveTheta [deg]","Phi [deg]","Theta [deg]","re(rEPhi) [mV]","im(rEPhi) [mV]","re(rETheta) [mV]","im(rETheta) [mV]"
1.1388,180,90,-90,90,-0.0112244351737948,-0.00960515806656963,0.049850836042276,-0.00168561336517433
"Freq [GHz]","IWavePhi [deg]","IWaveTheta [deg]","Phi [deg]","Theta [deg]","re(rEPhi) [mV]","im(rEPhi) [mV]","re(rETheta) [mV]","im(rETheta) [mV]"
1.1388,180,90,0,0,-21.8876859276896,-60.9434171400011,0.00232125249952667,0.00610676604279272
"Freq [GHz]","IWavePhi [deg]","IWaveTheta [deg]","Phi [deg]","Theta [deg]","re(rEPhi) [mV]","im(rEPhi) [mV]","re(rETheta) [mV]","im(rETheta) [mV]"
1.1388,180,90,0,180,-21.9258730926572,-60.8766193474955,0.00581242078669841,0.0204543502495044
"Freq [GHz]","IWavePhi [deg]","IWaveTheta [deg]","Phi [deg]","Theta [deg]","re(rEPhi) [mV]","im(rEPhi) [mV]","re(rETheta) [mV]","im(rETheta) [mV]"
1.1388,180,90,45,54.736,-16.3113544576901,-43.8505899181479,-9.12949940535272,-25.0733382436792
"Freq [GHz]","IWavePhi [deg]","IWaveTheta [deg]","Phi [deg]","Theta [deg]","re(rEPhi) [mV]","im(rEPhi) [mV]","re(rETheta) [mV]","im(rETheta) [mV]"
1.1388,180,90,135,54.736,16.2958186369018,43.8308298017641,-9.09528398503177,-25.1013226871837
"Freq [GHz]","IWavePhi [deg]","IWaveTheta [deg]","Phi [deg]","Theta [deg]","re(rEPhi) [mV]","im(rEPhi) [mV]","re(rETheta) [mV]","im(rETheta) [mV]"
1.1388,180,90,-45,54.736,-16.2962298341009,-43.8643177299198,9.14519593049003,25.1492307697229
"Freq [GHz]","IWavePhi [deg]","IWaveTheta [deg]","Phi [deg]","Theta [deg]","re(rEPhi) [mV]","im(rEPhi) [mV]","re(rETheta) [mV]","im(rETheta) [mV]"
1.1388,180,90,45,125.264,-16.3160779053419,-43.8031139368243,9.13381639084691,25.1058958412543
"Freq [GHz]","IWavePhi [deg]","IWaveTheta [deg]","Phi [deg]","Theta [deg]","re(rEPhi) [mV]","im(rEPhi) [mV]","re(rETheta) [mV]","im(rETheta) [mV]"
1.1388,180,90,-135,54.736,16.3070644708347,43.8706029668985,9.15649878276029,25.1444190322312
"Freq [GHz]","IWavePhi [deg]","IWaveTheta [deg]","Phi [deg]","Theta [deg]","re(rEPhi) [mV]","im(rEPhi) [mV]","re(rETheta) [mV]","im(rETheta) [mV]"
1.1388,180,90,-45,125.264,-16.3386581311386,-43.8302126021676,-9.07673015180535,-25.0873808604514
"Freq [GHz]","IWavePhi [deg]","IWaveTheta [deg]","Phi [deg]","Theta [deg]","re(rEPhi) [mV]","im(rEPhi) [mV]","re(rETheta) [mV]","im(rETheta) [mV]"
1.1388,180,90,135,125.264,16.3875250554392,43.7997963399848,9.16355858106193,25.1232427013651
"Freq [GHz]","IWavePhi [deg]","IWaveTheta [deg]","Phi [deg]","Theta [deg]","re(rEPhi) [mV]","im(rEPhi) [mV]","re(rETheta) [mV]","im(rETheta) [mV]"
1.1388,180,90,-135,125.264,16.3121948200363,43.7989354848763,-9.06130523526245,-25.0965952728256
"Freq [GHz]","IWavePhi [deg]","IWaveTheta [deg]","Phi [deg]","Theta [deg]","re(rEPhi) [mV]","im(rEPhi) [mV]","re(rETheta) [mV]","im(rETheta) [mV]"
1.1388,180,90,0,90,2.47621448793267e-15,6.31644630732643e-15,-3.37906397212033e-15,1.48248826935796e-15
"Freq [GHz]","IWavePhi [deg]","IWaveTheta [deg]","Phi [deg]","Theta [deg]","re(rEPhi) [mV]","im(rEPhi) [mV]","re(rETheta) [mV]","im(rETheta) [mV]"
1.1388,180,90,180,90,-2.47438938001716e-15,-6.31623854766597e-15,-3.38059315833715e-15,1.47947865333786e-15
"Freq [GHz]","IWavePhi [deg]","IWaveTheta [deg]","Phi [deg]","Theta [deg]","re(rEPhi) [mV]","im(rEPhi) [mV]","re(rETheta) [mV]","im(rETheta) [mV]"
1.1388,180,90,90,90,4.94135232639337e-19,-1.38530384900011e-18,-2.33734293652408e-15,1.02629213939023e-15
"Freq [GHz]","IWavePhi [deg]","IWaveTheta [deg]","Phi [deg]","Theta [deg]","re(rEPhi) [mV]","im(rEPhi) [mV]","re(rETheta) [mV]","im(rETheta) [mV]"
1.1388,180,90,-90,90,1.52834562295901e-19,8.7660058712666e-19,1.29692242246788e-15,1.26303273880686e-16
"Freq [GHz]","IWavePhi [deg]","IWaveTheta [deg]","Phi [deg]","Theta [deg]","re(rEPhi) [mV]","im(rEPhi) [mV]","re(rETheta) [mV]","im(rETheta) [mV]"
1.1388,180,90,0,0,5.13250295006988e-15,5.14367392392384e-15,-1.36540217081202e-19,-1.00678066580624e-18
"Freq [GHz]","IWavePhi [deg]","IWaveTheta [deg]","Phi [deg]","Theta [deg]","re(rEPhi) [mV]","im(rEPhi) [mV]","re(rETheta) [mV]","im(rETheta) [mV]"
1.1388,180,90,0,180,-1.29502613973667e-15,5.13219888672034e-15,-9.67469709953796e-19,-1.6669386931059e-18
"Freq [GHz]","IWavePhi [deg]","IWaveTheta [deg]","Phi [deg]","Theta [deg]","re(rEPhi) [mV]","im(rEPhi) [mV]","re(rETheta) [mV]","im(rETheta) [mV]"
1.1388,180,90,45,54.736,1.4451268185571e-15,3.84226960305074e-15,-2.14208904365024e-15,3.37898386267241e-15
"Freq [GHz]","IWavePhi [deg]","IWaveTheta [deg]","Phi [deg]","Theta [deg]","re(rEPhi) [mV]","im(rEPhi) [mV]","re(rETheta) [mV]","im(rETheta) [mV]"
1.1388,180,90,135,54.736,-1.4462864696544e-15,-3.84058214406718e-15,-2.14332169247551e-15,3.37879513773494e-15
"Freq [GHz]","IWavePhi [deg]","IWaveTheta [deg]","Phi [deg]","Theta [deg]","re(rEPhi) [mV]","im(rEPhi) [mV]","re(rETheta) [mV]","im(rETheta) [mV]"
1.1388,180,90,-45,54.736,3.7686091337262e-15,3.5426710845783e-15,-2.82242998661608e-15,-1.42028453472929e-15
"Freq [GHz]","IWavePhi [deg]","IWaveTheta [deg]","Phi [deg]","Theta [deg]","re(rEPhi) [mV]","im(rEPhi) [mV]","re(rETheta) [mV]","im(rETheta) [mV]"
1.1388,180,90,45,125.264,-2.052648425517e-15,3.94145082604588e-15,-1.68495732087006e-15,-1.09387498717802e-15
"Freq [GHz]","IWavePhi [deg]","IWaveTheta [deg]","Phi [deg]","Theta [deg]","re(rEPhi) [mV]","im(rEPhi) [mV]","re(rETheta) [mV]","im(rETheta) [mV]"
1.1388,180,90,-135,54.736,-3.7700529016905e-15,-3.54246477509853e-15,-2.82534733559989e-15,-1.41832919752588e-15
"Freq [GHz]","IWavePhi [deg]","IWaveTheta [deg]","Phi [deg]","Theta [deg]","re(rEPhi) [mV]","im(rEPhi) [mV]","re(rETheta) [mV]","im(rETheta) [mV]"
1.1388,180,90,-45,125.264,2.15094189429637e-15,3.47235585357502e-15,5.76498547771774e-16,2.58141804952111e-15
"Freq [GHz]","IWavePhi [deg]","IWaveTheta [deg]","Phi [deg]","Theta [deg]","re(rEPhi) [mV]","im(rEPhi) [mV]","re(rETheta) [mV]","im(rETheta) [mV]"
1.1388,180,90,135,125.264,2.04452777066327e-15,-3.94023561365808e-15,-1.68906959002137e-15,-1.09630277671338e-15
"Freq [GHz]","IWavePhi [deg]","IWaveTheta [deg]","Phi [deg]","Theta [deg]","re(rEPhi) [mV]","im(rEPhi) [mV]","re(rETheta) [mV]","im(rETheta) [mV]"
1.1388,180,90,-135,125.264,-2.15038784850658e-15,-3.46982142688179e-15,5.746128677744e-16,2.5825770391051e-15
"Freq [GHz]","IWavePhi [deg]","IWaveTheta [deg]","Phi [deg]","Theta [deg]","re(rEPhi) [mV]","im(rEPhi) [mV]","re(rETheta) [mV]","im(rETheta) [mV]"
1.1388,180,90,0,90,-1.74438218711912e-18,5.10396728899179e-18,3.37772544294507e-15,-1.48077052592261e-15
"Freq [GHz]","IWavePhi [deg]","IWaveTheta [deg]","Phi [deg]","Theta [deg]","re(rEPhi) [mV]","im(rEPhi) [mV]","re(rETheta) [mV]","im(rETheta) [mV]"
1.1388,180,90,180,90,1.91375602785208e-18,-4.10122482973688e-18,3.37885566531438e-15,-1.4822194378091e-15
"Freq [GHz]","IWavePhi [deg]","IWaveTheta [deg]","Phi [deg]","Theta [deg]","re(rEPhi) [mV]","im(rEPhi) [mV]","re(rETheta) [mV]","im(rETheta) [mV]"
1.1388,180,90,90,90,1.43707992837696e-18,4.2374034764005e-19,-1.29954086013997e-15,-1.18404977958458e-16
"Freq [GHz]","IWavePhi [deg]","IWaveTheta [deg]","Phi [deg]","Theta [deg]","re(rEPhi) [mV]","im(rEPhi) [mV]","re(rETheta) [mV]","im(rETheta) [mV]"
1.1388,180,90,-90,90,-9.11894367087189e-19,-2.59807976137087e-19,2.33797777912068e-15,-1.03044612950548e-15
"Freq [GHz]","IWavePhi [deg]","IWaveTheta [deg]","Phi [deg]","Theta [deg]","re(rEPhi) [mV]","im(rEPhi) [mV]","re(rETheta) [mV]","im(rETheta) [mV]"
1.1388,180,90,0,0,3.21357002281167e-15,3.44991445051528e-18,1.85111946875727e-19,2.93306335022566e-19
"Freq [GHz]","IWavePhi [deg]","IWaveTheta [deg]","Phi [deg]","Theta [deg]","re(rEPhi) [mV]","im(rEPhi) [mV]","re(rETheta) [mV]","im(rETheta) [mV]"
1.1388,180,90,0,180,-3.22003829513912e-15,1.46799153575768e-18,3.69191789270588e-19,4.86368055289196e-19
"Freq [GHz]","IWavePhi [deg]","IWaveTheta [deg]","Phi [deg]","Theta [deg]","re(rEPhi) [mV]","im(rEPhi) [mV]","re(rETheta) [mV]","im(rETheta) [mV]"
1.1388,180,90,45,54.736,8.08859955458207e-16,3.65647772270186e-17,1.12160654952422e-15,-5.80426236245044e-16
"Freq [GHz]","IWavePhi [deg]","IWaveTheta [deg]","Phi [deg]","Theta [deg]","re(rEPhi) [mV]","im(rEPhi) [mV]","re(rETheta) [mV]","im(rETheta) [mV]"
1.1388,180,90,135,54.736,-8.12449496739204e-16,-3.60850544250628e-17,1.12111654759491e-15,-5.80131581393144e-16
"Freq [GHz]","IWavePhi [deg]","IWaveTheta [deg]","Phi [deg]","Theta [deg]","re(rEPhi) [mV]","im(rEPhi) [mV]","re(rETheta) [mV]","im(rETheta) [mV]"
1.1388,180,90,-45,54.736,1.74747516543925e-15,-4.57785940424099e-17,1.91655348338239e-15,-1.14426218449881e-15
"Freq [GHz]","IWavePhi [deg]","IWaveTheta [deg]","Phi [deg]","Theta [deg]","re(rEPhi) [mV]","im(rEPhi) [mV]","re(rETheta) [mV]","im(rETheta) [mV]"
1.1388,180,90,45,125.264,-8.11182279192593e-16,-3.1264561255022e-17,1.12347560800151e-15,-5.78910722822661e-16
"Freq [GHz]","IWavePhi [deg]","IWaveTheta [deg]","Phi [deg]","Theta [deg]","re(rEPhi) [mV]","im(rEPhi) [mV]","re(rETheta) [mV]","im(rETheta) [mV]"
1.1388,180,90,-135,54.736,-1.74794027932379e-15,4.65536310561155e-17,1.9167224480623e-15,-1.14773733694684e-15
"Freq [GHz]","IWavePhi [deg]","IWaveTheta [deg]","Phi [deg]","Theta [deg]","re(rEPhi) [mV]","im(rEPhi) [mV]","re(rETheta) [mV]","im(rETheta) [mV]"
1.1388,180,90,-45,125.264,-1.75122869356519e-15,5.58187321342322e-17,1.91529292412542e-15,-1.14066888578081e-15
"Freq [GHz]","IWavePhi [deg]","IWaveTheta [deg]","Phi [deg]","Theta [deg]","re(rEPhi) [mV]","im(rEPhi) [mV]","re(rETheta) [mV]","im(rETheta) [mV]"
1.1388,180,90,135,125.264,8.08831643144311e-16,3.28720456921353e-17,1.12189478516607e-15,-5.79040061566915e-16
"Freq [GHz]","IWavePhi [deg]","IWaveTheta [deg]","Phi [deg]","Theta [deg]","re(rEPhi) [mV]","im(rEPhi) [mV]","re(rETheta) [mV]","im(rETheta) [mV]"
1.1388,180,90,-135,125.264,1.7510213208259e-15,-5.43270986297788e-17,1.9138243454565e-15,-1.1402324226512e-15
"Freq [GHz]","IWavePhi [deg]","IWaveTheta [deg]","Phi [deg]","Theta [deg]","re(rEPhi) [mV]","im(rEPhi) [mV]","re(rETheta) [mV]","im(rETheta) [mV]"
1.1388,180,90,0,90,21.8540405879372,60.7802688283673,-0.0469235079899441,-0.0607679152924472
"Freq [GHz]","IWavePhi [deg]","IWaveTheta [deg]","Phi [deg]","Theta [deg]","re(rEPhi) [mV]","im(rEPhi) [mV]","re(rETheta) [mV]","im(rETheta) [mV]"
1.1388,180,90,180,90,-21.8432698429301,-60.7807805726172,-0.0479064343507528,-0.0405593744810632
"Freq [GHz]","IWavePhi [deg]","IWaveTheta [deg]","Phi [deg]","Theta [deg]","re(rEPhi) [mV]","im(rEPhi) [mV]","re(rETheta) [mV]","im(rETheta) [mV]"
1.1388,180,90,90,90,0.00111739167489747,0.000276422563548719,20.0071072469894,-0.00261816366003689
"Freq [GHz]","IWavePhi [deg]","IWaveTheta [deg]","Phi [deg]","Theta [deg]","re(rEPhi) [mV]","im(rEPhi) [mV]","re(rETheta) [mV]","im(rETheta) [mV]"
1.1388,180,90,-90,90,0.00934466182827816,0.00804648983610371,-20.0431942427611,-0.0444087960494431
"Freq [GHz]","IWavePhi [deg]","IWaveTheta [deg]","Phi [deg]","Theta [deg]","re(rEPhi) [mV]","im(rEPhi) [mV]","re(rETheta) [mV]","im(rETheta) [mV]"
1.1388,180,90,0,0,30.0464741545471,54.7441866023995,0.00138775871651412,-0.00148534153601202
"Freq [GHz]","IWavePhi [deg]","IWaveTheta [deg]","Phi [deg]","Theta [deg]","re(rEPhi) [mV]","im(rEPhi) [mV]","re(rETheta) [mV]","im(rETheta) [mV]"
1.1388,180,90,0,180,8.11216181532933,44.1439815529166,-0.00689481979655272,-0.0183984409128572
"Freq [GHz]","IWavePhi [deg]","IWaveTheta [deg]","Phi [deg]","Theta [deg]","re(rEPhi) [mV]","im(rEPhi) [mV]","re(rETheta) [mV]","im(rETheta) [mV]"
1.1388,180,90,45,54.736,17.1062157985092,37.6372078752096,22.7351048579669,21.5163635757918
"Freq [GHz]","IWavePhi [deg]","IWaveTheta [deg]","Phi [deg]","Theta [deg]","re(rEPhi) [mV]","im(rEPhi) [mV]","re(rETheta) [mV]","im(rETheta) [mV]"
1.1388,180,90,135,54.736,-17.1045472589786,-37.623523602466,22.7186712238169,21.5554955918962
"Freq [GHz]","IWavePhi [deg]","IWaveTheta [deg]","Phi [deg]","Theta [deg]","re(rEPhi) [mV]","im(rEPhi) [mV]","re(rETheta) [mV]","im(rETheta) [mV]"
1.1388,180,90,-45,54.736,17.116519884518,37.6424387224621,-22.7723326257072,-21.5974279576005
"Freq [GHz]","IWavePhi [deg]","IWaveTheta [deg]","Phi [deg]","Theta [deg]","re(rEPhi) [mV]","im(rEPhi) [mV]","re(rETheta) [mV]","im(rETheta) [mV]"
1.1388,180,90,45,125.264,8.93217614532368,33.532298710933,6.91611678648841,-19.2400292008554
"Freq [GHz]","IWavePhi [deg]","IWaveTheta [deg]","Phi [deg]","Theta [deg]","re(rEPhi) [mV]","im(rEPhi) [mV]","re(rETheta) [mV]","im(rETheta) [mV]"
1.1388,180,90,-135,54.736,-17.1299200314915,-37.6413639338308,-22.7907190739889,-21.5683412858301
"Freq [GHz]","IWavePhi [deg]","IWaveTheta [deg]","Phi [deg]","Theta [deg]","re(rEPhi) [mV]","im(rEPhi) [mV]","re(rETheta) [mV]","im(rETheta) [mV]"
1.1388,180,90,-45,125.264,8.98152230704203,33.5470770641154,-6.96159388706442,19.2056177964002
"Freq [GHz]","IWavePhi [deg]","IWaveTheta [deg]","Phi [deg]","Theta [deg]","re(rEPhi) [mV]","im(rEPhi) [mV]","re(rETheta) [mV]","im(rETheta) [mV]"
1.1388,180,90,135,125.264,-8.990536432264,-33.5293403805469,6.88373985197263,-19.2478063595696
"Freq [GHz]","IWavePhi [deg]","IWaveTheta [deg]","Phi [deg]","Theta [deg]","re(rEPhi) [mV]","im(rEPhi) [mV]","re(rETheta) [mV]","im(rETheta) [mV]"
1.1388,180,90,-135,125.264,-8.94953862789349,-33.5168510657525,-6.95614052615363,19.2049798972017
"Freq [GHz]","IWavePhi [deg]","IWaveTheta [deg]","Phi [deg]","Theta [deg]","re(rEPhi) [mV]","im(rEPhi) [mV]","re(rETheta) [mV]","im(rETheta) [mV]"
1.1388,180,90,0,90,21.8189778756339,60.7980202479675,-0.0335153919077537,-0.0208896292676391
"Freq [GHz]","IWavePhi [deg]","IWaveTheta [deg]","Phi [deg]","Theta [deg]","re(rEPhi) [mV]","im(rEPhi) [mV]","re(rETheta) [mV]","im(rETheta) [mV]"
1.1388,180,90,180,90,-21.8097162955793,-60.8102374618855,-0.0246517460420783,-0.0546089041826109
"Freq [GHz]","IWavePhi [deg]","IWaveTheta [deg]","Phi [deg]","Theta [deg]","re(rEPhi) [mV]","im(rEPhi) [mV]","re(rETheta) [mV]","im(rETheta) [mV]"
1.1388,180,90,90,90,-0.00371498711574898,-0.00731069050948109,-19.9907125836315,-0.0526877125495218
"Freq [GHz]","IWavePhi [deg]","IWaveTheta [deg]","Phi [deg]","Theta [deg]","re(rEPhi) [mV]","im(rEPhi) [mV]","re(rETheta) [mV]","im(rETheta) [mV]"
1.1388,180,90,-90,90,0.00913114220752121,0.00800970744720955,19.9707090241645,0.0453281728205865
"Freq [GHz]","IWavePhi [deg]","IWaveTheta [deg]","Phi [deg]","Theta [deg]","re(rEPhi) [mV]","im(rEPhi) [mV]","re(rETheta) [mV]","im(rETheta) [mV]"
1.1388,180,90,0,0,8.06394541648494,44.2294007643893,-0.00534752541189916,-0.00834604650055699
"Freq [GHz]","IWavePhi [deg]","IWaveTheta [deg]","Phi [deg]","Theta [deg]","re(rEPhi) [mV]","im(rEPhi) [mV]","re(rETheta) [mV]","im(rETheta) [mV]"
1.1388,180,90,0,180,30.0583754102454,54.7306643317544,-0.00218546538905485,-0.014321298911988
"Freq [GHz]","IWavePhi [deg]","IWaveTheta [deg]","Phi [deg]","Theta [deg]","re(rEPhi) [mV]","im(rEPhi) [mV]","re(rETheta) [mV]","im(rETheta) [mV]"
1.1388,180,90,45,54.736,8.93563919900047,33.573690559913,-6.91245447522581,19.2021634012248
"Freq [GHz]","IWavePhi [deg]","IWaveTheta [deg]","Phi [deg]","Theta [deg]","re(rEPhi) [mV]","im(rEPhi) [mV]","re(rETheta) [mV]","im(rETheta) [mV]"
1.1388,180,90,135,54.736,-8.91365423666216,-33.5556211697963,-6.95204785548569,19.2074604193738
"Freq [GHz]","IWavePhi [deg]","IWaveTheta [deg]","Phi [deg]","Theta [deg]","re(rEPhi) [mV]","im(rEPhi) [mV]","re(rETheta) [mV]","im(rETheta) [mV]"
1.1388,180,90,-45,54.736,8.89845135275695,33.5854527655938,6.9332580778537,-19.2425576938166
"Freq [GHz]","IWavePhi [deg]","IWaveTheta [deg]","Phi [deg]","Theta [deg]","re(rEPhi) [mV]","im(rEPhi) [mV]","re(rETheta) [mV]","im(rETheta) [mV]"
1.1388,180,90,45,125.264,17.1167119010818,37.6033637547559,-22.7368814157923,-21.5367294063315
"Freq [GHz]","IWavePhi [deg]","IWaveTheta [deg]","Phi [deg]","Theta [deg]","re(rEPhi) [mV]","im(rEPhi) [mV]","re(rETheta) [mV]","im(rETheta) [mV]"
