"Freq [GHz]","IWavePhi [deg]","IWaveTheta [deg]","Phi [deg]","Theta [deg]","re(rEPhi) [mV]","im(rEPhi) [mV]","re(rETheta) [mV]","im(rETheta) [mV]"
0.6406,180,90,0,90,-55.1090619973588,33.9942785430633,0.0267633907831726,-0.0204017901502501
"Freq [GHz]","IWavePhi [deg]","IWaveTheta [deg]","Phi [deg]","Theta [deg]","re(rEPhi) [mV]","im(rEPhi) [mV]","re(rETheta) [mV]","im(rETheta) [mV]"
0.6406,180,90,180,90,55.1212666064432,-33.9820162078238,0.0208921702089718,-0.0219040773368855
"Freq [GHz]","IWavePhi [deg]","IWaveTheta [deg]","Phi [deg]","Theta [deg]","re(rEPhi) [mV]","im(rEPhi) [mV]","re(rETheta) [mV]","im(rETheta) [mV]"
0.6406,180,90,90,90,0.00141889156945126,0.000250658693539819,0.0276428675369848,-0.00141200024598245
"Freq [GHz]","IWavePhi [deg]","IWaveTheta [deg]","Phi [deg]","Theta [deg]","re(rEPhi) [mV]","im(rEPhi) [mV]","re(rETheta) [mV]","im(rETheta) [mV]"
0.6406,180,90,-90,90,-0.0014558546226847,0.00118999261250695,0.013257282947444,-0.0241098923095196
"Freq [GHz]","IWavePhi [deg]","IWaveTheta [deg]","Phi [deg]","Theta [deg]","re(rEPhi) [mV]","im(rEPhi) [mV]","re(rETheta) [mV]","im(rETheta) [mV]"
0.6406,180,90,0,0,-51.7484478167217,31.8132671330386,0.00106561253662264,-0.00163761558872559
"Freq [GHz]","IWavePhi [deg]","IWaveTheta [deg]","Phi [deg]","Theta [deg]","re(rEPhi) [mV]","im(rEPhi) [mV]","re(rETheta) [mV]","im(rETheta) [mV]"
0.6406,180,90,0,180,-51.7482504479223,31.8346313206646,-0.000321044594095261,-0.00511521566225647
"Freq [GHz]","IWavePhi [deg]","IWaveTheta [deg]","Phi [deg]","Theta [deg]","re(rEPhi) [mV]","im(rEPhi) [mV]","re(rETheta) [mV]","im(rETheta) [mV]"
0.6406,180,90,0,90,55.1090619973588,-33.9942785430633,-0.0267633907821739,0.0204017901488833
"Freq [GHz]","IWavePhi [deg]","IWaveTheta [deg]","Phi [deg]","Theta [deg]","re(rEPhi) [mV]","im(rEPhi) [mV]","re(rETheta) [mV]","im(rETheta) [mV]"
0.6406,180,90,180,90,-55.1212666064432,33.9820162078238,-0.0208921702099703,0.0219040773355186
"Freq [GHz]","IWavePhi [deg]","IWaveTheta [deg]","Phi [deg]","Theta [deg]","re(rEPhi) [mV]","im(rEPhi) [mV]","re(rETheta) [mV]","im(rETheta) [mV]"
0.6406,180,90,90,90,-0.00141889156905556,-0.000250658692890206,-0.0276428675385925,0.00141200024648064
"Freq [GHz]","IWavePhi [deg]","IWaveTheta [deg]","Phi [deg]","Theta [deg]","re(rEPhi) [mV]","im(rEPhi) [mV]","re(rETheta) [mV]","im(rETheta) [mV]"
0.6406,180,90,-90,90,0.00145585462252438,-0.00118999261217242,-0.0132572829458363,0.0241098923100177
"Freq [GHz]","IWavePhi [deg]","IWaveTheta [deg]","Phi [deg]","Theta [deg]","re(rEPhi) [mV]","im(rEPhi) [mV]","re(rETheta) [mV]","im(rETheta) [mV]"
0.6406,180,90,0,0,51.7484478167217,-31.8132671330386,-0.00106561253629575,0.00163761558821423
"Freq [GHz]","IWavePhi [deg]","IWaveTheta [deg]","Phi [deg]","Theta [deg]","re(rEPhi) [mV]","im(rEPhi) [mV]","re(rETheta) [mV]","im(rETheta) [mV]"
0.6406,180,90,0,180,51.7482504479223,-31.8346313206646,0.000321044593509358,0.00511521566210079
"Freq [GHz]","IWavePhi [deg]","IWaveTheta [deg]","Phi [deg]","Theta [deg]","re(rEPhi) [mV]","im(rEPhi) [mV]","re(rETheta) [mV]","im(rETheta) [mV]"
0.6406,180,90,0,90,-5.97451235716595e-15,3.68387455225473e-15,-1.73644540252817e-15,1.65122951770318e-16
"Freq [GHz]","IWavePhi [deg]","IWaveTheta [deg]","Phi [deg]","Theta [deg]","re(rEPhi) [mV]","im(rEPhi) [mV]","re(rETheta) [mV]","im(rETheta) [mV]"
0.6406,180,90,180,90,5.97588201729327e-15,-3.68248557844058e-15,-1.73715431655996e-15,1.64911506947973e-16
"Freq [GHz]","IWavePhi [deg]","IWaveTheta [deg]","Phi [deg]","Theta [deg]","re(rEPhi) [mV]","im(rEPhi) [mV]","re(rETheta) [mV]","im(rETheta) [mV]"
0.6406,180,90,90,90,1.27267585621185e-19,9.83916489507308e-21,-7.45711776887308e-16,1.60557135404082e-16
"Freq [GHz]","IWavePhi [deg]","IWaveTheta [deg]","Phi [deg]","Theta [deg]","re(rEPhi) [mV]","im(rEPhi) [mV]","re(rETheta) [mV]","im(rETheta) [mV]"
0.6406,180,90,-90,90,-2.3569591834966e-19,1.04517138870657e-19,-1.61754962005098e-15,8.70560048381449e-17
"Freq [GHz]","IWavePhi [deg]","IWaveTheta [deg]","Phi [deg]","Theta [deg]","re(rEPhi) [mV]","im(rEPhi) [mV]","re(rETheta) [mV]","im(rETheta) [mV]"
0.6406,180,90,0,0,-4.55346322377408e-15,3.4912914544329e-15,1.47537943580055e-19,-2.85948603149301e-19
"Freq [GHz]","IWavePhi [deg]","IWaveTheta [deg]","Phi [deg]","Theta [deg]","re(rEPhi) [mV]","im(rEPhi) [mV]","re(rETheta) [mV]","im(rETheta) [mV]"
0.6406,180,90,0,180,-6.66602243796244e-15,3.40607635280974e-15,-7.85602687221188e-20,-5.03510757324116e-19
"Freq [GHz]","IWavePhi [deg]","IWaveTheta [deg]","Phi [deg]","Theta [deg]","re(rEPhi) [mV]","im(rEPhi) [mV]","re(rETheta) [mV]","im(rETheta) [mV]"
0.6406,180,90,0,90,-4.16067167585507e-18,4.91649726062825e-19,1.73921658004827e-15,-1.67736044628982e-16
"Freq [GHz]","IWavePhi [deg]","IWaveTheta [deg]","Phi [deg]","Theta [deg]","re(rEPhi) [mV]","im(rEPhi) [mV]","re(rETheta) [mV]","im(rETheta) [mV]"
0.6406,180,90,180,90,4.32302983511241e-18,-5.0618797031309e-19,1.73926071464247e-15,-1.67919739599977e-16
"Freq [GHz]","IWavePhi [deg]","IWaveTheta [deg]","Phi [deg]","Theta [deg]","re(rEPhi) [mV]","im(rEPhi) [mV]","re(rETheta) [mV]","im(rETheta) [mV]"
0.6406,180,90,90,90,2.98276369254351e-20,-1.09896478916967e-20,1.618880751561e-15,-9.00674814387019e-17
"Freq [GHz]","IWavePhi [deg]","IWaveTheta [deg]","Phi [deg]","Theta [deg]","re(rEPhi) [mV]","im(rEPhi) [mV]","re(rETheta) [mV]","im(rETheta) [mV]"
0.6406,180,90,-90,90,-9.74233633128704e-21,4.63655343646614e-20,7.48607626915428e-16,-1.61290095495925e-16
"Freq [GHz]","IWavePhi [deg]","IWaveTheta [deg]","Phi [deg]","Theta [deg]","re(rEPhi) [mV]","im(rEPhi) [mV]","re(rETheta) [mV]","im(rETheta) [mV]"
0.6406,180,90,0,0,1.05276146365934e-15,4.41309950897815e-17,-3.374675220908e-20,9.45777779836139e-20
"Freq [GHz]","IWavePhi [deg]","IWaveTheta [deg]","Phi [deg]","Theta [deg]","re(rEPhi) [mV]","im(rEPhi) [mV]","re(rETheta) [mV]","im(rETheta) [mV]"
0.6406,180,90,0,180,-1.06069783006893e-15,-4.26803208005362e-17,3.14540938542576e-20,-7.98853960615712e-20
"Freq [GHz]","IWavePhi [deg]","IWaveTheta [deg]","Phi [deg]","Theta [deg]","re(rEPhi) [mV]","im(rEPhi) [mV]","re(rETheta) [mV]","im(rETheta) [mV]"
0.6406,180,90,0,90,-51.7400482780942,31.8404368547459,0.0250771497715232,-0.0198889623208522
"Freq [GHz]","IWavePhi [deg]","IWaveTheta [deg]","Phi [deg]","Theta [deg]","re(rEPhi) [mV]","im(rEPhi) [mV]","re(rETheta) [mV]","im(rETheta) [mV]"
0.6406,180,90,180,90,51.7520422944897,-31.828585580459,0.019187205984973,-0.0227463845170911
"Freq [GHz]","IWavePhi [deg]","IWaveTheta [deg]","Phi [deg]","Theta [deg]","re(rEPhi) [mV]","im(rEPhi) [mV]","re(rETheta) [mV]","im(rETheta) [mV]"
0.6406,180,90,90,90,0.00122465352250185,-5.50211277627763e-05,6.59574029709206,0.269934019582803
"Freq [GHz]","IWavePhi [deg]","IWaveTheta [deg]","Phi [deg]","Theta [deg]","re(rEPhi) [mV]","im(rEPhi) [mV]","re(rETheta) [mV]","im(rETheta) [mV]"
0.6406,180,90,-90,90,-0.00157262168765434,0.00128038798997854,-6.55666858333856,-0.297142503611969
"Freq [GHz]","IWavePhi [deg]","IWaveTheta [deg]","Phi [deg]","Theta [deg]","re(rEPhi) [mV]","im(rEPhi) [mV]","re(rETheta) [mV]","im(rETheta) [mV]"
0.6406,180,90,0,0,-42.4780368084942,30.1702157834092,0.00105965413839643,-0.00151377280878698
"Freq [GHz]","IWavePhi [deg]","IWaveTheta [deg]","Phi [deg]","Theta [deg]","re(rEPhi) [mV]","im(rEPhi) [mV]","re(rETheta) [mV]","im(rETheta) [mV]"
0.6406,180,90,0,180,-54.1677398414768,29.4462411887163,-0.000499411987945982,-0.00490872717789551
"Freq [GHz]","IWavePhi [deg]","IWaveTheta [deg]","Phi [deg]","Theta [deg]","re(rEPhi) [mV]","im(rEPhi) [mV]","re(rETheta) [mV]","im(rETheta) [mV]"
0.6406,180,90,0,90,-51.7434531768921,31.8285905037492,0.0253579092167096,-0.018398710881493
"Freq [GHz]","IWavePhi [deg]","IWaveTheta [deg]","Phi [deg]","Theta [deg]","re(rEPhi) [mV]","im(rEPhi) [mV]","re(rETheta) [mV]","im(rETheta) [mV]"
0.6406,180,90,180,90,51.7543070952462,-31.8175213126087,0.0202683644007992,-0.018351289182757
"Freq [GHz]","IWavePhi [deg]","IWaveTheta [deg]","Phi [deg]","Theta [deg]","re(rEPhi) [mV]","im(rEPhi) [mV]","re(rETheta) [mV]","im(rETheta) [mV]"
0.6406,180,90,90,90,0.00143608924392837,0.000516540371002562,-6.54292018368766,-0.272784513359983
"Freq [GHz]","IWavePhi [deg]","IWaveTheta [deg]","Phi [deg]","Theta [deg]","re(rEPhi) [mV]","im(rEPhi) [mV]","re(rETheta) [mV]","im(rETheta) [mV]"
0.6406,180,90,-90,90,-0.0011645989311202,0.000945102823792982,6.58253522153841,0.252093619063922
"Freq [GHz]","IWavePhi [deg]","IWaveTheta [deg]","Phi [deg]","Theta [deg]","re(rEPhi) [mV]","im(rEPhi) [mV]","re(rETheta) [mV]","im(rETheta) [mV]"
0.6406,180,90,0,0,-54.1718398228052,29.4137865169016,0.000936537435420901,-0.00154783783497394
"Freq [GHz]","IWavePhi [deg]","IWaveTheta [deg]","Phi [deg]","Theta [deg]","re(rEPhi) [mV]","im(rEPhi) [mV]","re(rETheta) [mV]","im(rETheta) [mV]"
0.6406,180,90,0,180,-42.4817818846874,30.1778725528725,-0.000112393527769641,-0.00467374689113492
"Freq [GHz]","IWavePhi [deg]","IWaveTheta [deg]","Phi [deg]","Theta [deg]","re(rEPhi) [mV]","im(rEPhi) [mV]","re(rETheta) [mV]","im(rETheta) [mV]"
0.6406,180,90,0,90,-0.024493581849947,0.019449722715679,13.6333802701283,-1.40248987729878
"Freq [GHz]","IWavePhi [deg]","IWaveTheta [deg]","Phi [deg]","Theta [deg]","re(rEPhi) [mV]","im(rEPhi) [mV]","re(rETheta) [mV]","im(rETheta) [mV]"
0.6406,180,90,180,90,0.0249156223750643,-0.0197967372265613,13.6337974706499,-1.40319113786373
"Freq [GHz]","IWavePhi [deg]","IWaveTheta [deg]","Phi [deg]","Theta [deg]","re(rEPhi) [mV]","im(rEPhi) [mV]","re(rETheta) [mV]","im(rETheta) [mV]"
0.6406,180,90,90,90,0.00026232990402771,7.89583077910209e-05,10.8261551620295,-1.04670234981132
"Freq [GHz]","IWavePhi [deg]","IWaveTheta [deg]","Phi [deg]","Theta [deg]","re(rEPhi) [mV]","im(rEPhi) [mV]","re(rETheta) [mV]","im(rETheta) [mV]"
0.6406,180,90,-90,90,0.000238115856135145,0.000295973409754438,10.8229906551374,-1.04794618988875
"Freq [GHz]","IWavePhi [deg]","IWaveTheta [deg]","Phi [deg]","Theta [deg]","re(rEPhi) [mV]","im(rEPhi) [mV]","re(rETheta) [mV]","im(rETheta) [mV]"
0.6406,180,90,0,0,-0.0227914459835192,0.0189041725808714,-0.000322104755823716,0.000749335315133373
"Freq [GHz]","IWavePhi [deg]","IWaveTheta [deg]","Phi [deg]","Theta [deg]","re(rEPhi) [mV]","im(rEPhi) [mV]","re(rETheta) [mV]","im(rETheta) [mV]"
0.6406,180,90,0,180,-0.0243932582615387,0.0200491345305793,0.000339343167515257,-0.000607192426518375
"Freq [GHz]","IWavePhi [deg]","IWaveTheta [deg]","Phi [deg]","Theta [deg]","re(rEPhi) [mV]","im(rEPhi) [mV]","re(rETheta) [mV]","im(rETheta) [mV]"
0.6406,180,90,0,90,-0.0244935818499471,0.0194497227156789,13.6333802701283,-1.40248987729878
"Freq [GHz]","IWavePhi [deg]","IWaveTheta [deg]","Phi [deg]","Theta [deg]","re(rEPhi) [mV]","im(rEPhi) [mV]","re(rETheta) [mV]","im(rETheta) [mV]"
0.6406,180,90,180,90,0.0249156223750642,-0.0197967372265611,13.6337974706499,-1.40319113786373
"Freq [GHz]","IWavePhi [deg]","IWaveTheta [deg]","Phi [deg]","Theta [deg]","re(rEPhi) [mV]","im(rEPhi) [mV]","re(rETheta) [mV]","im(rETheta) [mV]"
0.6406,180,90,90,90,0.000262329904060419,7.89583078308543e-05,10.8261551620295,-1.04670234981132
"Freq [GHz]","IWavePhi [deg]","IWaveTheta [deg]","Phi [deg]","Theta [deg]","re(rEPhi) [mV]","im(rEPhi) [mV]","re(rETheta) [mV]","im(rETheta) [mV]"
0.6406,180,90,-90,90,0.00023811585610245,0.000295973409794264,10.8229906551374,-1.04794618988875
"Freq [GHz]","IWavePhi [deg]","IWaveTheta [deg]","Phi [deg]","Theta [deg]","re(rEPhi) [mV]","im(rEPhi) [mV]","re(rETheta) [mV]","im(rETheta) [mV]"
0.6406,180,90,0,0,-0.0227914459835192,0.0189041725808712,-0.000322104755854761,0.000749335315105572
"Freq [GHz]","IWavePhi [deg]","IWaveTheta [deg]","Phi [deg]","Theta [deg]","re(rEPhi) [mV]","im(rEPhi) [mV]","re(rETheta) [mV]","im(rETheta) [mV]"
0.6406,180,90,0,180,-0.0243932582615387,0.0200491345305791,0.000339343167546243,-0.000607192426546118
"Freq [GHz]","IWavePhi [deg]","IWaveTheta [deg]","Phi [deg]","Theta [deg]","re(rEPhi) [mV]","im(rEPhi) [mV]","re(rETheta) [mV]","im(rETheta) [mV]"
0.6406,180,90,0,90,-0.00931039420179458,0.0253670079539157,10.8150950111981,-1.04353802080035
"Freq [GHz]","IWavePhi [deg]","IWaveTheta [deg]","Phi [deg]","Theta [deg]","re(rEPhi) [mV]","im(rEPhi) [mV]","re(rETheta) [mV]","im(rETheta) [mV]"
0.6406,180,90,180,90,0.00892996745957435,-0.0257791052592773,10.8155138850507,-1.0433424184822
"Freq [GHz]","IWavePhi [deg]","IWaveTheta [deg]","Phi [deg]","Theta [deg]","re(rEPhi) [mV]","im(rEPhi) [mV]","re(rETheta) [mV]","im(rETheta) [mV]"
0.6406,180,90,90,90,0.000166869016647693,0.000160908685270603,4.6574703441944,-1.00174520822566
"Freq [GHz]","IWavePhi [deg]","IWaveTheta [deg]","Phi [deg]","Theta [deg]","re(rEPhi) [mV]","im(rEPhi) [mV]","re(rETheta) [mV]","im(rETheta) [mV]"
0.6406,180,90,-90,90,0.000467537027421417,0.000161584686737421,10.0644600693795,-0.559415268664325
"Freq [GHz]","IWavePhi [deg]","IWaveTheta [deg]","Phi [deg]","Theta [deg]","re(rEPhi) [mV]","im(rEPhi) [mV]","re(rETheta) [mV]","im(rETheta) [mV]"
0.6406,180,90,0,0,-6.58000503656276,-0.248044347009913,-0.000281224779738931,0.000592887076172226
"Freq [GHz]","IWavePhi [deg]","IWaveTheta [deg]","Phi [deg]","Theta [deg]","re(rEPhi) [mV]","im(rEPhi) [mV]","re(rETheta) [mV]","im(rETheta) [mV]"
0.6406,180,90,0,180,6.55994280341442,0.29583738508657,0.000372590137865087,-0.000349517619588209
"Freq [GHz]","IWavePhi [deg]","IWaveTheta [deg]","Phi [deg]","Theta [deg]","re(rEPhi) [mV]","im(rEPhi) [mV]","re(rETheta) [mV]","im(rETheta) [mV]"
0.6406,180,90,0,90,-0.0258728540317602,0.00305728221362065,10.8151985771131,-1.04305504818271
"Freq [GHz]","IWavePhi [deg]","IWaveTheta [deg]","Phi [deg]","Theta [deg]","re(rEPhi) [mV]","im(rEPhi) [mV]","re(rETheta) [mV]","im(rETheta) [mV]"
0.6406,180,90,180,90,0.026882474225606,-0.00314769481377248,10.8154730176665,-1.04419734109102
"Freq [GHz]","IWavePhi [deg]","IWaveTheta [deg]","Phi [deg]","Theta [deg]","re(rEPhi) [mV]","im(rEPhi) [mV]","re(rETheta) [mV]","im(rETheta) [mV]"
0.6406,180,90,90,90,0.000185483482152176,-6.83380428463931e-05,10.0668985115542,-0.560078419064251
"Freq [GHz]","IWavePhi [deg]","IWaveTheta [deg]","Phi [deg]","Theta [deg]","re(rEPhi) [mV]","im(rEPhi) [mV]","re(rETheta) [mV]","im(rETheta) [mV]"
0.6406,180,90,-90,90,-6.05898332986611e-05,0.000288320331724765,4.65516500523202,-1.00297136624598
"Freq [GHz]","IWavePhi [deg]","IWaveTheta [deg]","Phi [deg]","Theta [deg]","re(rEPhi) [mV]","im(rEPhi) [mV]","re(rETheta) [mV]","im(rETheta) [mV]"
0.6406,180,90,0,0,6.54652467797583,0.274425541538043,-0.000209843892031221,0.000588129883600302
"Freq [GHz]","IWavePhi [deg]","IWaveTheta [deg]","Phi [deg]","Theta [deg]","re(rEPhi) [mV]","im(rEPhi) [mV]","re(rETheta) [mV]","im(rETheta) [mV]"
0.6406,180,90,0,180,-6.59587644126,-0.265404656739188,0.000195589465597389,-0.000496758910691755
"Freq [GHz]","IWavePhi [deg]","IWaveTheta [deg]","Phi [deg]","Theta [deg]","re(rEPhi) [mV]","im(rEPhi) [mV]","re(rETheta) [mV]","im(rETheta) [mV]"
0.6406,180,90,0,90,-3.16728059308661e-15,1.94891392237543e-15,-5.05022285715081e-16,5.09345361240106e-17
"Freq [GHz]","IWavePhi [deg]","IWaveTheta [deg]","Phi [deg]","Theta [deg]","re(rEPhi) [mV]","im(rEPhi) [mV]","re(rETheta) [mV]","im(rETheta) [mV]"
0.6406,180,90,180,90,3.16799916334823e-15,-1.94817550161117e-15,-5.05398593808641e-16,5.07847721785537e-17
"Freq [GHz]","IWavePhi [deg]","IWaveTheta [deg]","Phi [deg]","Theta [deg]","re(rEPhi) [mV]","im(rEPhi) [mV]","re(rETheta) [mV]","im(rETheta) [mV]"
0.6406,180,90,90,90,6.54948225430923e-20,-6.25851059643889e-21,1.61239577932328e-18,5.54470861144283e-17
"Freq [GHz]","IWavePhi [deg]","IWaveTheta [deg]","Phi [deg]","Theta [deg]","re(rEPhi) [mV]","im(rEPhi) [mV]","re(rETheta) [mV]","im(rETheta) [mV]"
0.6406,180,90,-90,90,-1.05612148450323e-19,6.72547528134163e-20,-8.03553409126234e-16,2.0768972883771e-17
"Freq [GHz]","IWavePhi [deg]","IWaveTheta [deg]","Phi [deg]","Theta [deg]","re(rEPhi) [mV]","im(rEPhi) [mV]","re(rETheta) [mV]","im(rETheta) [mV]"
0.6406,180,90,0,0,-2.60019722201025e-15,1.84666381098191e-15,7.67362546652252e-20,-1.20466285406919e-19
"Freq [GHz]","IWavePhi [deg]","IWaveTheta [deg]","Phi [deg]","Theta [deg]","re(rEPhi) [mV]","im(rEPhi) [mV]","re(rETheta) [mV]","im(rETheta) [mV]"
0.6406,180,90,0,180,-3.3159468161672e-15,1.80229377224863e-15,-4.24559234386384e-20,-2.78162722029058e-19
"Freq [GHz]","IWavePhi [deg]","IWaveTheta [deg]","Phi [deg]","Theta [deg]","re(rEPhi) [mV]","im(rEPhi) [mV]","re(rETheta) [mV]","im(rETheta) [mV]"
0.6406,180,90,0,90,3.16449959797533e-15,-1.94605929165567e-15,2.12276139847694e-15,-2.17245245365028e-16
"Freq [GHz]","IWavePhi [deg]","IWaveTheta [deg]","Phi [deg]","Theta [deg]","re(rEPhi) [mV]","im(rEPhi) [mV]","re(rETheta) [mV]","im(rETheta) [mV]"
0.6406,180,90,180,90,-3.16509920171689e-15,1.94532677049432e-15,2.1231373900233e-15,-2.17361002267479e-16
"Freq [GHz]","IWavePhi [deg]","IWaveTheta [deg]","Phi [deg]","Theta [deg]","re(rEPhi) [mV]","im(rEPhi) [mV]","re(rETheta) [mV]","im(rETheta) [mV]"
0.6406,180,90,90,90,-4.59714446750821e-20,-1.9108960498748e-20,2.08727329310506e-15,-1.46291139436637e-16
"Freq [GHz]","IWavePhi [deg]","IWaveTheta [deg]","Phi [deg]","Theta [deg]","re(rEPhi) [mV]","im(rEPhi) [mV]","re(rETheta) [mV]","im(rETheta) [mV]"
0.6406,180,90,-90,90,1.06496050103728e-19,-1.23472195506176e-20,1.28336898184299e-15,-1.78620758809543e-16
"Freq [GHz]","IWavePhi [deg]","IWaveTheta [deg]","Phi [deg]","Theta [deg]","re(rEPhi) [mV]","im(rEPhi) [mV]","re(rETheta) [mV]","im(rETheta) [mV]"
0.6406,180,90,0,0,3.3135071254882e-15,-1.79826729210121e-15,-1.08006766341623e-19,2.11851272468474e-19
"Freq [GHz]","IWavePhi [deg]","IWaveTheta [deg]","Phi [deg]","Theta [deg]","re(rEPhi) [mV]","im(rEPhi) [mV]","re(rETheta) [mV]","im(rETheta) [mV]"
0.6406,180,90,0,180,2.59735883664774e-15,-1.84487406444992e-15,6.281960503924e-20,1.90936402256097e-19
