"Freq [GHz]","IWavePhi [deg]","IWaveTheta [deg]","Phi [deg]","Theta [deg]","re(rEPhi) [mV]","im(rEPhi) [mV]","re(rETheta) [mV]","im(rETheta) [mV]"
0.5694,180,90,0,90,-41.9286044698918,14.4744175698062,-0.00167001127132922,0.00167989762380668
"Freq [GHz]","IWavePhi [deg]","IWaveTheta [deg]","Phi [deg]","Theta [deg]","re(rEPhi) [mV]","im(rEPhi) [mV]","re(rETheta) [mV]","im(rETheta) [mV]"
0.5694,180,90,180,90,41.9307559208161,-14.4670618335084,-0.00434951038335817,-0.000808060323497326
"Freq [GHz]","IWavePhi [deg]","IWaveTheta [deg]","Phi [deg]","Theta [deg]","re(rEPhi) [mV]","im(rEPhi) [mV]","re(rETheta) [mV]","im(rETheta) [mV]"
0.5694,180,90,90,90,0.00129412165535809,0.000225579654952319,-0.00182976208666015,0.00219309004966498
"Freq [GHz]","IWavePhi [deg]","IWaveTheta [deg]","Phi [deg]","Theta [deg]","re(rEPhi) [mV]","im(rEPhi) [mV]","re(rETheta) [mV]","im(rETheta) [mV]"
0.5694,180,90,-90,90,-0.00174685236922873,0.000764977416042318,-0.00082255325038842,0.00357437754454626
"Freq [GHz]","IWavePhi [deg]","IWaveTheta [deg]","Phi [deg]","Theta [deg]","re(rEPhi) [mV]","im(rEPhi) [mV]","re(rETheta) [mV]","im(rETheta) [mV]"
0.5694,180,90,0,0,-39.9000070227034,13.7413140557419,0.00145263714286817,-0.000938288570727712
"Freq [GHz]","IWavePhi [deg]","IWaveTheta [deg]","Phi [deg]","Theta [deg]","re(rEPhi) [mV]","im(rEPhi) [mV]","re(rETheta) [mV]","im(rETheta) [mV]"
0.5694,180,90,0,180,-39.9030749074548,13.7388259478389,0.000912129518896172,-0.0018470244408923
"Freq [GHz]","IWavePhi [deg]","IWaveTheta [deg]","Phi [deg]","Theta [deg]","re(rEPhi) [mV]","im(rEPhi) [mV]","re(rETheta) [mV]","im(rETheta) [mV]"
0.5694,180,90,0,90,41.9286044698918,-14.4744175698062,0.00167001127130708,-0.00167989762388174
"Freq [GHz]","IWavePhi [deg]","IWaveTheta [deg]","Phi [deg]","Theta [deg]","re(rEPhi) [mV]","im(rEPhi) [mV]","re(rETheta) [mV]","im(rETheta) [mV]"
0.5694,180,90,180,90,-41.9307559208161,14.4670618335084,0.00434951038336771,0.000808060323424956
"Freq [GHz]","IWavePhi [deg]","IWaveTheta [deg]","Phi [deg]","Theta [deg]","re(rEPhi) [mV]","im(rEPhi) [mV]","re(rETheta) [mV]","im(rETheta) [mV]"
0.5694,180,90,90,90,-0.00129412165535438,-0.000225579655088229,0.00182976208671518,-0.00219309004971976
"Freq [GHz]","IWavePhi [deg]","IWaveTheta [deg]","Phi [deg]","Theta [deg]","re(rEPhi) [mV]","im(rEPhi) [mV]","re(rETheta) [mV]","im(rETheta) [mV]"
0.5694,180,90,-90,90,0.00174685236923244,-0.000764977415906408,0.000822553250328277,-0.00357437754458793
"Freq [GHz]","IWavePhi [deg]","IWaveTheta [deg]","Phi [deg]","Theta [deg]","re(rEPhi) [mV]","im(rEPhi) [mV]","re(rETheta) [mV]","im(rETheta) [mV]"
0.5694,180,90,0,0,39.9000070227034,-13.7413140557419,-0.00145263714289674,0.000938288570594788
"Freq [GHz]","IWavePhi [deg]","IWaveTheta [deg]","Phi [deg]","Theta [deg]","re(rEPhi) [mV]","im(rEPhi) [mV]","re(rETheta) [mV]","im(rETheta) [mV]"
0.5694,180,90,0,180,39.9030749074548,-13.7388259478389,-0.000912129518924744,0.00184702444102522
"Freq [GHz]","IWavePhi [deg]","IWaveTheta [deg]","Phi [deg]","Theta [deg]","re(rEPhi) [mV]","im(rEPhi) [mV]","re(rETheta) [mV]","im(rETheta) [mV]"
0.5694,180,90,0,90,-4.6644515375994e-15,1.61112308947305e-15,-1.39397262814633e-15,9.47057597664094e-17
"Freq [GHz]","IWavePhi [deg]","IWaveTheta [deg]","Phi [deg]","Theta [deg]","re(rEPhi) [mV]","im(rEPhi) [mV]","re(rETheta) [mV]","im(rETheta) [mV]"
0.5694,180,90,180,90,4.6647072252144e-15,-1.61025388611556e-15,-1.39430991772531e-15,9.43661241300459e-17
"Freq [GHz]","IWavePhi [deg]","IWaveTheta [deg]","Phi [deg]","Theta [deg]","re(rEPhi) [mV]","im(rEPhi) [mV]","re(rETheta) [mV]","im(rETheta) [mV]"
0.5694,180,90,90,90,1.67323132277468e-19,6.23054455111341e-20,-5.86389337786259e-16,9.74452562621754e-17
"Freq [GHz]","IWavePhi [deg]","IWaveTheta [deg]","Phi [deg]","Theta [deg]","re(rEPhi) [mV]","im(rEPhi) [mV]","re(rETheta) [mV]","im(rETheta) [mV]"
0.5694,180,90,-90,90,-1.95147437848688e-19,7.30852441452078e-20,-1.48251314843765e-15,5.31713352562682e-17
"Freq [GHz]","IWavePhi [deg]","IWaveTheta [deg]","Phi [deg]","Theta [deg]","re(rEPhi) [mV]","im(rEPhi) [mV]","re(rETheta) [mV]","im(rETheta) [mV]"
0.5694,180,90,0,0,-3.59422706586924e-15,1.55596719549255e-15,2.10873234972541e-19,-1.16771409266062e-19
"Freq [GHz]","IWavePhi [deg]","IWaveTheta [deg]","Phi [deg]","Theta [deg]","re(rEPhi) [mV]","im(rEPhi) [mV]","re(rETheta) [mV]","im(rETheta) [mV]"
0.5694,180,90,0,180,-5.28344949017298e-15,1.50281484059136e-15,5.32550379567667e-20,-1.99943530543146e-19
"Freq [GHz]","IWavePhi [deg]","IWaveTheta [deg]","Phi [deg]","Theta [deg]","re(rEPhi) [mV]","im(rEPhi) [mV]","re(rETheta) [mV]","im(rETheta) [mV]"
0.5694,180,90,0,90,4.04419066134995e-19,1.21480728670693e-20,1.3937996613904e-15,-9.43287936388322e-17
"Freq [GHz]","IWavePhi [deg]","IWaveTheta [deg]","Phi [deg]","Theta [deg]","re(rEPhi) [mV]","im(rEPhi) [mV]","re(rETheta) [mV]","im(rETheta) [mV]"
0.5694,180,90,180,90,-3.29849172826589e-19,5.85366813071863e-20,1.39387463944777e-15,-9.44200391985253e-17
"Freq [GHz]","IWavePhi [deg]","IWaveTheta [deg]","Phi [deg]","Theta [deg]","re(rEPhi) [mV]","im(rEPhi) [mV]","re(rETheta) [mV]","im(rETheta) [mV]"
0.5694,180,90,90,90,-2.19273929157881e-20,-5.32854843248254e-20,1.48265157650394e-15,-5.2726244767979e-17
"Freq [GHz]","IWavePhi [deg]","IWaveTheta [deg]","Phi [deg]","Theta [deg]","re(rEPhi) [mV]","im(rEPhi) [mV]","re(rETheta) [mV]","im(rETheta) [mV]"
0.5694,180,90,-90,90,-3.58582873899609e-20,2.14697058808099e-20,5.86112751179533e-16,-9.72246949050189e-17
"Freq [GHz]","IWavePhi [deg]","IWaveTheta [deg]","Phi [deg]","Theta [deg]","re(rEPhi) [mV]","im(rEPhi) [mV]","re(rETheta) [mV]","im(rETheta) [mV]"
0.5694,180,90,0,0,8.44800832819955e-16,2.6439481500952e-17,-6.34991195905218e-20,1.79250284378145e-20
"Freq [GHz]","IWavePhi [deg]","IWaveTheta [deg]","Phi [deg]","Theta [deg]","re(rEPhi) [mV]","im(rEPhi) [mV]","re(rETheta) [mV]","im(rETheta) [mV]"
0.5694,180,90,0,180,-8.4417332324269e-16,-2.62132404109264e-17,5.62734644288902e-20,-5.01544734466167e-20
"Freq [GHz]","IWavePhi [deg]","IWaveTheta [deg]","Phi [deg]","Theta [deg]","re(rEPhi) [mV]","im(rEPhi) [mV]","re(rETheta) [mV]","im(rETheta) [mV]"
0.5694,180,90,0,90,-39.8999250898908,13.7427963436582,-0.00167014396290272,0.00132652339045873
"Freq [GHz]","IWavePhi [deg]","IWaveTheta [deg]","Phi [deg]","Theta [deg]","re(rEPhi) [mV]","im(rEPhi) [mV]","re(rETheta) [mV]","im(rETheta) [mV]"
0.5694,180,90,180,90,39.9022046239122,-13.7353395739317,-0.00412098191141798,-0.00178752316519703
"Freq [GHz]","IWavePhi [deg]","IWaveTheta [deg]","Phi [deg]","Theta [deg]","re(rEPhi) [mV]","im(rEPhi) [mV]","re(rETheta) [mV]","im(rETheta) [mV]"
0.5694,180,90,90,90,0.00119780392168522,4.47691941427636e-05,5.24904955135781,0.165843635182013
"Freq [GHz]","IWavePhi [deg]","IWaveTheta [deg]","Phi [deg]","Theta [deg]","re(rEPhi) [mV]","im(rEPhi) [mV]","re(rETheta) [mV]","im(rETheta) [mV]"
0.5694,180,90,-90,90,-0.00175361342817163,0.000829289676634791,-5.25103482859051,-0.161744935528899
"Freq [GHz]","IWavePhi [deg]","IWaveTheta [deg]","Phi [deg]","Theta [deg]","re(rEPhi) [mV]","im(rEPhi) [mV]","re(rETheta) [mV]","im(rETheta) [mV]"
0.5694,180,90,0,0,-32.9855828676889,13.2567271625119,0.0013328161232115,-0.000843615618504388
"Freq [GHz]","IWavePhi [deg]","IWaveTheta [deg]","Phi [deg]","Theta [deg]","re(rEPhi) [mV]","im(rEPhi) [mV]","re(rETheta) [mV]","im(rETheta) [mV]"
0.5694,180,90,0,180,-42.6275911972525,12.8349792976053,0.00087091709826799,-0.00192326754650502
"Freq [GHz]","IWavePhi [deg]","IWaveTheta [deg]","Phi [deg]","Theta [deg]","re(rEPhi) [mV]","im(rEPhi) [mV]","re(rETheta) [mV]","im(rETheta) [mV]"
0.5694,180,90,0,90,-39.8986758405525,13.7469542104549,-0.00144957899618737,0.00185644736365503
"Freq [GHz]","IWavePhi [deg]","IWaveTheta [deg]","Phi [deg]","Theta [deg]","re(rEPhi) [mV]","im(rEPhi) [mV]","re(rETheta) [mV]","im(rETheta) [mV]"
0.5694,180,90,180,90,39.9004875744023,-13.7404536900269,-0.00408097361197465,0.000251993863491279
"Freq [GHz]","IWavePhi [deg]","IWaveTheta [deg]","Phi [deg]","Theta [deg]","re(rEPhi) [mV]","im(rEPhi) [mV]","re(rETheta) [mV]","im(rETheta) [mV]"
0.5694,180,90,90,90,0.00126152789112031,0.000379847826046399,-5.25248350129622,-0.161534682970429
"Freq [GHz]","IWavePhi [deg]","IWaveTheta [deg]","Phi [deg]","Theta [deg]","re(rEPhi) [mV]","im(rEPhi) [mV]","re(rETheta) [mV]","im(rETheta) [mV]"
0.5694,180,90,-90,90,-0.00156738683349915,0.000623208246150968,5.24952812590652,0.16838453773937
"Freq [GHz]","IWavePhi [deg]","IWaveTheta [deg]","Phi [deg]","Theta [deg]","re(rEPhi) [mV]","im(rEPhi) [mV]","re(rETheta) [mV]","im(rETheta) [mV]"
0.5694,180,90,0,0,-42.6229139657056,12.8410794050566,0.00142600792377816,-0.00094132351899138
"Freq [GHz]","IWavePhi [deg]","IWaveTheta [deg]","Phi [deg]","Theta [deg]","re(rEPhi) [mV]","im(rEPhi) [mV]","re(rETheta) [mV]","im(rETheta) [mV]"
0.5694,180,90,0,180,-32.9867164388756,13.2576508428346,0.000859554175263835,-0.00159000168734828
"Freq [GHz]","IWavePhi [deg]","IWaveTheta [deg]","Phi [deg]","Theta [deg]","re(rEPhi) [mV]","im(rEPhi) [mV]","re(rETheta) [mV]","im(rETheta) [mV]"
0.5694,180,90,0,90,0.00281675921067903,-0.00111952737895716,10.3802146272522,-0.7403974756926
"Freq [GHz]","IWavePhi [deg]","IWaveTheta [deg]","Phi [deg]","Theta [deg]","re(rEPhi) [mV]","im(rEPhi) [mV]","re(rETheta) [mV]","im(rETheta) [mV]"
0.5694,180,90,180,90,-0.00264241829319807,0.00118651978713606,10.380653180334,-0.740545794057213
"Freq [GHz]","IWavePhi [deg]","IWaveTheta [deg]","Phi [deg]","Theta [deg]","re(rEPhi) [mV]","im(rEPhi) [mV]","re(rETheta) [mV]","im(rETheta) [mV]"
0.5694,180,90,90,90,-0.000159039111232125,-0.000326160111230135,8.67351899143895,-0.586041943532022
"Freq [GHz]","IWavePhi [deg]","IWaveTheta [deg]","Phi [deg]","Theta [deg]","re(rEPhi) [mV]","im(rEPhi) [mV]","re(rETheta) [mV]","im(rETheta) [mV]"
0.5694,180,90,-90,90,-0.000144124672282089,0.000118961198268156,8.67268854319329,-0.586929197573755
"Freq [GHz]","IWavePhi [deg]","IWaveTheta [deg]","Phi [deg]","Theta [deg]","re(rEPhi) [mV]","im(rEPhi) [mV]","re(rETheta) [mV]","im(rETheta) [mV]"
0.5694,180,90,0,0,0.00269357486129933,-0.000914059454377657,-0.00044391585154251,8.34720329784947e-05
"Freq [GHz]","IWavePhi [deg]","IWaveTheta [deg]","Phi [deg]","Theta [deg]","re(rEPhi) [mV]","im(rEPhi) [mV]","re(rETheta) [mV]","im(rETheta) [mV]"
0.5694,180,90,0,180,0.00219071279855581,-0.000422471260180782,0.000414942209168728,-0.000255979343222103
"Freq [GHz]","IWavePhi [deg]","IWaveTheta [deg]","Phi [deg]","Theta [deg]","re(rEPhi) [mV]","im(rEPhi) [mV]","re(rETheta) [mV]","im(rETheta) [mV]"
0.5694,180,90,0,90,0.00281675921068242,-0.00111952737895334,10.3802146272522,-0.7403974756926
"Freq [GHz]","IWavePhi [deg]","IWaveTheta [deg]","Phi [deg]","Theta [deg]","re(rEPhi) [mV]","im(rEPhi) [mV]","re(rETheta) [mV]","im(rETheta) [mV]"
0.5694,180,90,180,90,-0.00264241829320352,0.00118651978713029,10.380653180334,-0.740545794057213
"Freq [GHz]","IWavePhi [deg]","IWaveTheta [deg]","Phi [deg]","Theta [deg]","re(rEPhi) [mV]","im(rEPhi) [mV]","re(rETheta) [mV]","im(rETheta) [mV]"
0.5694,180,90,90,90,-0.000159039111221842,-0.000326160111232323,8.67351899143895,-0.586041943532022
"Freq [GHz]","IWavePhi [deg]","IWaveTheta [deg]","Phi [deg]","Theta [deg]","re(rEPhi) [mV]","im(rEPhi) [mV]","re(rETheta) [mV]","im(rETheta) [mV]"
0.5694,180,90,-90,90,-0.000144124672292385,0.000118961198265955,8.67268854319329,-0.586929197573755
"Freq [GHz]","IWavePhi [deg]","IWaveTheta [deg]","Phi [deg]","Theta [deg]","re(rEPhi) [mV]","im(rEPhi) [mV]","re(rETheta) [mV]","im(rETheta) [mV]"
0.5694,180,90,0,0,0.00269357486129095,-0.000914059454375385,-0.000443915851541172,8.34720329680956e-05
"Freq [GHz]","IWavePhi [deg]","IWaveTheta [deg]","Phi [deg]","Theta [deg]","re(rEPhi) [mV]","im(rEPhi) [mV]","re(rETheta) [mV]","im(rETheta) [mV]"
0.5694,180,90,0,180,0.00219071279855696,-0.000422471260180313,0.000414942209167389,-0.000255979343232605
"Freq [GHz]","IWavePhi [deg]","IWaveTheta [deg]","Phi [deg]","Theta [deg]","re(rEPhi) [mV]","im(rEPhi) [mV]","re(rETheta) [mV]","im(rETheta) [mV]"
0.5694,180,90,0,90,0.00164086409188009,-0.00173166117121575,8.66731532154738,-0.587187159338796
"Freq [GHz]","IWavePhi [deg]","IWaveTheta [deg]","Phi [deg]","Theta [deg]","re(rEPhi) [mV]","im(rEPhi) [mV]","re(rETheta) [mV]","im(rETheta) [mV]"
0.5694,180,90,180,90,-0.00181671658416642,0.00141280194634892,8.66758213733681,-0.586846476626993
"Freq [GHz]","IWavePhi [deg]","IWaveTheta [deg]","Phi [deg]","Theta [deg]","re(rEPhi) [mV]","im(rEPhi) [mV]","re(rETheta) [mV]","im(rETheta) [mV]"
0.5694,180,90,90,90,-0.000148474819002384,-0.000207445480671423,3.6449940048989,-0.603977190348292
"Freq [GHz]","IWavePhi [deg]","IWaveTheta [deg]","Phi [deg]","Theta [deg]","re(rEPhi) [mV]","im(rEPhi) [mV]","re(rETheta) [mV]","im(rETheta) [mV]"
0.5694,180,90,-90,90,1.31051330323165e-05,6.05593150271137e-05,9.21872393786981,-0.327775758104596
"Freq [GHz]","IWavePhi [deg]","IWaveTheta [deg]","Phi [deg]","Theta [deg]","re(rEPhi) [mV]","im(rEPhi) [mV]","re(rETheta) [mV]","im(rETheta) [mV]"
0.5694,180,90,0,0,-5.24937917637696,-0.166104125943459,-0.000342680761909761,5.54160784394296e-05
"Freq [GHz]","IWavePhi [deg]","IWaveTheta [deg]","Phi [deg]","Theta [deg]","re(rEPhi) [mV]","im(rEPhi) [mV]","re(rETheta) [mV]","im(rETheta) [mV]"
0.5694,180,90,0,180,5.25256672672058,0.162746919182798,0.000336722439945222,-4.8613555176109e-05
"Freq [GHz]","IWavePhi [deg]","IWaveTheta [deg]","Phi [deg]","Theta [deg]","re(rEPhi) [mV]","im(rEPhi) [mV]","re(rETheta) [mV]","im(rETheta) [mV]"
0.5694,180,90,0,90,0.00251485410838511,7.55390303568582e-05,8.66724725028566,-0.586577113439751
"Freq [GHz]","IWavePhi [deg]","IWaveTheta [deg]","Phi [deg]","Theta [deg]","re(rEPhi) [mV]","im(rEPhi) [mV]","re(rETheta) [mV]","im(rETheta) [mV]"
0.5694,180,90,180,90,-0.00205114468073116,0.000364003178867318,8.66771349673743,-0.587144516409833
"Freq [GHz]","IWavePhi [deg]","IWaveTheta [deg]","Phi [deg]","Theta [deg]","re(rEPhi) [mV]","im(rEPhi) [mV]","re(rETheta) [mV]","im(rETheta) [mV]"
0.5694,180,90,90,90,-0.000136356194299606,-0.000331355975304304,9.21976677274833,-0.327874533890716
"Freq [GHz]","IWavePhi [deg]","IWaveTheta [deg]","Phi [deg]","Theta [deg]","re(rEPhi) [mV]","im(rEPhi) [mV]","re(rETheta) [mV]","im(rETheta) [mV]"
0.5694,180,90,-90,90,-0.000222982471635615,0.000133507018475105,3.64470178103872,-0.604585067841145
"Freq [GHz]","IWavePhi [deg]","IWaveTheta [deg]","Phi [deg]","Theta [deg]","re(rEPhi) [mV]","im(rEPhi) [mV]","re(rETheta) [mV]","im(rETheta) [mV]"
0.5694,180,90,0,0,5.25333582280252,0.164412093494535,-0.000394876623356837,0.000111470437333073
"Freq [GHz]","IWavePhi [deg]","IWaveTheta [deg]","Phi [deg]","Theta [deg]","re(rEPhi) [mV]","im(rEPhi) [mV]","re(rETheta) [mV]","im(rETheta) [mV]"
0.5694,180,90,0,180,-5.24943369438194,-0.163005237754828,0.000349931582315933,-0.000311889617798959
"Freq [GHz]","IWavePhi [deg]","IWaveTheta [deg]","Phi [deg]","Theta [deg]","re(rEPhi) [mV]","im(rEPhi) [mV]","re(rETheta) [mV]","im(rETheta) [mV]"
0.5694,180,90,0,90,-2.44327154359492e-15,8.41536474805867e-16,-3.88381625183574e-16,2.77731390201822e-17
"Freq [GHz]","IWavePhi [deg]","IWaveTheta [deg]","Phi [deg]","Theta [deg]","re(rEPhi) [mV]","im(rEPhi) [mV]","re(rETheta) [mV]","im(rETheta) [mV]"
0.5694,180,90,180,90,2.44340428816315e-15,-8.41082519461295e-16,-3.88547922357834e-16,2.75876666337574e-17
"Freq [GHz]","IWavePhi [deg]","IWaveTheta [deg]","Phi [deg]","Theta [deg]","re(rEPhi) [mV]","im(rEPhi) [mV]","re(rETheta) [mV]","im(rETheta) [mV]"
0.5694,180,90,90,90,7.92780875035432e-20,1.48943216426185e-20,-3.00872180882818e-18,3.20742368428943e-17
"Freq [GHz]","IWavePhi [deg]","IWaveTheta [deg]","Phi [deg]","Theta [deg]","re(rEPhi) [mV]","im(rEPhi) [mV]","re(rETheta) [mV]","im(rETheta) [mV]"
0.5694,180,90,-90,90,-1.02016959651178e-19,4.63129621125794e-20,-6.45932349880594e-16,1.20482232945238e-17
"Freq [GHz]","IWavePhi [deg]","IWaveTheta [deg]","Phi [deg]","Theta [deg]","re(rEPhi) [mV]","im(rEPhi) [mV]","re(rETheta) [mV]","im(rETheta) [mV]"
0.5694,180,90,0,0,-2.01988841292687e-15,8.11766267611025e-16,9.78170835548534e-20,-5.48976849843946e-20
"Freq [GHz]","IWavePhi [deg]","IWaveTheta [deg]","Phi [deg]","Theta [deg]","re(rEPhi) [mV]","im(rEPhi) [mV]","re(rETheta) [mV]","im(rETheta) [mV]"
0.5694,180,90,0,180,-2.61026680927905e-15,7.85923466122826e-16,3.81788510129302e-20,-1.08038280365999e-19
"Freq [GHz]","IWavePhi [deg]","IWaveTheta [deg]","Phi [deg]","Theta [deg]","re(rEPhi) [mV]","im(rEPhi) [mV]","re(rETheta) [mV]","im(rETheta) [mV]"
0.5694,180,90,0,90,2.44350839749969e-15,-8.41964217822982e-16,1.62835458827546e-15,-1.16272787158256e-16
"Freq [GHz]","IWavePhi [deg]","IWaveTheta [deg]","Phi [deg]","Theta [deg]","re(rEPhi) [mV]","im(rEPhi) [mV]","re(rETheta) [mV]","im(rETheta) [mV]"
0.5694,180,90,180,90,-2.44359332747605e-15,8.41576133913461e-16,1.62858524965468e-15,-1.16199244940492e-16
"Freq [GHz]","IWavePhi [deg]","IWaveTheta [deg]","Phi [deg]","Theta [deg]","re(rEPhi) [mV]","im(rEPhi) [mV]","re(rETheta) [mV]","im(rETheta) [mV]"
0.5694,180,90,90,90,-1.02240891312375e-19,-7.46044744434602e-20,1.68213396278035e-15,-8.20494899830082e-17
"Freq [GHz]","IWavePhi [deg]","IWaveTheta [deg]","Phi [deg]","Theta [deg]","re(rEPhi) [mV]","im(rEPhi) [mV]","re(rETheta) [mV]","im(rETheta) [mV]"
0.5694,180,90,-90,90,7.32286819187798e-20,-1.95493192489444e-20,1.03889925706811e-15,-1.02391518886586e-16
"Freq [GHz]","IWavePhi [deg]","IWaveTheta [deg]","Phi [deg]","Theta [deg]","re(rEPhi) [mV]","im(rEPhi) [mV]","re(rETheta) [mV]","im(rETheta) [mV]"
0.5694,180,90,0,0,2.61028974942548e-15,-7.86459309528759e-16,-1.58623777183715e-19,7.02397245680338e-20
"Freq [GHz]","IWavePhi [deg]","IWaveTheta [deg]","Phi [deg]","Theta [deg]","re(rEPhi) [mV]","im(rEPhi) [mV]","re(rETheta) [mV]","im(rETheta) [mV]"
0.5694,180,90,0,180,2.02018718361024e-15,-8.11892094772472e-16,1.40119867181752e-20,5.78334945815074e-20
