"Freq [GHz]","IWavePhi [deg]","IWaveTheta [deg]","Phi [deg]","Theta [deg]","re(rEPhi) [mV]","im(rEPhi) [mV]","re(rETheta) [mV]","im(rETheta) [mV]"
0.8541,180,90,0,90,-5.78634033683381,99.4601120355397,-0.0290647380535642,-0.0673415495028659
"Freq [GHz]","IWavePhi [deg]","IWaveTheta [deg]","Phi [deg]","Theta [deg]","re(rEPhi) [mV]","im(rEPhi) [mV]","re(rETheta) [mV]","im(rETheta) [mV]"
0.8541,180,90,180,90,5.81657436057144,-99.4259680185426,0.00678235485228657,-0.116857134131909
"Freq [GHz]","IWavePhi [deg]","IWaveTheta [deg]","Phi [deg]","Theta [deg]","re(rEPhi) [mV]","im(rEPhi) [mV]","re(rETheta) [mV]","im(rETheta) [mV]"
0.8541,180,90,90,90,0.0405753002165316,0.0185374567349021,0.0665958542420756,-0.0732161694199309
"Freq [GHz]","IWavePhi [deg]","IWaveTheta [deg]","Phi [deg]","Theta [deg]","re(rEPhi) [mV]","im(rEPhi) [mV]","re(rETheta) [mV]","im(rETheta) [mV]"
0.8541,180,90,-90,90,0.0524951521678477,-0.0221017699536956,-0.0533098159070253,-0.0413146061212011
"Freq [GHz]","IWavePhi [deg]","IWaveTheta [deg]","Phi [deg]","Theta [deg]","re(rEPhi) [mV]","im(rEPhi) [mV]","re(rETheta) [mV]","im(rETheta) [mV]"
0.8541,180,90,0,0,-5.51192579098705,88.2286742549292,-0.0116790049551817,-0.0551143441326894
"Freq [GHz]","IWavePhi [deg]","IWaveTheta [deg]","Phi [deg]","Theta [deg]","re(rEPhi) [mV]","im(rEPhi) [mV]","re(rETheta) [mV]","im(rETheta) [mV]"
0.8541,180,90,0,180,-5.55594243903362,88.2538428810929,-0.00780922380470229,0.111071316149602
"Freq [GHz]","IWavePhi [deg]","IWaveTheta [deg]","Phi [deg]","Theta [deg]","re(rEPhi) [mV]","im(rEPhi) [mV]","re(rETheta) [mV]","im(rETheta) [mV]"
0.8541,180,90,45,54.736,-3.81452589366992,63.0920725890052,-2.23696644682108,36.1185031876082
"Freq [GHz]","IWavePhi [deg]","IWaveTheta [deg]","Phi [deg]","Theta [deg]","re(rEPhi) [mV]","im(rEPhi) [mV]","re(rETheta) [mV]","im(rETheta) [mV]"
0.8541,180,90,135,54.736,3.83519272116395,-63.0186964115843,-2.23813998805083,36.0374878591033
"Freq [GHz]","IWavePhi [deg]","IWaveTheta [deg]","Phi [deg]","Theta [deg]","re(rEPhi) [mV]","im(rEPhi) [mV]","re(rETheta) [mV]","im(rETheta) [mV]"
0.8541,180,90,-45,54.736,-3.73803663492319,63.1626632838663,2.26968039360588,-36.2587586412611
"Freq [GHz]","IWavePhi [deg]","IWaveTheta [deg]","Phi [deg]","Theta [deg]","re(rEPhi) [mV]","im(rEPhi) [mV]","re(rETheta) [mV]","im(rETheta) [mV]"
0.8541,180,90,45,125.264,-3.76203519851568,63.1006790584836,2.23138311364473,-36.2325114732907
"Freq [GHz]","IWavePhi [deg]","IWaveTheta [deg]","Phi [deg]","Theta [deg]","re(rEPhi) [mV]","im(rEPhi) [mV]","re(rETheta) [mV]","im(rETheta) [mV]"
0.8541,180,90,-135,54.736,3.66530820121572,-63.1284843991199,2.18653254016077,-36.2390697618751
"Freq [GHz]","IWavePhi [deg]","IWaveTheta [deg]","Phi [deg]","Theta [deg]","re(rEPhi) [mV]","im(rEPhi) [mV]","re(rETheta) [mV]","im(rETheta) [mV]"
0.8541,180,90,-45,125.264,-3.63695584339191,62.9782398113766,-2.27781562397445,36.0505106432871
"Freq [GHz]","IWavePhi [deg]","IWaveTheta [deg]","Phi [deg]","Theta [deg]","re(rEPhi) [mV]","im(rEPhi) [mV]","re(rETheta) [mV]","im(rETheta) [mV]"
0.8541,180,90,135,125.264,3.6703513620465,-63.1537804720112,2.19864008125693,-36.2445130963639
"Freq [GHz]","IWavePhi [deg]","IWaveTheta [deg]","Phi [deg]","Theta [deg]","re(rEPhi) [mV]","im(rEPhi) [mV]","re(rETheta) [mV]","im(rETheta) [mV]"
0.8541,180,90,-135,125.264,3.68369474410063,-63.0690176278272,-2.24482247541646,36.1093091474299
"Freq [GHz]","IWavePhi [deg]","IWaveTheta [deg]","Phi [deg]","Theta [deg]","re(rEPhi) [mV]","im(rEPhi) [mV]","re(rETheta) [mV]","im(rETheta) [mV]"
0.8541,360,90,0,90,5.78634033683381,-99.4601120355397,0.0290647380535621,0.0673415495029255
"Freq [GHz]","IWavePhi [deg]","IWaveTheta [deg]","Phi [deg]","Theta [deg]","re(rEPhi) [mV]","im(rEPhi) [mV]","re(rETheta) [mV]","im(rETheta) [mV]"
0.8541,360,90,180,90,-5.81657436057144,99.4259680185426,-0.00678235485229244,0.116857134131845
"Freq [GHz]","IWavePhi [deg]","IWaveTheta [deg]","Phi [deg]","Theta [deg]","re(rEPhi) [mV]","im(rEPhi) [mV]","re(rETheta) [mV]","im(rETheta) [mV]"
0.8541,360,90,90,90,-0.0405753002164831,-0.0185374567349694,-0.0665958542421262,0.0732161694199679
"Freq [GHz]","IWavePhi [deg]","IWaveTheta [deg]","Phi [deg]","Theta [deg]","re(rEPhi) [mV]","im(rEPhi) [mV]","re(rETheta) [mV]","im(rETheta) [mV]"
0.8541,360,90,-90,90,-0.0524951521678996,0.0221017699536946,0.0533098159069734,0.0413146061211689
"Freq [GHz]","IWavePhi [deg]","IWaveTheta [deg]","Phi [deg]","Theta [deg]","re(rEPhi) [mV]","im(rEPhi) [mV]","re(rETheta) [mV]","im(rETheta) [mV]"
0.8541,360,90,0,0,5.51192579098705,-88.2286742549292,0.0116790049552419,0.0551143441327234
"Freq [GHz]","IWavePhi [deg]","IWaveTheta [deg]","Phi [deg]","Theta [deg]","re(rEPhi) [mV]","im(rEPhi) [mV]","re(rETheta) [mV]","im(rETheta) [mV]"
0.8541,360,90,0,180,5.55594243903362,-88.2538428810929,0.00780922380469704,-0.111071316149533
"Freq [GHz]","IWavePhi [deg]","IWaveTheta [deg]","Phi [deg]","Theta [deg]","re(rEPhi) [mV]","im(rEPhi) [mV]","re(rETheta) [mV]","im(rETheta) [mV]"
0.8541,360,90,45,54.736,3.81452589366991,-63.0920725890052,2.23696644682108,-36.1185031876083
"Freq [GHz]","IWavePhi [deg]","IWaveTheta [deg]","Phi [deg]","Theta [deg]","re(rEPhi) [mV]","im(rEPhi) [mV]","re(rETheta) [mV]","im(rETheta) [mV]"
0.8541,360,90,135,54.736,-3.83519272116394,63.0186964115843,2.2381399880508,-36.0374878591033
"Freq [GHz]","IWavePhi [deg]","IWaveTheta [deg]","Phi [deg]","Theta [deg]","re(rEPhi) [mV]","im(rEPhi) [mV]","re(rETheta) [mV]","im(rETheta) [mV]"
0.8541,360,90,-45,54.736,3.73803663492315,-63.1626632838663,-2.26968039360595,36.2587586412611
"Freq [GHz]","IWavePhi [deg]","IWaveTheta [deg]","Phi [deg]","Theta [deg]","re(rEPhi) [mV]","im(rEPhi) [mV]","re(rETheta) [mV]","im(rETheta) [mV]"
0.8541,360,90,45,125.264,3.76203519851568,-63.1006790584836,-2.23138311364474,36.2325114732906
"Freq [GHz]","IWavePhi [deg]","IWaveTheta [deg]","Phi [deg]","Theta [deg]","re(rEPhi) [mV]","im(rEPhi) [mV]","re(rETheta) [mV]","im(rETheta) [mV]"
0.8541,360,90,-135,54.736,-3.66530820121574,63.12848439912,-2.18653254016077,36.2390697618751
"Freq [GHz]","IWavePhi [deg]","IWaveTheta [deg]","Phi [deg]","Theta [deg]","re(rEPhi) [mV]","im(rEPhi) [mV]","re(rETheta) [mV]","im(rETheta) [mV]"
0.8541,360,90,-45,125.264,3.63695584339186,-62.9782398113766,2.27781562397444,-36.0505106432871
"Freq [GHz]","IWavePhi [deg]","IWaveTheta [deg]","Phi [deg]","Theta [deg]","re(rEPhi) [mV]","im(rEPhi) [mV]","re(rETheta) [mV]","im(rETheta) [mV]"
0.8541,360,90,135,125.264,-3.67035136204646,63.1537804720113,-2.198640081257,36.2445130963638
"Freq [GHz]","IWavePhi [deg]","IWaveTheta [deg]","Phi [deg]","Theta [deg]","re(rEPhi) [mV]","im(rEPhi) [mV]","re(rETheta) [mV]","im(rETheta) [mV]"
0.8541,360,90,-135,125.264,-3.68369474410064,63.0690176278273,2.24482247541645,-36.1093091474298
"Freq [GHz]","IWavePhi [deg]","IWaveTheta [deg]","Phi [deg]","Theta [deg]","re(rEPhi) [mV]","im(rEPhi) [mV]","re(rETheta) [mV]","im(rETheta) [mV]"
0.8541,270,90,0,90,-7.22199608804564e-16,1.47387977067443e-14,-5.81300188140001e-18,-1.07550250662461e-17
"Freq [GHz]","IWavePhi [deg]","IWaveTheta [deg]","Phi [deg]","Theta [deg]","re(rEPhi) [mV]","im(rEPhi) [mV]","re(rETheta) [mV]","im(rETheta) [mV]"
0.8541,270,90,180,90,7.20256823466743e-16,-1.47346200073201e-14,1.70487253396327e-18,-1.92928479172473e-17
"Freq [GHz]","IWavePhi [deg]","IWaveTheta [deg]","Phi [deg]","Theta [deg]","re(rEPhi) [mV]","im(rEPhi) [mV]","re(rETheta) [mV]","im(rETheta) [mV]"
0.8541,270,90,90,90,6.55115285801988e-18,3.61659077565047e-18,2.13242018825961e-17,-1.19068001620737e-17
"Freq [GHz]","IWavePhi [deg]","IWaveTheta [deg]","Phi [deg]","Theta [deg]","re(rEPhi) [mV]","im(rEPhi) [mV]","re(rETheta) [mV]","im(rETheta) [mV]"
0.8541,270,90,-90,90,5.95993053100493e-18,-2.84488874905781e-18,-2.098100242535e-17,-6.37134018842447e-18
"Freq [GHz]","IWavePhi [deg]","IWaveTheta [deg]","Phi [deg]","Theta [deg]","re(rEPhi) [mV]","im(rEPhi) [mV]","re(rETheta) [mV]","im(rETheta) [mV]"
0.8541,270,90,0,0,-7.06845923568489e-16,1.30582746221438e-14,-1.62949270101096e-19,-1.12877320553309e-17
"Freq [GHz]","IWavePhi [deg]","IWaveTheta [deg]","Phi [deg]","Theta [deg]","re(rEPhi) [mV]","im(rEPhi) [mV]","re(rETheta) [mV]","im(rETheta) [mV]"
0.8541,270,90,0,180,-6.8938825477265e-16,1.30595847010221e-14,2.30606550246345e-18,1.70605622017661e-17
"Freq [GHz]","IWavePhi [deg]","IWaveTheta [deg]","Phi [deg]","Theta [deg]","re(rEPhi) [mV]","im(rEPhi) [mV]","re(rETheta) [mV]","im(rETheta) [mV]"
0.8541,270,90,45,54.736,-1.26247475134852e-15,9.35889533820361e-15,-7.4392395764371e-16,5.36038961839474e-15
"Freq [GHz]","IWavePhi [deg]","IWaveTheta [deg]","Phi [deg]","Theta [deg]","re(rEPhi) [mV]","im(rEPhi) [mV]","re(rETheta) [mV]","im(rETheta) [mV]"
0.8541,270,90,135,54.736,1.26935950638245e-15,-9.34290207088267e-15,-7.4548415080823e-16,5.34836272474566e-15
"Freq [GHz]","IWavePhi [deg]","IWaveTheta [deg]","Phi [deg]","Theta [deg]","re(rEPhi) [mV]","im(rEPhi) [mV]","re(rETheta) [mV]","im(rETheta) [mV]"
0.8541,270,90,-45,54.736,2.57628324281161e-16,9.33855896812737e-15,-1.52596140006856e-16,-5.3643858395297e-15
"Freq [GHz]","IWavePhi [deg]","IWaveTheta [deg]","Phi [deg]","Theta [deg]","re(rEPhi) [mV]","im(rEPhi) [mV]","re(rETheta) [mV]","im(rETheta) [mV]"
0.8541,270,90,45,125.264,-1.25256216289652e-15,9.36177078258472e-15,7.5368215021744e-16,-5.38155011154465e-15
"Freq [GHz]","IWavePhi [deg]","IWaveTheta [deg]","Phi [deg]","Theta [deg]","re(rEPhi) [mV]","im(rEPhi) [mV]","re(rETheta) [mV]","im(rETheta) [mV]"
0.8541,270,90,-135,54.736,-2.73249776743104e-16,-9.3359579389911e-15,-1.65603498394364e-16,-5.36455691083727e-15
"Freq [GHz]","IWavePhi [deg]","IWaveTheta [deg]","Phi [deg]","Theta [deg]","re(rEPhi) [mV]","im(rEPhi) [mV]","re(rETheta) [mV]","im(rETheta) [mV]"
0.8541,270,90,-45,125.264,2.77071978400631e-16,9.30835655456604e-15,1.38982257276977e-16,5.33113060824937e-15
"Freq [GHz]","IWavePhi [deg]","IWaveTheta [deg]","Phi [deg]","Theta [deg]","re(rEPhi) [mV]","im(rEPhi) [mV]","re(rETheta) [mV]","im(rETheta) [mV]"
0.8541,270,90,135,125.264,1.23956178391547e-15,-9.36357013907841e-15,7.49668462935779e-16,-5.38002525845961e-15
"Freq [GHz]","IWavePhi [deg]","IWaveTheta [deg]","Phi [deg]","Theta [deg]","re(rEPhi) [mV]","im(rEPhi) [mV]","re(rETheta) [mV]","im(rETheta) [mV]"
0.8541,270,90,-135,125.264,-2.70749891964628e-16,-9.33052318020662e-15,1.41864152262702e-16,5.34219355470143e-15
"Freq [GHz]","IWavePhi [deg]","IWaveTheta [deg]","Phi [deg]","Theta [deg]","re(rEPhi) [mV]","im(rEPhi) [mV]","re(rETheta) [mV]","im(rETheta) [mV]"
0.8541,90,90,0,90,2.61224792959169e-16,-4.90779084849801e-15,1.62204006996071e-18,1.87669220237752e-18
"Freq [GHz]","IWavePhi [deg]","IWaveTheta [deg]","Phi [deg]","Theta [deg]","re(rEPhi) [mV]","im(rEPhi) [mV]","re(rETheta) [mV]","im(rETheta) [mV]"
0.8541,90,90,180,90,-2.63188773195449e-16,4.90743592741026e-15,-5.31133570066566e-20,4.42375515435284e-18
"Freq [GHz]","IWavePhi [deg]","IWaveTheta [deg]","Phi [deg]","Theta [deg]","re(rEPhi) [mV]","im(rEPhi) [mV]","re(rETheta) [mV]","im(rETheta) [mV]"
0.8541,90,90,90,90,-1.68198829648286e-18,-1.54039372551818e-18,-4.56950908680458e-19,2.42819795903672e-18
"Freq [GHz]","IWavePhi [deg]","IWaveTheta [deg]","Phi [deg]","Theta [deg]","re(rEPhi) [mV]","im(rEPhi) [mV]","re(rETheta) [mV]","im(rETheta) [mV]"
0.8541,90,90,-90,90,-2.27391173608195e-18,1.1328833188616e-18,-6.95036341412399e-20,1.24954096297806e-18
"Freq [GHz]","IWavePhi [deg]","IWaveTheta [deg]","Phi [deg]","Theta [deg]","re(rEPhi) [mV]","im(rEPhi) [mV]","re(rETheta) [mV]","im(rETheta) [mV]"
0.8541,90,90,0,0,2.48935260514631e-16,-4.35218605127007e-15,1.95706744624705e-19,3.08550663293374e-18
"Freq [GHz]","IWavePhi [deg]","IWaveTheta [deg]","Phi [deg]","Theta [deg]","re(rEPhi) [mV]","im(rEPhi) [mV]","re(rETheta) [mV]","im(rETheta) [mV]"
0.8541,90,90,0,180,2.53850187152584e-16,-4.35331539519592e-15,2.12590158220173e-19,-5.77173963021173e-18
"Freq [GHz]","IWavePhi [deg]","IWaveTheta [deg]","Phi [deg]","Theta [deg]","re(rEPhi) [mV]","im(rEPhi) [mV]","re(rETheta) [mV]","im(rETheta) [mV]"
0.8541,90,90,45,54.736,-7.29281688065709e-17,-3.10872169754094e-15,-4.24878166274755e-17,-1.7802604114805e-15
"Freq [GHz]","IWavePhi [deg]","IWaveTheta [deg]","Phi [deg]","Theta [deg]","re(rEPhi) [mV]","im(rEPhi) [mV]","re(rETheta) [mV]","im(rETheta) [mV]"
0.8541,90,90,135,54.736,7.20751656216499e-17,3.10391767649513e-15,-4.24445119169774e-17,-1.77664340930392e-15
"Freq [GHz]","IWavePhi [deg]","IWaveTheta [deg]","Phi [deg]","Theta [deg]","re(rEPhi) [mV]","im(rEPhi) [mV]","re(rETheta) [mV]","im(rETheta) [mV]"
0.8541,90,90,-45,54.736,4.33898988181591e-16,-3.12043690670438e-15,-2.6177141860577e-16,1.79091207261547e-15
"Freq [GHz]","IWavePhi [deg]","IWaveTheta [deg]","Phi [deg]","Theta [deg]","re(rEPhi) [mV]","im(rEPhi) [mV]","re(rETheta) [mV]","im(rETheta) [mV]"
0.8541,90,90,45,125.264,-7.35266821429703e-17,-3.10929715927059e-15,4.51982881611594e-17,1.78426179262572e-15
"Freq [GHz]","IWavePhi [deg]","IWaveTheta [deg]","Phi [deg]","Theta [deg]","re(rEPhi) [mV]","im(rEPhi) [mV]","re(rETheta) [mV]","im(rETheta) [mV]"
0.8541,90,90,-135,54.736,-4.28889679633988e-16,3.11922093132026e-15,-2.57532701360519e-16,1.79044170304105e-15
"Freq [GHz]","IWavePhi [deg]","IWaveTheta [deg]","Phi [deg]","Theta [deg]","re(rEPhi) [mV]","im(rEPhi) [mV]","re(rETheta) [mV]","im(rETheta) [mV]"
0.8541,90,90,-45,125.264,4.29823482033427e-16,-3.11259411970576e-15,2.59490372602151e-16,-1.78281832102956e-15
"Freq [GHz]","IWavePhi [deg]","IWaveTheta [deg]","Phi [deg]","Theta [deg]","re(rEPhi) [mV]","im(rEPhi) [mV]","re(rETheta) [mV]","im(rETheta) [mV]"
0.8541,90,90,135,125.264,7.94808613089841e-17,3.11102017183727e-15,4.74464229100431e-17,1.78478645027133e-15
"Freq [GHz]","IWavePhi [deg]","IWaveTheta [deg]","Phi [deg]","Theta [deg]","re(rEPhi) [mV]","im(rEPhi) [mV]","re(rETheta) [mV]","im(rETheta) [mV]"
0.8541,90,90,-135,125.264,-4.32596934087735e-16,3.11691508363451e-15,2.58608202330899e-16,-1.78620122002523e-15
"Freq [GHz]","IWavePhi [deg]","IWaveTheta [deg]","Phi [deg]","Theta [deg]","re(rEPhi) [mV]","im(rEPhi) [mV]","re(rETheta) [mV]","im(rETheta) [mV]"
0.8541,180,180,0,90,-5.70355664820109,88.3321440225087,-0.0156019293397413,-0.0999482135290434
"Freq [GHz]","IWavePhi [deg]","IWaveTheta [deg]","Phi [deg]","Theta [deg]","re(rEPhi) [mV]","im(rEPhi) [mV]","re(rETheta) [mV]","im(rETheta) [mV]"
0.8541,180,180,180,90,5.71697133316507,-88.2879211705032,0.0158290166995945,-0.132597272556846
"Freq [GHz]","IWavePhi [deg]","IWaveTheta [deg]","Phi [deg]","Theta [deg]","re(rEPhi) [mV]","im(rEPhi) [mV]","re(rETheta) [mV]","im(rETheta) [mV]"
0.8541,180,180,90,90,0.0300129088956773,0.023381745250557,11.5439673207615,0.637756545126116
"Freq [GHz]","IWavePhi [deg]","IWaveTheta [deg]","Phi [deg]","Theta [deg]","re(rEPhi) [mV]","im(rEPhi) [mV]","re(rETheta) [mV]","im(rETheta) [mV]"
0.8541,180,180,-90,90,0.0419046470381109,-0.0104787388255066,-11.5613292707135,-0.742614551621847
"Freq [GHz]","IWavePhi [deg]","IWaveTheta [deg]","Phi [deg]","Theta [deg]","re(rEPhi) [mV]","im(rEPhi) [mV]","re(rETheta) [mV]","im(rETheta) [mV]"
0.8541,180,180,0,0,4.27524107120348,79.7828502628083,-0.0116389827031866,-0.0438772754505306
"Freq [GHz]","IWavePhi [deg]","IWaveTheta [deg]","Phi [deg]","Theta [deg]","re(rEPhi) [mV]","im(rEPhi) [mV]","re(rETheta) [mV]","im(rETheta) [mV]"
0.8541,180,180,0,180,-13.4586693975934,76.9154883724482,0.000361720939786435,0.100832090490462
"Freq [GHz]","IWavePhi [deg]","IWaveTheta [deg]","Phi [deg]","Theta [deg]","re(rEPhi) [mV]","im(rEPhi) [mV]","re(rETheta) [mV]","im(rETheta) [mV]"
0.8541,180,180,45,54.736,-0.108539403271967,56.5983518404706,6.43872763545206,32.7682479660766
"Freq [GHz]","IWavePhi [deg]","IWaveTheta [deg]","Phi [deg]","Theta [deg]","re(rEPhi) [mV]","im(rEPhi) [mV]","re(rETheta) [mV]","im(rETheta) [mV]"
0.8541,180,180,135,54.736,0.124062098080467,-56.5155879777835,6.43471000623409,32.6924437797791
"Freq [GHz]","IWavePhi [deg]","IWaveTheta [deg]","Phi [deg]","Theta [deg]","re(rEPhi) [mV]","im(rEPhi) [mV]","re(rETheta) [mV]","im(rETheta) [mV]"
0.8541,180,180,-45,54.736,-0.0608838602301435,56.6574520879775,-6.40048976905687,-32.9298696014139
"Freq [GHz]","IWavePhi [deg]","IWaveTheta [deg]","Phi [deg]","Theta [deg]","re(rEPhi) [mV]","im(rEPhi) [mV]","re(rETheta) [mV]","im(rETheta) [mV]"
0.8541,180,180,45,125.264,-6.94510907965466,55.4638338216815,10.1452549510215,-31.4726131960863
"Freq [GHz]","IWavePhi [deg]","IWaveTheta [deg]","Phi [deg]","Theta [deg]","re(rEPhi) [mV]","im(rEPhi) [mV]","re(rETheta) [mV]","im(rETheta) [mV]"
0.8541,180,180,-135,54.736,-0.000733088508288095,-56.6085790595546,-6.47433704209987,-32.9007481853383
"Freq [GHz]","IWavePhi [deg]","IWaveTheta [deg]","Phi [deg]","Theta [deg]","re(rEPhi) [mV]","im(rEPhi) [mV]","re(rETheta) [mV]","im(rETheta) [mV]"
0.8541,180,180,-45,125.264,-6.85357406037176,55.3501619082573,-10.2058304602253,31.2785204116349
"Freq [GHz]","IWavePhi [deg]","IWaveTheta [deg]","Phi [deg]","Theta [deg]","re(rEPhi) [mV]","im(rEPhi) [mV]","re(rETheta) [mV]","im(rETheta) [mV]"
0.8541,180,180,135,125.264,6.86236136437903,-55.5245729976734,10.1351665487199,-31.4849497594601
"Freq [GHz]","IWavePhi [deg]","IWaveTheta [deg]","Phi [deg]","Theta [deg]","re(rEPhi) [mV]","im(rEPhi) [mV]","re(rETheta) [mV]","im(rETheta) [mV]"
0.8541,180,180,-135,125.264,6.90328397630942,-55.4443962510383,-10.189589501008,31.350645825043
"Freq [GHz]","IWavePhi [deg]","IWaveTheta [deg]","Phi [deg]","Theta [deg]","re(rEPhi) [mV]","im(rEPhi) [mV]","re(rETheta) [mV]","im(rETheta) [mV]"
0.8541,180,0,0,90,-5.60496698903801,88.3172530586895,-0.0377445748648623,-0.0484889631334063
"Freq [GHz]","IWavePhi [deg]","IWaveTheta [deg]","Phi [deg]","Theta [deg]","re(rEPhi) [mV]","im(rEPhi) [mV]","re(rETheta) [mV]","im(rETheta) [mV]"
0.8541,180,0,180,90,5.65482266153021,-88.3052096275206,-0.0153696060256144,-0.102544494607704
"Freq [GHz]","IWavePhi [deg]","IWaveTheta [deg]","Phi [deg]","Theta [deg]","re(rEPhi) [mV]","im(rEPhi) [mV]","re(rETheta) [mV]","im(rETheta) [mV]"
0.8541,180,0,90,90,0.033521891116814,0.0104563785400059,-11.5552780598625,-0.778042526370973
"Freq [GHz]","IWavePhi [deg]","IWaveTheta [deg]","Phi [deg]","Theta [deg]","re(rEPhi) [mV]","im(rEPhi) [mV]","re(rETheta) [mV]","im(rETheta) [mV]"
0.8541,180,0,-90,90,0.0443271120443266,-0.0195419625237945,11.5892743572072,0.676108838590268
"Freq [GHz]","IWavePhi [deg]","IWaveTheta [deg]","Phi [deg]","Theta [deg]","re(rEPhi) [mV]","im(rEPhi) [mV]","re(rETheta) [mV]","im(rETheta) [mV]"
0.8541,180,0,0,0,-13.3179751122348,76.9059460899418,-0.00532160820797724,-0.0590418382379646
"Freq [GHz]","IWavePhi [deg]","IWaveTheta [deg]","Phi [deg]","Theta [deg]","re(rEPhi) [mV]","im(rEPhi) [mV]","re(rETheta) [mV]","im(rETheta) [mV]"
0.8541,180,0,0,180,4.26191673672783,79.8193505503036,-0.00842252457163004,0.101666319384736
"Freq [GHz]","IWavePhi [deg]","IWaveTheta [deg]","Phi [deg]","Theta [deg]","re(rEPhi) [mV]","im(rEPhi) [mV]","re(rETheta) [mV]","im(rETheta) [mV]"
0.8541,180,0,45,54.736,-6.91480149344849,55.4486000801904,-10.1877611294195,31.3475126352912
"Freq [GHz]","IWavePhi [deg]","IWaveTheta [deg]","Phi [deg]","Theta [deg]","re(rEPhi) [mV]","im(rEPhi) [mV]","re(rETheta) [mV]","im(rETheta) [mV]"
0.8541,180,0,135,54.736,6.94320537204914,-55.4039784032339,-10.1953948645276,31.2946626025969
"Freq [GHz]","IWavePhi [deg]","IWaveTheta [deg]","Phi [deg]","Theta [deg]","re(rEPhi) [mV]","im(rEPhi) [mV]","re(rETheta) [mV]","im(rETheta) [mV]"
0.8541,180,0,-45,54.736,-6.87328261882898,55.5106928608932,10.2093687010337,-31.4675555253232
"Freq [GHz]","IWavePhi [deg]","IWaveTheta [deg]","Phi [deg]","Theta [deg]","re(rEPhi) [mV]","im(rEPhi) [mV]","re(rETheta) [mV]","im(rETheta) [mV]"
0.8541,180,0,45,125.264,-0.0399979886917586,56.6218045901738,-6.52624091795964,-32.9013746875814
"Freq [GHz]","IWavePhi [deg]","IWaveTheta [deg]","Phi [deg]","Theta [deg]","re(rEPhi) [mV]","im(rEPhi) [mV]","re(rETheta) [mV]","im(rETheta) [mV]"
0.8541,180,0,-135,54.736,6.78229971075832,-55.5052733522963,10.136008994765,-31.464266600374
