"Freq [GHz]","IWavePhi [deg]","IWaveTheta [deg]","Phi [deg]","Theta [deg]","re(rEPhi) [mV]","im(rEPhi) [mV]","re(rETheta) [mV]","im(rETheta) [mV]"
1.1388,180,90,0,90,28.2282067380047,75.7549639435104,-0.15807816947524,-0.0452345273506915
"Freq [GHz]","IWavePhi [deg]","IWaveTheta [deg]","Phi [deg]","Theta [deg]","re(rEPhi) [mV]","im(rEPhi) [mV]","re(rETheta) [mV]","im(rETheta) [mV]"
1.1388,180,90,180,90,-27.9237691732664,-75.6695565482908,-0.0373747230899798,-0.0437864164375649
"Freq [GHz]","IWavePhi [deg]","IWaveTheta [deg]","Phi [deg]","Theta [deg]","re(rEPhi) [mV]","im(rEPhi) [mV]","re(rETheta) [mV]","im(rETheta) [mV]"
1.1388,180,90,90,90,-0.0229694089593721,-0.0254800745492761,-0.0526309326337435,0.0166490789338013
"Freq [GHz]","IWavePhi [deg]","IWaveTheta [deg]","Phi [deg]","Theta [deg]","re(rEPhi) [mV]","im(rEPhi) [mV]","re(rETheta) [mV]","im(rETheta) [mV]"
1.1388,180,90,-90,90,-0.0508073736074212,0.0577878387587565,-0.0313849300175509,-0.0258248505179744
"Freq [GHz]","IWavePhi [deg]","IWaveTheta [deg]","Phi [deg]","Theta [deg]","re(rEPhi) [mV]","im(rEPhi) [mV]","re(rETheta) [mV]","im(rETheta) [mV]"
1.1388,180,90,0,0,21.4910246450437,61.5256112945628,-0.0836916083158837,0.161222410520778
"Freq [GHz]","IWavePhi [deg]","IWaveTheta [deg]","Phi [deg]","Theta [deg]","re(rEPhi) [mV]","im(rEPhi) [mV]","re(rETheta) [mV]","im(rETheta) [mV]"
1.1388,180,90,0,180,21.5161232619889,61.5001981697859,-0.0347453852028286,-0.17730795633475
"Freq [GHz]","IWavePhi [deg]","IWaveTheta [deg]","Phi [deg]","Theta [deg]","re(rEPhi) [mV]","im(rEPhi) [mV]","re(rETheta) [mV]","im(rETheta) [mV]"
1.1388,180,90,45,54.736,16.2775348713994,44.4600085964928,9.15481122469196,25.3810406532559
"Freq [GHz]","IWavePhi [deg]","IWaveTheta [deg]","Phi [deg]","Theta [deg]","re(rEPhi) [mV]","im(rEPhi) [mV]","re(rETheta) [mV]","im(rETheta) [mV]"
1.1388,180,90,135,54.736,-16.2864177341786,-44.3226798369563,8.95111504222746,25.4361977189329
"Freq [GHz]","IWavePhi [deg]","IWaveTheta [deg]","Phi [deg]","Theta [deg]","re(rEPhi) [mV]","im(rEPhi) [mV]","re(rETheta) [mV]","im(rETheta) [mV]"
1.1388,180,90,-45,54.736,16.1927948105287,44.5745498996693,-9.05042706974427,-25.6553083181257
"Freq [GHz]","IWavePhi [deg]","IWaveTheta [deg]","Phi [deg]","Theta [deg]","re(rEPhi) [mV]","im(rEPhi) [mV]","re(rETheta) [mV]","im(rETheta) [mV]"
1.1388,180,90,45,125.264,16.2274703687563,44.4519789070899,-9.26072974342491,-25.5722088390066
"Freq [GHz]","IWavePhi [deg]","IWaveTheta [deg]","Phi [deg]","Theta [deg]","re(rEPhi) [mV]","im(rEPhi) [mV]","re(rETheta) [mV]","im(rETheta) [mV]"
1.1388,180,90,-135,54.736,-16.4684601377429,-44.4684722687095,-9.14924121980922,-25.5505413903067
"Freq [GHz]","IWavePhi [deg]","IWaveTheta [deg]","Phi [deg]","Theta [deg]","re(rEPhi) [mV]","im(rEPhi) [mV]","re(rETheta) [mV]","im(rETheta) [mV]"
1.1388,180,90,-45,125.264,16.3717866373385,44.3395184091394,9.17907970821269,25.4370733471921
"Freq [GHz]","IWavePhi [deg]","IWaveTheta [deg]","Phi [deg]","Theta [deg]","re(rEPhi) [mV]","im(rEPhi) [mV]","re(rETheta) [mV]","im(rETheta) [mV]"
1.1388,180,90,135,125.264,-16.4724996452783,-44.6152899869987,-9.31525480804068,-25.6485810619357
"Freq [GHz]","IWavePhi [deg]","IWaveTheta [deg]","Phi [deg]","Theta [deg]","re(rEPhi) [mV]","im(rEPhi) [mV]","re(rETheta) [mV]","im(rETheta) [mV]"
1.1388,180,90,-135,125.264,-16.3599819747105,-44.5237238543247,9.01616794606889,25.3568436965777
"Freq [GHz]","IWavePhi [deg]","IWaveTheta [deg]","Phi [deg]","Theta [deg]","re(rEPhi) [mV]","im(rEPhi) [mV]","re(rETheta) [mV]","im(rETheta) [mV]"
1.1388,360,90,0,90,-28.2282067380048,-75.7549639435107,0.158078169487794,0.0452345273518056
"Freq [GHz]","IWavePhi [deg]","IWaveTheta [deg]","Phi [deg]","Theta [deg]","re(rEPhi) [mV]","im(rEPhi) [mV]","re(rETheta) [mV]","im(rETheta) [mV]"
1.1388,360,90,180,90,27.9237691732667,75.6695565482906,0.0373747230959842,0.04378641644147
"Freq [GHz]","IWavePhi [deg]","IWaveTheta [deg]","Phi [deg]","Theta [deg]","re(rEPhi) [mV]","im(rEPhi) [mV]","re(rETheta) [mV]","im(rETheta) [mV]"
1.1388,360,90,90,90,0.0229694089546218,0.0254800745689003,0.052630932627219,-0.0166490789251826
"Freq [GHz]","IWavePhi [deg]","IWaveTheta [deg]","Phi [deg]","Theta [deg]","re(rEPhi) [mV]","im(rEPhi) [mV]","re(rETheta) [mV]","im(rETheta) [mV]"
1.1388,360,90,-90,90,0.0508073736124775,-0.0577878387442055,0.0313849300202601,0.0258248505096999
"Freq [GHz]","IWavePhi [deg]","IWaveTheta [deg]","Phi [deg]","Theta [deg]","re(rEPhi) [mV]","im(rEPhi) [mV]","re(rETheta) [mV]","im(rETheta) [mV]"
1.1388,360,90,0,0,-21.4910246450434,-61.5256112945625,0.0836916083406691,-0.16122241050588
"Freq [GHz]","IWavePhi [deg]","IWaveTheta [deg]","Phi [deg]","Theta [deg]","re(rEPhi) [mV]","im(rEPhi) [mV]","re(rETheta) [mV]","im(rETheta) [mV]"
1.1388,360,90,0,180,-21.5161232619886,-61.5001981697859,0.0347453851736982,0.177307956349007
"Freq [GHz]","IWavePhi [deg]","IWaveTheta [deg]","Phi [deg]","Theta [deg]","re(rEPhi) [mV]","im(rEPhi) [mV]","re(rETheta) [mV]","im(rETheta) [mV]"
1.1388,360,90,45,54.736,-16.2775348713918,-44.460008596477,-9.15481122469348,-25.3810406532548
"Freq [GHz]","IWavePhi [deg]","IWaveTheta [deg]","Phi [deg]","Theta [deg]","re(rEPhi) [mV]","im(rEPhi) [mV]","re(rETheta) [mV]","im(rETheta) [mV]"
1.1388,360,90,135,54.736,16.2864177341695,44.3226798369486,-8.95111504223696,-25.4361977189443
"Freq [GHz]","IWavePhi [deg]","IWaveTheta [deg]","Phi [deg]","Theta [deg]","re(rEPhi) [mV]","im(rEPhi) [mV]","re(rETheta) [mV]","im(rETheta) [mV]"
1.1388,360,90,-45,54.736,-16.1927948105093,-44.5745498996587,9.05042706975037,25.6553083181335
"Freq [GHz]","IWavePhi [deg]","IWaveTheta [deg]","Phi [deg]","Theta [deg]","re(rEPhi) [mV]","im(rEPhi) [mV]","re(rETheta) [mV]","im(rETheta) [mV]"
1.1388,360,90,45,125.264,-16.2274703687336,-44.4519789070953,9.2607297434508,25.5722088389924
"Freq [GHz]","IWavePhi [deg]","IWaveTheta [deg]","Phi [deg]","Theta [deg]","re(rEPhi) [mV]","im(rEPhi) [mV]","re(rETheta) [mV]","im(rETheta) [mV]"
1.1388,360,90,-135,54.736,16.468460137724,44.4684722686935,9.14924121982757,25.550541390322
"Freq [GHz]","IWavePhi [deg]","IWaveTheta [deg]","Phi [deg]","Theta [deg]","re(rEPhi) [mV]","im(rEPhi) [mV]","re(rETheta) [mV]","im(rETheta) [mV]"
1.1388,360,90,-45,125.264,-16.3717866373282,-44.3395184091465,-9.17907970822108,-25.4370733471881
"Freq [GHz]","IWavePhi [deg]","IWaveTheta [deg]","Phi [deg]","Theta [deg]","re(rEPhi) [mV]","im(rEPhi) [mV]","re(rETheta) [mV]","im(rETheta) [mV]"
1.1388,360,90,135,125.264,16.4724996452599,44.6152899870005,9.31525480803868,25.648581061938
"Freq [GHz]","IWavePhi [deg]","IWaveTheta [deg]","Phi [deg]","Theta [deg]","re(rEPhi) [mV]","im(rEPhi) [mV]","re(rETheta) [mV]","im(rETheta) [mV]"
1.1388,360,90,-135,125.264,16.3599819747006,44.5237238543414,-9.01616794607329,-25.3568436965708
"Freq [GHz]","IWavePhi [deg]","IWaveTheta [deg]","Phi [deg]","Theta [deg]","re(rEPhi) [mV]","im(rEPhi) [mV]","re(rETheta) [mV]","im(rETheta) [mV]"
1.1388,270,90,0,90,3.66285949081876e-15,9.5402755231827e-15,-2.98267353302942e-17,1.01160015191891e-19
"Freq [GHz]","IWavePhi [deg]","IWaveTheta [deg]","Phi [deg]","Theta [deg]","re(rEPhi) [mV]","im(rEPhi) [mV]","re(rETheta) [mV]","im(rETheta) [mV]"
1.1388,270,90,180,90,-3.61717060886975e-15,-9.54680124522424e-15,-1.80104938664676e-17,-2.22492715513315e-18
"Freq [GHz]","IWavePhi [deg]","IWaveTheta [deg]","Phi [deg]","Theta [deg]","re(rEPhi) [mV]","im(rEPhi) [mV]","re(rETheta) [mV]","im(rETheta) [mV]"
1.1388,270,90,90,90,4.11849446422265e-18,-3.21214264609344e-18,3.31279116640312e-17,4.70668860234347e-18
"Freq [GHz]","IWavePhi [deg]","IWaveTheta [deg]","Phi [deg]","Theta [deg]","re(rEPhi) [mV]","im(rEPhi) [mV]","re(rETheta) [mV]","im(rETheta) [mV]"
1.1388,270,90,-90,90,-1.29575753890185e-17,2.1500216354288e-18,-2.82941201227848e-17,1.7070976356743e-17
"Freq [GHz]","IWavePhi [deg]","IWaveTheta [deg]","Phi [deg]","Theta [deg]","re(rEPhi) [mV]","im(rEPhi) [mV]","re(rETheta) [mV]","im(rETheta) [mV]"
1.1388,270,90,0,0,2.79021392788813e-15,7.76052814524553e-15,-8.96912168979585e-18,2.62425918137758e-17
"Freq [GHz]","IWavePhi [deg]","IWaveTheta [deg]","Phi [deg]","Theta [deg]","re(rEPhi) [mV]","im(rEPhi) [mV]","re(rETheta) [mV]","im(rETheta) [mV]"
1.1388,270,90,0,180,2.81972990729586e-15,7.73486954644643e-15,-6.29301191567999e-18,-1.45876741160348e-17
"Freq [GHz]","IWavePhi [deg]","IWaveTheta [deg]","Phi [deg]","Theta [deg]","re(rEPhi) [mV]","im(rEPhi) [mV]","re(rETheta) [mV]","im(rETheta) [mV]"
1.1388,270,90,45,54.736,-6.0199027371093e-16,5.8757438145414e-15,-4.02542001475118e-16,3.37568293115584e-15
"Freq [GHz]","IWavePhi [deg]","IWaveTheta [deg]","Phi [deg]","Theta [deg]","re(rEPhi) [mV]","im(rEPhi) [mV]","re(rETheta) [mV]","im(rETheta) [mV]"
1.1388,270,90,135,54.736,6.2092203164592e-16,-5.84717517058541e-15,-4.34019819955362e-16,3.38089144742824e-15
"Freq [GHz]","IWavePhi [deg]","IWaveTheta [deg]","Phi [deg]","Theta [deg]","re(rEPhi) [mV]","im(rEPhi) [mV]","re(rETheta) [mV]","im(rETheta) [mV]"
1.1388,270,90,-45,54.736,4.48561355060762e-15,5.3337644270448e-15,-2.60700840659748e-15,-3.04823553743732e-15
"Freq [GHz]","IWavePhi [deg]","IWaveTheta [deg]","Phi [deg]","Theta [deg]","re(rEPhi) [mV]","im(rEPhi) [mV]","re(rETheta) [mV]","im(rETheta) [mV]"
1.1388,270,90,45,125.264,-6.14511889166251e-16,5.87016127399732e-15,4.21712872032252e-16,-3.39339222916917e-15
"Freq [GHz]","IWavePhi [deg]","IWaveTheta [deg]","Phi [deg]","Theta [deg]","re(rEPhi) [mV]","im(rEPhi) [mV]","re(rETheta) [mV]","im(rETheta) [mV]"
1.1388,270,90,-135,54.736,-4.53528533419484e-15,-5.32216461302537e-15,-2.61913341079855e-15,-3.03393121678534e-15
"Freq [GHz]","IWavePhi [deg]","IWaveTheta [deg]","Phi [deg]","Theta [deg]","re(rEPhi) [mV]","im(rEPhi) [mV]","re(rETheta) [mV]","im(rETheta) [mV]"
1.1388,270,90,-45,125.264,4.52442422123295e-15,5.29772551052354e-15,2.58394696359712e-15,3.03071648536632e-15
"Freq [GHz]","IWavePhi [deg]","IWaveTheta [deg]","Phi [deg]","Theta [deg]","re(rEPhi) [mV]","im(rEPhi) [mV]","re(rETheta) [mV]","im(rETheta) [mV]"
1.1388,270,90,135,125.264,5.5273650300106e-16,-5.88577722248937e-15,3.97139226394463e-16,-3.39933649323828e-15
"Freq [GHz]","IWavePhi [deg]","IWaveTheta [deg]","Phi [deg]","Theta [deg]","re(rEPhi) [mV]","im(rEPhi) [mV]","re(rETheta) [mV]","im(rETheta) [mV]"
1.1388,270,90,-135,125.264,-4.53399584222129e-15,-5.3207799819208e-15,2.5767826703471e-15,3.030139323149e-15
"Freq [GHz]","IWavePhi [deg]","IWaveTheta [deg]","Phi [deg]","Theta [deg]","re(rEPhi) [mV]","im(rEPhi) [mV]","re(rETheta) [mV]","im(rETheta) [mV]"
1.1388,90,90,0,90,-1.21700644777651e-15,-3.18825655425598e-15,1.01645533663611e-17,4.78362960776941e-18
"Freq [GHz]","IWavePhi [deg]","IWaveTheta [deg]","Phi [deg]","Theta [deg]","re(rEPhi) [mV]","im(rEPhi) [mV]","re(rETheta) [mV]","im(rETheta) [mV]"
1.1388,90,90,180,90,1.20283233353242e-15,3.17551132002474e-15,5.30519690012246e-18,3.05821222817775e-18
"Freq [GHz]","IWavePhi [deg]","IWaveTheta [deg]","Phi [deg]","Theta [deg]","re(rEPhi) [mV]","im(rEPhi) [mV]","re(rETheta) [mV]","im(rETheta) [mV]"
1.1388,90,90,90,90,2.56393427107569e-18,1.0441277550404e-18,1.19356654972318e-17,-4.08757402361607e-18
"Freq [GHz]","IWavePhi [deg]","IWaveTheta [deg]","Phi [deg]","Theta [deg]","re(rEPhi) [mV]","im(rEPhi) [mV]","re(rETheta) [mV]","im(rETheta) [mV]"
1.1388,90,90,-90,90,-1.84871994209052e-18,-2.17780082795837e-18,-1.85760013783216e-18,1.39755022783944e-18
"Freq [GHz]","IWavePhi [deg]","IWaveTheta [deg]","Phi [deg]","Theta [deg]","re(rEPhi) [mV]","im(rEPhi) [mV]","re(rETheta) [mV]","im(rETheta) [mV]"
1.1388,90,90,0,0,-9.27757191074489e-16,-2.57837075883036e-15,3.49161025980205e-18,-2.5888428453415e-18
"Freq [GHz]","IWavePhi [deg]","IWaveTheta [deg]","Phi [deg]","Theta [deg]","re(rEPhi) [mV]","im(rEPhi) [mV]","re(rETheta) [mV]","im(rETheta) [mV]"
1.1388,90,90,0,180,-9.19017612564729e-16,-2.57745359909888e-15,-2.12219781359583e-18,7.08983563233624e-18
"Freq [GHz]","IWavePhi [deg]","IWaveTheta [deg]","Phi [deg]","Theta [deg]","re(rEPhi) [mV]","im(rEPhi) [mV]","re(rETheta) [mV]","im(rETheta) [mV]"
1.1388,90,90,45,54.736,-1.50815408597974e-15,-1.77359434645114e-15,-8.61476367269014e-16,-1.010499781027e-15
"Freq [GHz]","IWavePhi [deg]","IWaveTheta [deg]","Phi [deg]","Theta [deg]","re(rEPhi) [mV]","im(rEPhi) [mV]","re(rETheta) [mV]","im(rETheta) [mV]"
1.1388,90,90,135,54.736,1.50922461026601e-15,1.76779881636114e-15,-8.55609003505941e-16,-1.00924628398476e-15
"Freq [GHz]","IWavePhi [deg]","IWaveTheta [deg]","Phi [deg]","Theta [deg]","re(rEPhi) [mV]","im(rEPhi) [mV]","re(rETheta) [mV]","im(rETheta) [mV]"
1.1388,90,90,-45,54.736,2.18958722938553e-16,-1.96138138072441e-15,-1.54272604828709e-16,1.13439841346356e-15
"Freq [GHz]","IWavePhi [deg]","IWaveTheta [deg]","Phi [deg]","Theta [deg]","re(rEPhi) [mV]","im(rEPhi) [mV]","re(rETheta) [mV]","im(rETheta) [mV]"
1.1388,90,90,45,125.264,-1.50214840071926e-15,-1.77288438027939e-15,8.80186647270584e-16,1.01411637009104e-15
"Freq [GHz]","IWavePhi [deg]","IWaveTheta [deg]","Phi [deg]","Theta [deg]","re(rEPhi) [mV]","im(rEPhi) [mV]","re(rETheta) [mV]","im(rETheta) [mV]"
1.1388,90,90,-135,54.736,-1.98182629343134e-16,1.95551373118435e-15,-1.43479362051205e-16,1.12940591787849e-15
"Freq [GHz]","IWavePhi [deg]","IWaveTheta [deg]","Phi [deg]","Theta [deg]","re(rEPhi) [mV]","im(rEPhi) [mV]","re(rETheta) [mV]","im(rETheta) [mV]"
1.1388,90,90,-45,125.264,2.05663428855658e-16,-1.94981433240565e-15,1.43110824641627e-16,-1.12453777755507e-15
"Freq [GHz]","IWavePhi [deg]","IWaveTheta [deg]","Phi [deg]","Theta [deg]","re(rEPhi) [mV]","im(rEPhi) [mV]","re(rETheta) [mV]","im(rETheta) [mV]"
1.1388,90,90,135,125.264,1.51754012323142e-15,1.78590933090639e-15,8.84534326238889e-16,1.02127240252329e-15
"Freq [GHz]","IWavePhi [deg]","IWaveTheta [deg]","Phi [deg]","Theta [deg]","re(rEPhi) [mV]","im(rEPhi) [mV]","re(rETheta) [mV]","im(rETheta) [mV]"
1.1388,90,90,-135,125.264,-2.15300864194303e-16,1.96052571001621e-15,1.52463206534313e-16,-1.12118307960325e-15
"Freq [GHz]","IWavePhi [deg]","IWaveTheta [deg]","Phi [deg]","Theta [deg]","re(rEPhi) [mV]","im(rEPhi) [mV]","re(rETheta) [mV]","im(rETheta) [mV]"
1.1388,180,180,0,90,21.5290327149282,61.5774438311362,-0.132306732802164,-0.00637059081610621
"Freq [GHz]","IWavePhi [deg]","IWaveTheta [deg]","Phi [deg]","Theta [deg]","re(rEPhi) [mV]","im(rEPhi) [mV]","re(rETheta) [mV]","im(rETheta) [mV]"
1.1388,180,180,180,90,-21.289778684055,-61.4962942258611,-0.0399961241736534,-0.0853443502041766
"Freq [GHz]","IWavePhi [deg]","IWaveTheta [deg]","Phi [deg]","Theta [deg]","re(rEPhi) [mV]","im(rEPhi) [mV]","re(rETheta) [mV]","im(rETheta) [mV]"
1.1388,180,180,90,90,-0.00025362299361182,0.00864050432957745,20.1242270539779,-0.201744976643926
"Freq [GHz]","IWavePhi [deg]","IWaveTheta [deg]","Phi [deg]","Theta [deg]","re(rEPhi) [mV]","im(rEPhi) [mV]","re(rETheta) [mV]","im(rETheta) [mV]"
1.1388,180,180,-90,90,-0.0447485709329593,0.0512849284439172,-20.2361853582053,0.167216687302536
"Freq [GHz]","IWavePhi [deg]","IWaveTheta [deg]","Phi [deg]","Theta [deg]","re(rEPhi) [mV]","im(rEPhi) [mV]","re(rETheta) [mV]","im(rETheta) [mV]"
1.1388,180,180,0,0,29.6324395998102,55.1559424387932,-0.0546020944099027,0.121431034154139
"Freq [GHz]","IWavePhi [deg]","IWaveTheta [deg]","Phi [deg]","Theta [deg]","re(rEPhi) [mV]","im(rEPhi) [mV]","re(rETheta) [mV]","im(rETheta) [mV]"
1.1388,180,180,0,180,7.6067511107945,44.6640050120218,-0.0177002564390877,-0.162072808537535
"Freq [GHz]","IWavePhi [deg]","IWaveTheta [deg]","Phi [deg]","Theta [deg]","re(rEPhi) [mV]","im(rEPhi) [mV]","re(rETheta) [mV]","im(rETheta) [mV]"
1.1388,180,180,45,54.736,16.8877174759536,38.0814289238958,22.7656702509475,21.7099129768494
"Freq [GHz]","IWavePhi [deg]","IWaveTheta [deg]","Phi [deg]","Theta [deg]","re(rEPhi) [mV]","im(rEPhi) [mV]","re(rETheta) [mV]","im(rETheta) [mV]"
1.1388,180,180,135,54.736,-16.9901902618807,-38.0363336233936,22.7007186450432,21.7920060486733
"Freq [GHz]","IWavePhi [deg]","IWaveTheta [deg]","Phi [deg]","Theta [deg]","re(rEPhi) [mV]","im(rEPhi) [mV]","re(rETheta) [mV]","im(rETheta) [mV]"
1.1388,180,180,-45,54.736,16.7930616414157,38.1345347022683,-22.6355409027514,-21.9017850261811
"Freq [GHz]","IWavePhi [deg]","IWaveTheta [deg]","Phi [deg]","Theta [deg]","re(rEPhi) [mV]","im(rEPhi) [mV]","re(rETheta) [mV]","im(rETheta) [mV]"
1.1388,180,180,45,125.264,8.79625976339281,34.1160597761467,6.98060053432754,-19.685850840108
"Freq [GHz]","IWavePhi [deg]","IWaveTheta [deg]","Phi [deg]","Theta [deg]","re(rEPhi) [mV]","im(rEPhi) [mV]","re(rETheta) [mV]","im(rETheta) [mV]"
1.1388,180,180,-135,54.736,-17.0786233488633,-38.1509906688875,-22.7822819364421,-21.8169218270735
"Freq [GHz]","IWavePhi [deg]","IWaveTheta [deg]","Phi [deg]","Theta [deg]","re(rEPhi) [mV]","im(rEPhi) [mV]","re(rETheta) [mV]","im(rETheta) [mV]"
1.1388,180,180,-45,125.264,8.87068170005453,34.0391430952919,-7.06075495641068,19.6119869604566
"Freq [GHz]","IWavePhi [deg]","IWaveTheta [deg]","Phi [deg]","Theta [deg]","re(rEPhi) [mV]","im(rEPhi) [mV]","re(rETheta) [mV]","im(rETheta) [mV]"
1.1388,180,180,135,125.264,-9.04685450916379,-34.1484157783237,6.85937645278942,-19.5828577041656
"Freq [GHz]","IWavePhi [deg]","IWaveTheta [deg]","Phi [deg]","Theta [deg]","re(rEPhi) [mV]","im(rEPhi) [mV]","re(rETheta) [mV]","im(rETheta) [mV]"
1.1388,180,180,-135,125.264,-8.94410547502497,-34.1084206071205,-7.10116355264194,19.4953774420552
"Freq [GHz]","IWavePhi [deg]","IWaveTheta [deg]","Phi [deg]","Theta [deg]","re(rEPhi) [mV]","im(rEPhi) [mV]","re(rETheta) [mV]","im(rETheta) [mV]"
1.1388,180,0,0,90,21.3907187464967,61.4315038194854,-0.0415649955679554,-0.0257471907566094
"Freq [GHz]","IWavePhi [deg]","IWaveTheta [deg]","Phi [deg]","Theta [deg]","re(rEPhi) [mV]","im(rEPhi) [mV]","re(rETheta) [mV]","im(rETheta) [mV]"
1.1388,180,0,180,90,-21.3989571296765,-61.3407794111971,0.0399742003512446,0.0664325531805714
"Freq [GHz]","IWavePhi [deg]","IWaveTheta [deg]","Phi [deg]","Theta [deg]","re(rEPhi) [mV]","im(rEPhi) [mV]","re(rETheta) [mV]","im(rETheta) [mV]"
1.1388,180,0,90,90,0.00443060145429502,-0.0509266429166791,-20.1622106013323,0.274774430766047
"Freq [GHz]","IWavePhi [deg]","IWaveTheta [deg]","Phi [deg]","Theta [deg]","re(rEPhi) [mV]","im(rEPhi) [mV]","re(rETheta) [mV]","im(rETheta) [mV]"
1.1388,180,0,-90,90,-0.0425034093799015,0.0561601358932767,20.2105077031466,-0.146697593341964
"Freq [GHz]","IWavePhi [deg]","IWaveTheta [deg]","Phi [deg]","Theta [deg]","re(rEPhi) [mV]","im(rEPhi) [mV]","re(rETheta) [mV]","im(rETheta) [mV]"
1.1388,180,0,0,0,7.68820232540686,44.6294626220248,-0.0837611050221734,0.106899955134827
"Freq [GHz]","IWavePhi [deg]","IWaveTheta [deg]","Phi [deg]","Theta [deg]","re(rEPhi) [mV]","im(rEPhi) [mV]","re(rETheta) [mV]","im(rETheta) [mV]"
1.1388,180,0,0,180,29.6111240966492,55.0639864417251,-0.0156944986344579,-0.0997829632050095
"Freq [GHz]","IWavePhi [deg]","IWaveTheta [deg]","Phi [deg]","Theta [deg]","re(rEPhi) [mV]","im(rEPhi) [mV]","re(rETheta) [mV]","im(rETheta) [mV]"
1.1388,180,0,45,54.736,8.89987531205898,34.1028946102607,-6.96174313982672,19.5445211153126
"Freq [GHz]","IWavePhi [deg]","IWaveTheta [deg]","Phi [deg]","Theta [deg]","re(rEPhi) [mV]","im(rEPhi) [mV]","re(rETheta) [mV]","im(rETheta) [mV]"
1.1388,180,0,135,54.736,-8.88409702278095,-33.9188181542911,-7.12885208436025,19.5130540120816
"Freq [GHz]","IWavePhi [deg]","IWaveTheta [deg]","Phi [deg]","Theta [deg]","re(rEPhi) [mV]","im(rEPhi) [mV]","re(rETheta) [mV]","im(rETheta) [mV]"
1.1388,180,0,-45,54.736,8.76141285050028,34.108311024788,7.14679801900159,-19.583331917545
"Freq [GHz]","IWavePhi [deg]","IWaveTheta [deg]","Phi [deg]","Theta [deg]","re(rEPhi) [mV]","im(rEPhi) [mV]","re(rETheta) [mV]","im(rETheta) [mV]"
1.1388,180,0,45,125.264,16.9722818680058,38.1024365337329,-22.89853531716,-21.7822224652768
"Freq [GHz]","IWavePhi [deg]","IWaveTheta [deg]","Phi [deg]","Theta [deg]","re(rEPhi) [mV]","im(rEPhi) [mV]","re(rETheta) [mV]","im(rETheta) [mV]"
1.1388,180,0,-135,54.736,-8.95357419817118,-34.1298309805922,7.15139933047128,-19.6159946722975
