"Freq [GHz]","IWavePhi [deg]","IWaveTheta [deg]","Phi [deg]","Theta [deg]","re(rEPhi) [mV]","im(rEPhi) [mV]","re(rETheta) [mV]","im(rETheta) [mV]"
1.0676,180,90,0,90,25.8239204945498,79.963263823814,-0.0124462721534207,-0.0276511894040106
"Freq [GHz]","IWavePhi [deg]","IWaveTheta [deg]","Phi [deg]","Theta [deg]","re(rEPhi) [mV]","im(rEPhi) [mV]","re(rETheta) [mV]","im(rETheta) [mV]"
1.0676,180,90,180,90,-25.8343074848384,-79.9405563238714,0.0051501537237377,-0.0337129227097834
"Freq [GHz]","IWavePhi [deg]","IWaveTheta [deg]","Phi [deg]","Theta [deg]","re(rEPhi) [mV]","im(rEPhi) [mV]","re(rETheta) [mV]","im(rETheta) [mV]"
1.0676,180,90,90,90,-0.0113412691288471,-0.0113202652711215,-0.0377239835616812,0.00087869856969168
"Freq [GHz]","IWavePhi [deg]","IWaveTheta [deg]","Phi [deg]","Theta [deg]","re(rEPhi) [mV]","im(rEPhi) [mV]","re(rETheta) [mV]","im(rETheta) [mV]"
1.0676,180,90,-90,90,0.000414428916321225,0.0152313064618369,0.0197010220379049,-0.0143491148516094
"Freq [GHz]","IWavePhi [deg]","IWaveTheta [deg]","Phi [deg]","Theta [deg]","re(rEPhi) [mV]","im(rEPhi) [mV]","re(rETheta) [mV]","im(rETheta) [mV]"
1.0676,180,90,0,0,20.5309986648184,66.6717044176839,0.00086388279259799,-0.0120389273270029
"Freq [GHz]","IWavePhi [deg]","IWaveTheta [deg]","Phi [deg]","Theta [deg]","re(rEPhi) [mV]","im(rEPhi) [mV]","re(rETheta) [mV]","im(rETheta) [mV]"
1.0676,180,90,0,180,20.5610795020846,66.7142040960437,0.0121562337028264,-0.00828734712640944
"Freq [GHz]","IWavePhi [deg]","IWaveTheta [deg]","Phi [deg]","Theta [deg]","re(rEPhi) [mV]","im(rEPhi) [mV]","re(rETheta) [mV]","im(rETheta) [mV]"
1.0676,180,90,0,90,-25.8239204945497,-79.963263823814,0.0124462721541694,0.0276511894043824
"Freq [GHz]","IWavePhi [deg]","IWaveTheta [deg]","Phi [deg]","Theta [deg]","re(rEPhi) [mV]","im(rEPhi) [mV]","re(rETheta) [mV]","im(rETheta) [mV]"
1.0676,180,90,180,90,25.8343074848385,79.9405563238714,-0.00515015372298596,0.033712922710149
"Freq [GHz]","IWavePhi [deg]","IWaveTheta [deg]","Phi [deg]","Theta [deg]","re(rEPhi) [mV]","im(rEPhi) [mV]","re(rETheta) [mV]","im(rETheta) [mV]"
1.0676,180,90,90,90,0.0113412691289549,0.0113202652711084,0.0377239835615125,-0.00087869856916924
"Freq [GHz]","IWavePhi [deg]","IWaveTheta [deg]","Phi [deg]","Theta [deg]","re(rEPhi) [mV]","im(rEPhi) [mV]","re(rETheta) [mV]","im(rETheta) [mV]"
1.0676,180,90,-90,90,-0.000414428916213504,-0.0152313064618237,-0.019701022039078,0.0143491148514609
"Freq [GHz]","IWavePhi [deg]","IWaveTheta [deg]","Phi [deg]","Theta [deg]","re(rEPhi) [mV]","im(rEPhi) [mV]","re(rETheta) [mV]","im(rETheta) [mV]"
1.0676,180,90,0,0,-20.5309986648184,-66.6717044176839,-0.00086388279259799,0.0120389273270174
"Freq [GHz]","IWavePhi [deg]","IWaveTheta [deg]","Phi [deg]","Theta [deg]","re(rEPhi) [mV]","im(rEPhi) [mV]","re(rETheta) [mV]","im(rETheta) [mV]"
1.0676,180,90,0,180,-20.5610795020846,-66.7142040960437,-0.0121562337028264,0.00828734712639477
"Freq [GHz]","IWavePhi [deg]","IWaveTheta [deg]","Phi [deg]","Theta [deg]","re(rEPhi) [mV]","im(rEPhi) [mV]","re(rETheta) [mV]","im(rETheta) [mV]"
1.0676,180,90,0,90,2.33899617183e-15,7.04196636973126e-15,-3.36969759065825e-15,1.2693161767325e-15
"Freq [GHz]","IWavePhi [deg]","IWaveTheta [deg]","Phi [deg]","Theta [deg]","re(rEPhi) [mV]","im(rEPhi) [mV]","re(rETheta) [mV]","im(rETheta) [mV]"
1.0676,180,90,180,90,-2.33897961158313e-15,-7.0387758711407e-15,-3.36969961507157e-15,1.26776407691696e-15
"Freq [GHz]","IWavePhi [deg]","IWaveTheta [deg]","Phi [deg]","Theta [deg]","re(rEPhi) [mV]","im(rEPhi) [mV]","re(rETheta) [mV]","im(rETheta) [mV]"
1.0676,180,90,90,90,-1.67019031603149e-19,-1.64706953192523e-18,-2.01593782603708e-15,8.47844384540559e-16
"Freq [GHz]","IWavePhi [deg]","IWaveTheta [deg]","Phi [deg]","Theta [deg]","re(rEPhi) [mV]","im(rEPhi) [mV]","re(rETheta) [mV]","im(rETheta) [mV]"
1.0676,180,90,-90,90,2.657867304012e-19,1.14531536337817e-18,4.06742247120082e-16,2.58985091031168e-16
"Freq [GHz]","IWavePhi [deg]","IWaveTheta [deg]","Phi [deg]","Theta [deg]","re(rEPhi) [mV]","im(rEPhi) [mV]","re(rETheta) [mV]","im(rETheta) [mV]"
1.0676,180,90,0,0,4.6844848634095e-15,5.94424407938583e-15,4.58566929565177e-19,-1.2529746014368e-18
"Freq [GHz]","IWavePhi [deg]","IWaveTheta [deg]","Phi [deg]","Theta [deg]","re(rEPhi) [mV]","im(rEPhi) [mV]","re(rETheta) [mV]","im(rETheta) [mV]"
1.0676,180,90,0,180,-9.48979538604211e-16,5.79953448744683e-15,6.70398518717354e-19,-3.41952328330713e-19
"Freq [GHz]","IWavePhi [deg]","IWaveTheta [deg]","Phi [deg]","Theta [deg]","re(rEPhi) [mV]","im(rEPhi) [mV]","re(rETheta) [mV]","im(rETheta) [mV]"
1.0676,180,90,0,90,4.75518656170629e-18,-1.34021054392199e-18,3.3731699646332e-15,-1.25894861797476e-15
"Freq [GHz]","IWavePhi [deg]","IWaveTheta [deg]","Phi [deg]","Theta [deg]","re(rEPhi) [mV]","im(rEPhi) [mV]","re(rETheta) [mV]","im(rETheta) [mV]"
1.0676,180,90,180,90,-4.46162303645573e-18,2.08588051463277e-18,3.37527760261402e-15,-1.25924614097811e-15
"Freq [GHz]","IWavePhi [deg]","IWaveTheta [deg]","Phi [deg]","Theta [deg]","re(rEPhi) [mV]","im(rEPhi) [mV]","re(rETheta) [mV]","im(rETheta) [mV]"
1.0676,180,90,90,90,5.20662736656453e-19,1.43018190013161e-18,-4.0117531009655e-16,-2.47041153543134e-16
"Freq [GHz]","IWavePhi [deg]","IWaveTheta [deg]","Phi [deg]","Theta [deg]","re(rEPhi) [mV]","im(rEPhi) [mV]","re(rETheta) [mV]","im(rETheta) [mV]"
1.0676,180,90,-90,90,-3.99549361027984e-19,-7.43610560218792e-19,2.01446742256724e-15,-8.47778374045134e-16
"Freq [GHz]","IWavePhi [deg]","IWaveTheta [deg]","Phi [deg]","Theta [deg]","re(rEPhi) [mV]","im(rEPhi) [mV]","re(rETheta) [mV]","im(rETheta) [mV]"
1.0676,180,90,0,0,2.82125019302601e-15,7.24911903362429e-17,-3.84790445109001e-19,2.69839660548999e-20
"Freq [GHz]","IWavePhi [deg]","IWaveTheta [deg]","Phi [deg]","Theta [deg]","re(rEPhi) [mV]","im(rEPhi) [mV]","re(rETheta) [mV]","im(rETheta) [mV]"
1.0676,180,90,0,180,-2.81424659599812e-15,-7.76696523741033e-17,3.18660834070362e-19,-1.81464613896662e-19
"Freq [GHz]","IWavePhi [deg]","IWaveTheta [deg]","Phi [deg]","Theta [deg]","re(rEPhi) [mV]","im(rEPhi) [mV]","re(rETheta) [mV]","im(rETheta) [mV]"
1.0676,180,90,0,90,20.5358011329723,66.5981814834974,-0.0103520877610418,-0.029392680284979
"Freq [GHz]","IWavePhi [deg]","IWaveTheta [deg]","Phi [deg]","Theta [deg]","re(rEPhi) [mV]","im(rEPhi) [mV]","re(rETheta) [mV]","im(rETheta) [mV]"
1.0676,180,90,180,90,-20.5435139118351,-66.5727413805488,-0.00431008054886003,-0.0235834626633117
"Freq [GHz]","IWavePhi [deg]","IWaveTheta [deg]","Phi [deg]","Theta [deg]","re(rEPhi) [mV]","im(rEPhi) [mV]","re(rETheta) [mV]","im(rETheta) [mV]"
1.0676,180,90,90,90,-0.0084848523065577,-0.00686943411136221,17.4891600912931,0.460100046857647
"Freq [GHz]","IWavePhi [deg]","IWaveTheta [deg]","Phi [deg]","Theta [deg]","re(rEPhi) [mV]","im(rEPhi) [mV]","re(rETheta) [mV]","im(rETheta) [mV]"
1.0676,180,90,-90,90,0.000380604136018268,0.0124246790467674,-17.508331656306,-0.479382786407771
"Freq [GHz]","IWavePhi [deg]","IWaveTheta [deg]","Phi [deg]","Theta [deg]","re(rEPhi) [mV]","im(rEPhi) [mV]","re(rETheta) [mV]","im(rETheta) [mV]"
1.0676,180,90,0,0,28.7580198232515,59.3155504802059,0.00128046743706724,-0.00673874355741719
"Freq [GHz]","IWavePhi [deg]","IWaveTheta [deg]","Phi [deg]","Theta [deg]","re(rEPhi) [mV]","im(rEPhi) [mV]","re(rETheta) [mV]","im(rETheta) [mV]"
1.0676,180,90,0,180,7.45414002997483,51.7801714561849,0.00875693945280243,-0.00871414640857084
"Freq [GHz]","IWavePhi [deg]","IWaveTheta [deg]","Phi [deg]","Theta [deg]","re(rEPhi) [mV]","im(rEPhi) [mV]","re(rETheta) [mV]","im(rETheta) [mV]"
1.0676,180,90,0,90,20.5513249337107,66.5889218912531,-0.0110695393545332,-0.0168292355739926
"Freq [GHz]","IWavePhi [deg]","IWaveTheta [deg]","Phi [deg]","Theta [deg]","re(rEPhi) [mV]","im(rEPhi) [mV]","re(rETheta) [mV]","im(rETheta) [mV]"
1.0676,180,90,180,90,-20.5608226781899,-66.5758188003983,0.0122613589828487,-0.0332377334325055
"Freq [GHz]","IWavePhi [deg]","IWaveTheta [deg]","Phi [deg]","Theta [deg]","re(rEPhi) [mV]","im(rEPhi) [mV]","re(rETheta) [mV]","im(rETheta) [mV]"
1.0676,180,90,90,90,-0.0103003776779639,-0.0121473085124123,-17.5516073838589,-0.457793935371816
"Freq [GHz]","IWavePhi [deg]","IWaveTheta [deg]","Phi [deg]","Theta [deg]","re(rEPhi) [mV]","im(rEPhi) [mV]","re(rETheta) [mV]","im(rETheta) [mV]"
1.0676,180,90,-90,90,0.000235196039266885,0.0134275111049184,17.5417615967022,0.45439040954281
"Freq [GHz]","IWavePhi [deg]","IWaveTheta [deg]","Phi [deg]","Theta [deg]","re(rEPhi) [mV]","im(rEPhi) [mV]","re(rETheta) [mV]","im(rETheta) [mV]"
1.0676,180,90,0,0,7.44449777763101,51.7547146072013,2.29025704826215e-05,-0.0133356119578385
"Freq [GHz]","IWavePhi [deg]","IWaveTheta [deg]","Phi [deg]","Theta [deg]","re(rEPhi) [mV]","im(rEPhi) [mV]","re(rETheta) [mV]","im(rETheta) [mV]"
1.0676,180,90,0,180,28.7982931448078,59.3611494410645,0.0117272993778798,-0.0046730711274301
"Freq [GHz]","IWavePhi [deg]","IWaveTheta [deg]","Phi [deg]","Theta [deg]","re(rEPhi) [mV]","im(rEPhi) [mV]","re(rETheta) [mV]","im(rETheta) [mV]"
1.0676,180,90,0,90,0.0103338231678813,0.0197516769082528,41.8580404246466,-18.9820368038966
"Freq [GHz]","IWavePhi [deg]","IWaveTheta [deg]","Phi [deg]","Theta [deg]","re(rEPhi) [mV]","im(rEPhi) [mV]","re(rETheta) [mV]","im(rETheta) [mV]"
1.0676,180,90,180,90,-0.00954649923737113,-0.0208184757132197,41.8881367089249,-18.965883000657
"Freq [GHz]","IWavePhi [deg]","IWaveTheta [deg]","Phi [deg]","Theta [deg]","re(rEPhi) [mV]","im(rEPhi) [mV]","re(rETheta) [mV]","im(rETheta) [mV]"
1.0676,180,90,90,90,0.0018546675402554,0.0148876588432607,21.063058427889,-7.82124357722203
"Freq [GHz]","IWavePhi [deg]","IWaveTheta [deg]","Phi [deg]","Theta [deg]","re(rEPhi) [mV]","im(rEPhi) [mV]","re(rETheta) [mV]","im(rETheta) [mV]"
1.0676,180,90,-90,90,-0.00824574224908182,-0.00611882678311369,21.0169264728116,-7.90838327835784
"Freq [GHz]","IWavePhi [deg]","IWaveTheta [deg]","Phi [deg]","Theta [deg]","re(rEPhi) [mV]","im(rEPhi) [mV]","re(rETheta) [mV]","im(rETheta) [mV]"
1.0676,180,90,0,0,0.00476395839824442,0.00286880351525638,-0.00451515777794125,0.00373452834155585
"Freq [GHz]","IWavePhi [deg]","IWaveTheta [deg]","Phi [deg]","Theta [deg]","re(rEPhi) [mV]","im(rEPhi) [mV]","re(rETheta) [mV]","im(rETheta) [mV]"
1.0676,180,90,0,180,0.0228883073263547,0.0211276410407037,0.00139105999782178,-0.00254858813565711
"Freq [GHz]","IWavePhi [deg]","IWaveTheta [deg]","Phi [deg]","Theta [deg]","re(rEPhi) [mV]","im(rEPhi) [mV]","re(rETheta) [mV]","im(rETheta) [mV]"
1.0676,180,90,0,90,0.0103338231678812,0.0197516769082666,41.8580404246466,-18.9820368038966
"Freq [GHz]","IWavePhi [deg]","IWaveTheta [deg]","Phi [deg]","Theta [deg]","re(rEPhi) [mV]","im(rEPhi) [mV]","re(rETheta) [mV]","im(rETheta) [mV]"
1.0676,180,90,180,90,-0.00954649923737096,-0.020818475713206,41.8881367089249,-18.965883000657
"Freq [GHz]","IWavePhi [deg]","IWaveTheta [deg]","Phi [deg]","Theta [deg]","re(rEPhi) [mV]","im(rEPhi) [mV]","re(rETheta) [mV]","im(rETheta) [mV]"
1.0676,180,90,90,90,0.00185466754738176,0.0148876588432438,21.063058427889,-7.82124357722203
"Freq [GHz]","IWavePhi [deg]","IWaveTheta [deg]","Phi [deg]","Theta [deg]","re(rEPhi) [mV]","im(rEPhi) [mV]","re(rETheta) [mV]","im(rETheta) [mV]"
1.0676,180,90,-90,90,-0.00824574225620804,-0.00611882678313019,21.0169264728116,-7.90838327835784
"Freq [GHz]","IWavePhi [deg]","IWaveTheta [deg]","Phi [deg]","Theta [deg]","re(rEPhi) [mV]","im(rEPhi) [mV]","re(rETheta) [mV]","im(rETheta) [mV]"
1.0676,180,90,0,0,0.00476395839824452,0.00286880351525648,-0.00451515778465435,0.00373452833916629
"Freq [GHz]","IWavePhi [deg]","IWaveTheta [deg]","Phi [deg]","Theta [deg]","re(rEPhi) [mV]","im(rEPhi) [mV]","re(rETheta) [mV]","im(rETheta) [mV]"
1.0676,180,90,0,180,0.0228883073263549,0.0211276410407036,0.00139106000453526,-0.00254858813804648
"Freq [GHz]","IWavePhi [deg]","IWaveTheta [deg]","Phi [deg]","Theta [deg]","re(rEPhi) [mV]","im(rEPhi) [mV]","re(rETheta) [mV]","im(rETheta) [mV]"
1.0676,180,90,0,90,-0.0192482635122582,0.0193898813698364,20.9489171026044,-7.89229580612894
"Freq [GHz]","IWavePhi [deg]","IWaveTheta [deg]","Phi [deg]","Theta [deg]","re(rEPhi) [mV]","im(rEPhi) [mV]","re(rETheta) [mV]","im(rETheta) [mV]"
1.0676,180,90,180,90,0.0162274129873192,-0.024330775829904,20.9552527489755,-7.88320911219268
"Freq [GHz]","IWavePhi [deg]","IWaveTheta [deg]","Phi [deg]","Theta [deg]","re(rEPhi) [mV]","im(rEPhi) [mV]","re(rETheta) [mV]","im(rETheta) [mV]"
1.0676,180,90,90,90,-0.00204920524838255,0.00472506588284152,12.5309973948395,-5.26553464465207
"Freq [GHz]","IWavePhi [deg]","IWaveTheta [deg]","Phi [deg]","Theta [deg]","re(rEPhi) [mV]","im(rEPhi) [mV]","re(rETheta) [mV]","im(rETheta) [mV]"
1.0676,180,90,-90,90,-0.00446570007817079,-0.00059197560440824,-2.52505136474465,-1.61409298194294
"Freq [GHz]","IWavePhi [deg]","IWaveTheta [deg]","Phi [deg]","Theta [deg]","re(rEPhi) [mV]","im(rEPhi) [mV]","re(rETheta) [mV]","im(rETheta) [mV]"
1.0676,180,90,0,0,-17.5436162912003,-0.440534947195915,-0.00179248129402411,0.00334787277804693
"Freq [GHz]","IWavePhi [deg]","IWaveTheta [deg]","Phi [deg]","Theta [deg]","re(rEPhi) [mV]","im(rEPhi) [mV]","re(rETheta) [mV]","im(rETheta) [mV]"
1.0676,180,90,0,180,17.5203225518196,0.481957546522538,0.000309652711062032,6.51867093504227e-05
"Freq [GHz]","IWavePhi [deg]","IWaveTheta [deg]","Phi [deg]","Theta [deg]","re(rEPhi) [mV]","im(rEPhi) [mV]","re(rETheta) [mV]","im(rETheta) [mV]"
1.0676,180,90,0,90,0.0295698081602325,-0.00833403774970283,20.9758252160372,-7.82868531337332
"Freq [GHz]","IWavePhi [deg]","IWaveTheta [deg]","Phi [deg]","Theta [deg]","re(rEPhi) [mV]","im(rEPhi) [mV]","re(rETheta) [mV]","im(rETheta) [mV]"
1.0676,180,90,180,90,-0.0277442896056194,0.0129709004610317,20.9889314313377,-7.83053548769287
"Freq [GHz]","IWavePhi [deg]","IWaveTheta [deg]","Phi [deg]","Theta [deg]","re(rEPhi) [mV]","im(rEPhi) [mV]","re(rETheta) [mV]","im(rETheta) [mV]"
1.0676,180,90,90,90,0.00323768119752144,0.00889348130600789,-2.49468098165951,-1.53620838798884
"Freq [GHz]","IWavePhi [deg]","IWaveTheta [deg]","Phi [deg]","Theta [deg]","re(rEPhi) [mV]","im(rEPhi) [mV]","re(rETheta) [mV]","im(rETheta) [mV]"
1.0676,180,90,-90,90,-0.00248457967572239,-0.0046240840632507,12.5268269691817,-5.27185147228775
"Freq [GHz]","IWavePhi [deg]","IWaveTheta [deg]","Phi [deg]","Theta [deg]","re(rEPhi) [mV]","im(rEPhi) [mV]","re(rETheta) [mV]","im(rETheta) [mV]"
1.0676,180,90,0,0,17.5437500959309,0.450781484588763,-0.00239278070766771,0.000167829115174724
"Freq [GHz]","IWavePhi [deg]","IWaveTheta [deg]","Phi [deg]","Theta [deg]","re(rEPhi) [mV]","im(rEPhi) [mV]","re(rETheta) [mV]","im(rETheta) [mV]"
1.0676,180,90,0,180,-17.5001987598752,-0.482983431782859,0.00198158222423173,-0.0011284433998503
"Freq [GHz]","IWavePhi [deg]","IWaveTheta [deg]","Phi [deg]","Theta [deg]","re(rEPhi) [mV]","im(rEPhi) [mV]","re(rETheta) [mV]","im(rETheta) [mV]"
1.0676,180,90,0,90,1.25679630370741e-15,4.07742276526376e-15,-1.47120430827459e-15,6.65054113668955e-16
"Freq [GHz]","IWavePhi [deg]","IWaveTheta [deg]","Phi [deg]","Theta [deg]","re(rEPhi) [mV]","im(rEPhi) [mV]","re(rETheta) [mV]","im(rETheta) [mV]"
1.0676,180,90,180,90,-1.25728426237692e-15,-4.07581246621577e-15,-1.47190765667511e-15,6.64852452597022e-16
"Freq [GHz]","IWavePhi [deg]","IWaveTheta [deg]","Phi [deg]","Theta [deg]","re(rEPhi) [mV]","im(rEPhi) [mV]","re(rETheta) [mV]","im(rETheta) [mV]"
1.0676,180,90,90,90,-5.82926119383719e-19,-9.43843281715844e-19,3.31436512089099e-16,3.03045956366753e-16
"Freq [GHz]","IWavePhi [deg]","IWaveTheta [deg]","Phi [deg]","Theta [deg]","re(rEPhi) [mV]","im(rEPhi) [mV]","re(rETheta) [mV]","im(rETheta) [mV]"
1.0676,180,90,-90,90,3.07151580022876e-19,9.40858397457465e-19,-1.80972767069363e-15,2.48456072699438e-16
"Freq [GHz]","IWavePhi [deg]","IWaveTheta [deg]","Phi [deg]","Theta [deg]","re(rEPhi) [mV]","im(rEPhi) [mV]","re(rETheta) [mV]","im(rETheta) [mV]"
1.0676,180,90,0,0,1.76053867198115e-15,3.63203638561732e-15,2.13453230481149e-19,-5.42620491477008e-19
"Freq [GHz]","IWavePhi [deg]","IWaveTheta [deg]","Phi [deg]","Theta [deg]","re(rEPhi) [mV]","im(rEPhi) [mV]","re(rETheta) [mV]","im(rETheta) [mV]"
1.0676,180,90,0,180,4.5532341779778e-16,3.17003454345499e-15,5.04228894269752e-19,-4.34150032043961e-19
"Freq [GHz]","IWavePhi [deg]","IWaveTheta [deg]","Phi [deg]","Theta [deg]","re(rEPhi) [mV]","im(rEPhi) [mV]","re(rETheta) [mV]","im(rETheta) [mV]"
1.0676,180,90,0,90,-1.2581600485428e-15,-4.0739572896159e-15,6.16695549099123e-15,-2.79701084830848e-15
"Freq [GHz]","IWavePhi [deg]","IWaveTheta [deg]","Phi [deg]","Theta [deg]","re(rEPhi) [mV]","im(rEPhi) [mV]","re(rETheta) [mV]","im(rETheta) [mV]"
1.0676,180,90,180,90,1.25890943461232e-15,4.07305943172106e-15,6.16989723475841e-15,-2.79358456444738e-15
"Freq [GHz]","IWavePhi [deg]","IWaveTheta [deg]","Phi [deg]","Theta [deg]","re(rEPhi) [mV]","im(rEPhi) [mV]","re(rETheta) [mV]","im(rETheta) [mV]"
1.0676,180,90,90,90,9.1079821718877e-19,2.94010921614101e-18,4.17474231617109e-15,-1.12489285793079e-15
"Freq [GHz]","IWavePhi [deg]","IWaveTheta [deg]","Phi [deg]","Theta [deg]","re(rEPhi) [mV]","im(rEPhi) [mV]","re(rETheta) [mV]","im(rETheta) [mV]"
1.0676,180,90,-90,90,-1.25538066333952e-18,-1.87156557648415e-18,2.0199587923481e-15,-1.19320041501524e-15
"Freq [GHz]","IWavePhi [deg]","IWaveTheta [deg]","Phi [deg]","Theta [deg]","re(rEPhi) [mV]","im(rEPhi) [mV]","re(rETheta) [mV]","im(rETheta) [mV]"
1.0676,180,90,0,0,-4.56024680298071e-16,-3.16813852773822e-15,-7.66072669254965e-19,1.37254758907453e-18
"Freq [GHz]","IWavePhi [deg]","IWaveTheta [deg]","Phi [deg]","Theta [deg]","re(rEPhi) [mV]","im(rEPhi) [mV]","re(rETheta) [mV]","im(rETheta) [mV]"
1.0676,180,90,0,180,-1.76138989079147e-15,-3.63130752340163e-15,-4.42005492518212e-19,-4.91043845338784e-20
