"Freq [GHz]","IWavePhi [deg]","IWaveTheta [deg]","Phi [deg]","Theta [deg]","re(rEPhi) [mV]","im(rEPhi) [mV]","re(rETheta) [mV]","im(rETheta) [mV]"
0.6406,180,90,0,90,-55.4520906797904,32.9630639657599,-0.0175566445360662,0.0079442999483852
"Freq [GHz]","IWavePhi [deg]","IWaveTheta [deg]","Phi [deg]","Theta [deg]","re(rEPhi) [mV]","im(rEPhi) [mV]","re(rETheta) [mV]","im(rETheta) [mV]"
0.6406,180,90,180,90,55.4576178176753,-32.967622420524,-0.00210532005345707,0.00245869134293266
"Freq [GHz]","IWavePhi [deg]","IWaveTheta [deg]","Phi [deg]","Theta [deg]","re(rEPhi) [mV]","im(rEPhi) [mV]","re(rETheta) [mV]","im(rETheta) [mV]"
0.6406,180,90,90,90,0.013172418117488,-0.000561529212031192,0.00580122867281068,-0.00500900928038915
"Freq [GHz]","IWavePhi [deg]","IWaveTheta [deg]","Phi [deg]","Theta [deg]","re(rEPhi) [mV]","im(rEPhi) [mV]","re(rETheta) [mV]","im(rETheta) [mV]"
0.6406,180,90,-90,90,0.00686943452454927,-0.00846570919179043,-0.0267538280755474,0.00390244322207979
"Freq [GHz]","IWavePhi [deg]","IWaveTheta [deg]","Phi [deg]","Theta [deg]","re(rEPhi) [mV]","im(rEPhi) [mV]","re(rETheta) [mV]","im(rETheta) [mV]"
0.6406,180,90,0,0,-52.0558026089473,30.8452379955033,0.000577712472391501,0.0148796974298888
"Freq [GHz]","IWavePhi [deg]","IWaveTheta [deg]","Phi [deg]","Theta [deg]","re(rEPhi) [mV]","im(rEPhi) [mV]","re(rETheta) [mV]","im(rETheta) [mV]"
0.6406,180,90,0,180,-52.0799128736329,30.8479093350078,-0.0101316093570364,-0.00916286234387287
"Freq [GHz]","IWavePhi [deg]","IWaveTheta [deg]","Phi [deg]","Theta [deg]","re(rEPhi) [mV]","im(rEPhi) [mV]","re(rETheta) [mV]","im(rETheta) [mV]"
0.6406,180,90,45,54.736,-36.8773752684569,21.8886272626249,-21.2247127096766,12.600679203009
"Freq [GHz]","IWavePhi [deg]","IWaveTheta [deg]","Phi [deg]","Theta [deg]","re(rEPhi) [mV]","im(rEPhi) [mV]","re(rETheta) [mV]","im(rETheta) [mV]"
0.6406,180,90,135,54.736,36.8832032464047,-21.9332616685563,-21.2342197154744,12.6129015226291
"Freq [GHz]","IWavePhi [deg]","IWaveTheta [deg]","Phi [deg]","Theta [deg]","re(rEPhi) [mV]","im(rEPhi) [mV]","re(rETheta) [mV]","im(rETheta) [mV]"
0.6406,180,90,-45,54.736,-36.8951605523952,21.9140213767684,21.215545206085,-12.5801491673735
"Freq [GHz]","IWavePhi [deg]","IWaveTheta [deg]","Phi [deg]","Theta [deg]","re(rEPhi) [mV]","im(rEPhi) [mV]","re(rETheta) [mV]","im(rETheta) [mV]"
0.6406,180,90,45,125.264,-36.8900837266593,21.9206322910703,21.230813522693,-12.5980185481414
"Freq [GHz]","IWavePhi [deg]","IWaveTheta [deg]","Phi [deg]","Theta [deg]","re(rEPhi) [mV]","im(rEPhi) [mV]","re(rETheta) [mV]","im(rETheta) [mV]"
0.6406,180,90,-135,54.736,36.8958262783165,-21.9270925156785,21.2131060401251,-12.6018526865363
"Freq [GHz]","IWavePhi [deg]","IWaveTheta [deg]","Phi [deg]","Theta [deg]","re(rEPhi) [mV]","im(rEPhi) [mV]","re(rETheta) [mV]","im(rETheta) [mV]"
0.6406,180,90,-45,125.264,-36.8931084092007,21.9329572220988,-21.2203089955392,12.5920746061389
"Freq [GHz]","IWavePhi [deg]","IWaveTheta [deg]","Phi [deg]","Theta [deg]","re(rEPhi) [mV]","im(rEPhi) [mV]","re(rETheta) [mV]","im(rETheta) [mV]"
0.6406,180,90,135,125.264,36.905831610676,-21.9119351556172,21.2417816203103,-12.5891317745149
"Freq [GHz]","IWavePhi [deg]","IWaveTheta [deg]","Phi [deg]","Theta [deg]","re(rEPhi) [mV]","im(rEPhi) [mV]","re(rETheta) [mV]","im(rETheta) [mV]"
0.6406,180,90,-135,125.264,36.9355144992978,-21.9201199433404,-21.2408335678295,12.5979427943284
"Freq [GHz]","IWavePhi [deg]","IWaveTheta [deg]","Phi [deg]","Theta [deg]","re(rEPhi) [mV]","im(rEPhi) [mV]","re(rETheta) [mV]","im(rETheta) [mV]"
0.6406,180,90,0,90,55.4520906797904,-32.9630639657599,0.0175566445501683,-0.0079442999428533
"Freq [GHz]","IWavePhi [deg]","IWaveTheta [deg]","Phi [deg]","Theta [deg]","re(rEPhi) [mV]","im(rEPhi) [mV]","re(rETheta) [mV]","im(rETheta) [mV]"
0.6406,180,90,180,90,-55.4576178176753,32.967622420524,0.00210532003827377,-0.00245869133580436
"Freq [GHz]","IWavePhi [deg]","IWaveTheta [deg]","Phi [deg]","Theta [deg]","re(rEPhi) [mV]","im(rEPhi) [mV]","re(rETheta) [mV]","im(rETheta) [mV]"
0.6406,180,90,90,90,-0.0131724181180549,0.000561529211911417,-0.00580122867549902,0.00500900927886253
"Freq [GHz]","IWavePhi [deg]","IWaveTheta [deg]","Phi [deg]","Theta [deg]","re(rEPhi) [mV]","im(rEPhi) [mV]","re(rETheta) [mV]","im(rETheta) [mV]"
0.6406,180,90,-90,90,-0.00686943452398237,0.00846570919167078,0.0267538280763497,-0.00390244322320734
"Freq [GHz]","IWavePhi [deg]","IWaveTheta [deg]","Phi [deg]","Theta [deg]","re(rEPhi) [mV]","im(rEPhi) [mV]","re(rETheta) [mV]","im(rETheta) [mV]"
0.6406,180,90,0,0,52.0558026089454,-30.8452379955045,-0.000577712458550974,-0.0148796974208887
"Freq [GHz]","IWavePhi [deg]","IWaveTheta [deg]","Phi [deg]","Theta [deg]","re(rEPhi) [mV]","im(rEPhi) [mV]","re(rETheta) [mV]","im(rETheta) [mV]"
0.6406,180,90,0,180,52.0799128736347,-30.8479093350091,0.010131609369771,0.00916286233521876
"Freq [GHz]","IWavePhi [deg]","IWaveTheta [deg]","Phi [deg]","Theta [deg]","re(rEPhi) [mV]","im(rEPhi) [mV]","re(rETheta) [mV]","im(rETheta) [mV]"
0.6406,180,90,45,54.736,36.8773752684632,-21.8886272626214,21.2247127096674,-12.6006792030131
"Freq [GHz]","IWavePhi [deg]","IWaveTheta [deg]","Phi [deg]","Theta [deg]","re(rEPhi) [mV]","im(rEPhi) [mV]","re(rETheta) [mV]","im(rETheta) [mV]"
0.6406,180,90,135,54.736,-36.8832032464017,21.9332616685606,21.2342197154813,-12.6129015226195
"Freq [GHz]","IWavePhi [deg]","IWaveTheta [deg]","Phi [deg]","Theta [deg]","re(rEPhi) [mV]","im(rEPhi) [mV]","re(rETheta) [mV]","im(rETheta) [mV]"
0.6406,180,90,-45,54.736,36.8951605523896,-21.9140213767665,-21.2155452060971,12.5801491673767
"Freq [GHz]","IWavePhi [deg]","IWaveTheta [deg]","Phi [deg]","Theta [deg]","re(rEPhi) [mV]","im(rEPhi) [mV]","re(rETheta) [mV]","im(rETheta) [mV]"
0.6406,180,90,45,125.264,36.8900837266524,-21.9206322910688,-21.2308135227015,12.5980185481431
"Freq [GHz]","IWavePhi [deg]","IWaveTheta [deg]","Phi [deg]","Theta [deg]","re(rEPhi) [mV]","im(rEPhi) [mV]","re(rETheta) [mV]","im(rETheta) [mV]"
0.6406,180,90,-135,54.736,-36.8958262783241,21.9270925156768,-21.2131060401146,12.6018526865387
"Freq [GHz]","IWavePhi [deg]","IWaveTheta [deg]","Phi [deg]","Theta [deg]","re(rEPhi) [mV]","im(rEPhi) [mV]","re(rETheta) [mV]","im(rETheta) [mV]"
0.6406,180,90,-45,125.264,36.8931084092042,-21.9329572221038,21.2203089955314,-12.5920746061275
"Freq [GHz]","IWavePhi [deg]","IWaveTheta [deg]","Phi [deg]","Theta [deg]","re(rEPhi) [mV]","im(rEPhi) [mV]","re(rETheta) [mV]","im(rETheta) [mV]"
0.6406,180,90,135,125.264,-36.9058316106812,21.911935155616,-21.2417816202978,12.589131774519
"Freq [GHz]","IWavePhi [deg]","IWaveTheta [deg]","Phi [deg]","Theta [deg]","re(rEPhi) [mV]","im(rEPhi) [mV]","re(rETheta) [mV]","im(rETheta) [mV]"
0.6406,180,90,-135,125.264,-36.9355144992908,21.9201199433373,21.2408335678377,-12.597942794333
"Freq [GHz]","IWavePhi [deg]","IWaveTheta [deg]","Phi [deg]","Theta [deg]","re(rEPhi) [mV]","im(rEPhi) [mV]","re(rETheta) [mV]","im(rETheta) [mV]"
0.6406,180,90,0,90,-9.02131047279999e-15,5.36599403724384e-15,-2.81722377271353e-18,9.03185735348972e-19
"Freq [GHz]","IWavePhi [deg]","IWaveTheta [deg]","Phi [deg]","Theta [deg]","re(rEPhi) [mV]","im(rEPhi) [mV]","re(rETheta) [mV]","im(rETheta) [mV]"
0.6406,180,90,180,90,9.02220209350147e-15,-5.36673577371835e-15,-3.55820526339022e-19,8.5379981929325e-20
"Freq [GHz]","IWavePhi [deg]","IWaveTheta [deg]","Phi [deg]","Theta [deg]","re(rEPhi) [mV]","im(rEPhi) [mV]","re(rETheta) [mV]","im(rETheta) [mV]"
0.6406,180,90,90,90,2.0656198404962e-18,-3.29407996152315e-20,8.84264006457747e-19,-1.14151685785361e-18
"Freq [GHz]","IWavePhi [deg]","IWaveTheta [deg]","Phi [deg]","Theta [deg]","re(rEPhi) [mV]","im(rEPhi) [mV]","re(rETheta) [mV]","im(rETheta) [mV]"
0.6406,180,90,-90,90,1.11832375681361e-18,-1.40993711827399e-18,-4.26332715153834e-18,3.59311581413138e-19
"Freq [GHz]","IWavePhi [deg]","IWaveTheta [deg]","Phi [deg]","Theta [deg]","re(rEPhi) [mV]","im(rEPhi) [mV]","re(rETheta) [mV]","im(rETheta) [mV]"
0.6406,180,90,0,0,-8.46814936450304e-15,5.0213374167804e-15,5.24103760382723e-20,2.37634830883558e-18
"Freq [GHz]","IWavePhi [deg]","IWaveTheta [deg]","Phi [deg]","Theta [deg]","re(rEPhi) [mV]","im(rEPhi) [mV]","re(rETheta) [mV]","im(rETheta) [mV]"
0.6406,180,90,0,180,-8.47238995794153e-15,5.0218800445392e-15,-1.71901592145666e-18,-1.37591551476553e-18
"Freq [GHz]","IWavePhi [deg]","IWaveTheta [deg]","Phi [deg]","Theta [deg]","re(rEPhi) [mV]","im(rEPhi) [mV]","re(rETheta) [mV]","im(rETheta) [mV]"
0.6406,180,90,45,54.736,-6.2406660650243e-15,3.56544102086241e-15,-3.59597782714674e-15,2.0523531531923e-15
"Freq [GHz]","IWavePhi [deg]","IWaveTheta [deg]","Phi [deg]","Theta [deg]","re(rEPhi) [mV]","im(rEPhi) [mV]","re(rETheta) [mV]","im(rETheta) [mV]"
0.6406,180,90,135,54.736,6.24158928580381e-15,-3.57262306738898e-15,-3.59750305934087e-15,2.05419454984618e-15
"Freq [GHz]","IWavePhi [deg]","IWaveTheta [deg]","Phi [deg]","Theta [deg]","re(rEPhi) [mV]","im(rEPhi) [mV]","re(rETheta) [mV]","im(rETheta) [mV]"
0.6406,180,90,-45,54.736,-5.77108962015137e-15,3.56528432000691e-15,3.31467280860638e-15,-2.04688910068919e-15
"Freq [GHz]","IWavePhi [deg]","IWaveTheta [deg]","Phi [deg]","Theta [deg]","re(rEPhi) [mV]","im(rEPhi) [mV]","re(rETheta) [mV]","im(rETheta) [mV]"
0.6406,180,90,45,125.264,-6.24278795888682e-15,3.57050688539209e-15,3.59684154906193e-15,-2.05246670093791e-15
"Freq [GHz]","IWavePhi [deg]","IWaveTheta [deg]","Phi [deg]","Theta [deg]","re(rEPhi) [mV]","im(rEPhi) [mV]","re(rETheta) [mV]","im(rETheta) [mV]"
0.6406,180,90,-135,54.736,5.77120810916666e-15,-3.56732955591076e-15,3.31436152587109e-15,-2.05039634469447e-15
"Freq [GHz]","IWavePhi [deg]","IWaveTheta [deg]","Phi [deg]","Theta [deg]","re(rEPhi) [mV]","im(rEPhi) [mV]","re(rETheta) [mV]","im(rETheta) [mV]"
0.6406,180,90,-45,125.264,-5.77095220021609e-15,3.56833261488621e-15,-3.31566951205875e-15,2.04818198378471e-15
"Freq [GHz]","IWavePhi [deg]","IWaveTheta [deg]","Phi [deg]","Theta [deg]","re(rEPhi) [mV]","im(rEPhi) [mV]","re(rETheta) [mV]","im(rETheta) [mV]"
0.6406,180,90,135,125.264,6.245434834883e-15,-3.56919283057516e-15,3.59868310776819e-15,-2.05105931098576e-15
"Freq [GHz]","IWavePhi [deg]","IWaveTheta [deg]","Phi [deg]","Theta [deg]","re(rEPhi) [mV]","im(rEPhi) [mV]","re(rETheta) [mV]","im(rETheta) [mV]"
0.6406,180,90,-135,125.264,5.77765283871309e-15,-3.56625118685214e-15,-3.31887756436196e-15,2.04923632731631e-15
"Freq [GHz]","IWavePhi [deg]","IWaveTheta [deg]","Phi [deg]","Theta [deg]","re(rEPhi) [mV]","im(rEPhi) [mV]","re(rETheta) [mV]","im(rETheta) [mV]"
0.6406,180,90,0,90,3.00732697356555e-15,-1.78830991820133e-15,9.61792562042003e-19,-5.61010296358846e-19
"Freq [GHz]","IWavePhi [deg]","IWaveTheta [deg]","Phi [deg]","Theta [deg]","re(rEPhi) [mV]","im(rEPhi) [mV]","re(rETheta) [mV]","im(rETheta) [mV]"
0.6406,180,90,180,90,-3.00762961420277e-15,1.78855705440473e-15,1.04536927927497e-19,-2.38152991104184e-19
"Freq [GHz]","IWavePhi [deg]","IWaveTheta [deg]","Phi [deg]","Theta [deg]","re(rEPhi) [mV]","im(rEPhi) [mV]","re(rETheta) [mV]","im(rETheta) [mV]"
0.6406,180,90,90,90,-7.41618001079803e-19,5.04383770765843e-20,-3.36154204787874e-19,1.91004492405556e-19
"Freq [GHz]","IWavePhi [deg]","IWaveTheta [deg]","Phi [deg]","Theta [deg]","re(rEPhi) [mV]","im(rEPhi) [mV]","re(rETheta) [mV]","im(rETheta) [mV]"
0.6406,180,90,-90,90,-3.73100863225264e-19,4.48829043522655e-19,1.48178201647466e-18,-3.31428226913595e-19
"Freq [GHz]","IWavePhi [deg]","IWaveTheta [deg]","Phi [deg]","Theta [deg]","re(rEPhi) [mV]","im(rEPhi) [mV]","re(rETheta) [mV]","im(rETheta) [mV]"
0.6406,180,90,0,0,2.82310723434609e-15,-1.67339726492898e-15,-4.53453836013163e-20,-8.24107264334108e-19
"Freq [GHz]","IWavePhi [deg]","IWaveTheta [deg]","Phi [deg]","Theta [deg]","re(rEPhi) [mV]","im(rEPhi) [mV]","re(rETheta) [mV]","im(rETheta) [mV]"
0.6406,180,90,0,180,2.82430982160502e-15,-1.67347503256723e-15,5.26964351806385e-19,5.3595349631563e-19
"Freq [GHz]","IWavePhi [deg]","IWaveTheta [deg]","Phi [deg]","Theta [deg]","re(rEPhi) [mV]","im(rEPhi) [mV]","re(rETheta) [mV]","im(rETheta) [mV]"
0.6406,180,90,45,54.736,1.922909791343e-15,-1.18676127615885e-15,1.10549356230061e-15,-6.83230686790225e-16
"Freq [GHz]","IWavePhi [deg]","IWaveTheta [deg]","Phi [deg]","Theta [deg]","re(rEPhi) [mV]","im(rEPhi) [mV]","re(rETheta) [mV]","im(rETheta) [mV]"
0.6406,180,90,135,54.736,-1.92323353128016e-15,1.18921215475638e-15,1.10601698572826e-15,-6.83943134667711e-16
"Freq [GHz]","IWavePhi [deg]","IWaveTheta [deg]","Phi [deg]","Theta [deg]","re(rEPhi) [mV]","im(rEPhi) [mV]","re(rETheta) [mV]","im(rETheta) [mV]"
0.6406,180,90,-45,54.736,2.08136816993681e-15,-1.18955539133326e-15,-1.19827494998032e-15,6.82813686345901e-16
"Freq [GHz]","IWavePhi [deg]","IWaveTheta [deg]","Phi [deg]","Theta [deg]","re(rEPhi) [mV]","im(rEPhi) [mV]","re(rETheta) [mV]","im(rETheta) [mV]"
0.6406,180,90,45,125.264,1.92358338425078e-15,-1.18853580489141e-15,-1.10587505197e-15,6.82925760620076e-16
"Freq [GHz]","IWavePhi [deg]","IWaveTheta [deg]","Phi [deg]","Theta [deg]","re(rEPhi) [mV]","im(rEPhi) [mV]","re(rETheta) [mV]","im(rETheta) [mV]"
0.6406,180,90,-135,54.736,-2.0814003866236e-15,1.19029263607097e-15,-1.19811247121278e-15,6.84001472472721e-16
"Freq [GHz]","IWavePhi [deg]","IWaveTheta [deg]","Phi [deg]","Theta [deg]","re(rEPhi) [mV]","im(rEPhi) [mV]","re(rETheta) [mV]","im(rETheta) [mV]"
0.6406,180,90,-45,125.264,2.08118871634267e-15,-1.1905823629859e-15,1.19845076173247e-15,-6.83697308468764e-16
"Freq [GHz]","IWavePhi [deg]","IWaveTheta [deg]","Phi [deg]","Theta [deg]","re(rEPhi) [mV]","im(rEPhi) [mV]","re(rETheta) [mV]","im(rETheta) [mV]"
0.6406,180,90,135,125.264,-1.92441128280557e-15,1.1880295244377e-15,-1.10645293793132e-15,6.82430835935071e-16
"Freq [GHz]","IWavePhi [deg]","IWaveTheta [deg]","Phi [deg]","Theta [deg]","re(rEPhi) [mV]","im(rEPhi) [mV]","re(rETheta) [mV]","im(rETheta) [mV]"
0.6406,180,90,-135,125.264,-2.08355855803733e-15,1.18988325713495e-15,1.19960953175478e-15,-6.83983412681798e-16
"Freq [GHz]","IWavePhi [deg]","IWaveTheta [deg]","Phi [deg]","Theta [deg]","re(rEPhi) [mV]","im(rEPhi) [mV]","re(rETheta) [mV]","im(rETheta) [mV]"
0.6406,180,90,0,90,-52.0588013052,30.8578059385973,-0.0171197503164169,0.0100336665767966
"Freq [GHz]","IWavePhi [deg]","IWaveTheta [deg]","Phi [deg]","Theta [deg]","re(rEPhi) [mV]","im(rEPhi) [mV]","re(rETheta) [mV]","im(rETheta) [mV]"
0.6406,180,90,180,90,52.0629307574022,-30.8635285223506,-0.00208364216377756,0.00490490111146796
"Freq [GHz]","IWavePhi [deg]","IWaveTheta [deg]","Phi [deg]","Theta [deg]","re(rEPhi) [mV]","im(rEPhi) [mV]","re(rETheta) [mV]","im(rETheta) [mV]"
0.6406,180,90,90,90,0.013105381429224,-0.000110606854239076,6.65420447046816,0.248030818217557
"Freq [GHz]","IWavePhi [deg]","IWaveTheta [deg]","Phi [deg]","Theta [deg]","re(rEPhi) [mV]","im(rEPhi) [mV]","re(rETheta) [mV]","im(rETheta) [mV]"
0.6406,180,90,-90,90,0.00624841137468533,-0.0078681296812643,-6.67371711942455,-0.252732232358006
"Freq [GHz]","IWavePhi [deg]","IWaveTheta [deg]","Phi [deg]","Theta [deg]","re(rEPhi) [mV]","im(rEPhi) [mV]","re(rETheta) [mV]","im(rETheta) [mV]"
0.6406,180,90,0,0,-42.7234450336051,29.2311566901651,0.000433967577433631,0.0135164552836912
"Freq [GHz]","IWavePhi [deg]","IWaveTheta [deg]","Phi [deg]","Theta [deg]","re(rEPhi) [mV]","im(rEPhi) [mV]","re(rETheta) [mV]","im(rETheta) [mV]"
0.6406,180,90,0,180,-54.5135669423769,28.5259075762885,-0.00972596275276947,-0.00839109946903859
"Freq [GHz]","IWavePhi [deg]","IWaveTheta [deg]","Phi [deg]","Theta [deg]","re(rEPhi) [mV]","im(rEPhi) [mV]","re(rETheta) [mV]","im(rETheta) [mV]"
0.6406,180,90,45,54.736,-32.2129200092952,20.6327096954586,-15.0705699003937,12.0095639046347
"Freq [GHz]","IWavePhi [deg]","IWaveTheta [deg]","Phi [deg]","Theta [deg]","re(rEPhi) [mV]","im(rEPhi) [mV]","re(rETheta) [mV]","im(rETheta) [mV]"
0.6406,180,90,135,54.736,32.2185038802755,-20.677492899314,-15.0848669408686,12.0217614916629
"Freq [GHz]","IWavePhi [deg]","IWaveTheta [deg]","Phi [deg]","Theta [deg]","re(rEPhi) [mV]","im(rEPhi) [mV]","re(rETheta) [mV]","im(rETheta) [mV]"
0.6406,180,90,-45,54.736,-32.2289163945728,20.6564565971004,15.0635663472261,-11.9891633842811
"Freq [GHz]","IWavePhi [deg]","IWaveTheta [deg]","Phi [deg]","Theta [deg]","re(rEPhi) [mV]","im(rEPhi) [mV]","re(rETheta) [mV]","im(rETheta) [mV]"
0.6406,180,90,45,125.264,-36.9192017133549,20.3780441499947,24.5731310782318,-11.5795632601102
"Freq [GHz]","IWavePhi [deg]","IWaveTheta [deg]","Phi [deg]","Theta [deg]","re(rEPhi) [mV]","im(rEPhi) [mV]","re(rETheta) [mV]","im(rETheta) [mV]"
0.6406,180,90,-135,54.736,32.2289049173376,-20.6682323182353,15.0616485021572,-12.0090343898951
"Freq [GHz]","IWavePhi [deg]","IWaveTheta [deg]","Phi [deg]","Theta [deg]","re(rEPhi) [mV]","im(rEPhi) [mV]","re(rETheta) [mV]","im(rETheta) [mV]"
0.6406,180,90,-45,125.264,-36.922582605935,20.392114614081,-24.5615280303176,11.5770121943866
"Freq [GHz]","IWavePhi [deg]","IWaveTheta [deg]","Phi [deg]","Theta [deg]","re(rEPhi) [mV]","im(rEPhi) [mV]","re(rETheta) [mV]","im(rETheta) [mV]"
0.6406,180,90,135,125.264,36.9340545002579,-20.3707657213042,24.5843561198148,-11.5725664782811
"Freq [GHz]","IWavePhi [deg]","IWaveTheta [deg]","Phi [deg]","Theta [deg]","re(rEPhi) [mV]","im(rEPhi) [mV]","re(rETheta) [mV]","im(rETheta) [mV]"
0.6406,180,90,-135,125.264,36.9623583027138,-20.3777964091894,-24.5852193530359,11.5828353453598
"Freq [GHz]","IWavePhi [deg]","IWaveTheta [deg]","Phi [deg]","Theta [deg]","re(rEPhi) [mV]","im(rEPhi) [mV]","re(rETheta) [mV]","im(rETheta) [mV]"
0.6406,180,90,0,90,-52.0517425651141,30.8706637039591,-0.0156989539477726,0.00481854494662684
"Freq [GHz]","IWavePhi [deg]","IWaveTheta [deg]","Phi [deg]","Theta [deg]","re(rEPhi) [mV]","im(rEPhi) [mV]","re(rETheta) [mV]","im(rETheta) [mV]"
0.6406,180,90,180,90,52.0580712222401,-30.8734132268027,-0.00180756935909989,-0.000252486494607213
"Freq [GHz]","IWavePhi [deg]","IWaveTheta [deg]","Phi [deg]","Theta [deg]","re(rEPhi) [mV]","im(rEPhi) [mV]","re(rETheta) [mV]","im(rETheta) [mV]"
0.6406,180,90,90,90,0.0116065753734428,-0.000915165465574254,-6.64361496427193,-0.255497072165522
"Freq [GHz]","IWavePhi [deg]","IWaveTheta [deg]","Phi [deg]","Theta [deg]","re(rEPhi) [mV]","im(rEPhi) [mV]","re(rETheta) [mV]","im(rETheta) [mV]"
0.6406,180,90,-90,90,0.00664855035748262,-0.00797219480582206,6.62357629012555,0.258135345793803
"Freq [GHz]","IWavePhi [deg]","IWaveTheta [deg]","Phi [deg]","Theta [deg]","re(rEPhi) [mV]","im(rEPhi) [mV]","re(rETheta) [mV]","im(rETheta) [mV]"
0.6406,180,90,0,0,-54.4867146229995,28.53313168251,0.000647052956020882,0.0144272143251965
"Freq [GHz]","IWavePhi [deg]","IWaveTheta [deg]","Phi [deg]","Theta [deg]","re(rEPhi) [mV]","im(rEPhi) [mV]","re(rETheta) [mV]","im(rETheta) [mV]"
0.6406,180,90,0,180,-42.7414810247215,29.2403299104592,-0.00923734245778049,-0.00881323896293039
"Freq [GHz]","IWavePhi [deg]","IWaveTheta [deg]","Phi [deg]","Theta [deg]","re(rEPhi) [mV]","im(rEPhi) [mV]","re(rETheta) [mV]","im(rETheta) [mV]"
0.6406,180,90,45,54.736,-36.9038581927202,20.3576126387003,-24.5667094870202,11.5885616447394
"Freq [GHz]","IWavePhi [deg]","IWaveTheta [deg]","Phi [deg]","Theta [deg]","re(rEPhi) [mV]","im(rEPhi) [mV]","re(rETheta) [mV]","im(rETheta) [mV]"
0.6406,180,90,135,54.736,36.9092154620215,-20.3964774906807,-24.5702815439757,11.5992909796248
"Freq [GHz]","IWavePhi [deg]","IWaveTheta [deg]","Phi [deg]","Theta [deg]","re(rEPhi) [mV]","im(rEPhi) [mV]","re(rETheta) [mV]","im(rETheta) [mV]"
0.6406,180,90,-45,54.736,-36.9211421097004,20.3815119140655,24.5564751216042,-11.5705197111919
"Freq [GHz]","IWavePhi [deg]","IWaveTheta [deg]","Phi [deg]","Theta [deg]","re(rEPhi) [mV]","im(rEPhi) [mV]","re(rETheta) [mV]","im(rETheta) [mV]"
0.6406,180,90,45,125.264,-32.2211893699252,20.6710707977813,15.0753963366706,-12.0109337531022
"Freq [GHz]","IWavePhi [deg]","IWaveTheta [deg]","Phi [deg]","Theta [deg]","re(rEPhi) [mV]","im(rEPhi) [mV]","re(rETheta) [mV]","im(rETheta) [mV]"
