"Freq [GHz]","IWavePhi [deg]","IWaveTheta [deg]","Phi [deg]","Theta [deg]","re(rEPhi) [mV]","im(rEPhi) [mV]","re(rETheta) [mV]","im(rETheta) [mV]"
0.9253,180,90,0,90,10.8514857878652,94.4145678726382,0.0130776658533437,-0.0329448500934569
"Freq [GHz]","IWavePhi [deg]","IWaveTheta [deg]","Phi [deg]","Theta [deg]","re(rEPhi) [mV]","im(rEPhi) [mV]","re(rETheta) [mV]","im(rETheta) [mV]"
0.9253,180,90,180,90,-10.8534724206117,-94.3803038045767,-0.0230901259253302,-0.0447340113289475
"Freq [GHz]","IWavePhi [deg]","IWaveTheta [deg]","Phi [deg]","Theta [deg]","re(rEPhi) [mV]","im(rEPhi) [mV]","re(rETheta) [mV]","im(rETheta) [mV]"
0.9253,180,90,90,90,0.071275463368456,-0.00433730147499429,-0.00249391045365895,-0.083313367765441
"Freq [GHz]","IWavePhi [deg]","IWaveTheta [deg]","Phi [deg]","Theta [deg]","re(rEPhi) [mV]","im(rEPhi) [mV]","re(rETheta) [mV]","im(rETheta) [mV]"
0.9253,180,90,-90,90,-0.00543517741664933,-0.0845154944204542,-0.0448196837199681,0.00167674210586687
"Freq [GHz]","IWavePhi [deg]","IWaveTheta [deg]","Phi [deg]","Theta [deg]","re(rEPhi) [mV]","im(rEPhi) [mV]","re(rETheta) [mV]","im(rETheta) [mV]"
0.9253,180,90,0,0,8.80961128067705,82.0208150221639,-0.0814163746590573,-0.0462436741152711
"Freq [GHz]","IWavePhi [deg]","IWaveTheta [deg]","Phi [deg]","Theta [deg]","re(rEPhi) [mV]","im(rEPhi) [mV]","re(rETheta) [mV]","im(rETheta) [mV]"
0.9253,180,90,0,180,8.78700701184501,82.1490987862313,0.103881509498084,0.112476422985968
"Freq [GHz]","IWavePhi [deg]","IWaveTheta [deg]","Phi [deg]","Theta [deg]","re(rEPhi) [mV]","im(rEPhi) [mV]","re(rETheta) [mV]","im(rETheta) [mV]"
0.9253,180,90,45,54.736,6.68686644026877,58.7539161426237,3.68537506274071,33.6364466906224
"Freq [GHz]","IWavePhi [deg]","IWaveTheta [deg]","Phi [deg]","Theta [deg]","re(rEPhi) [mV]","im(rEPhi) [mV]","re(rETheta) [mV]","im(rETheta) [mV]"
0.9253,180,90,135,54.736,-6.56879526552693,-58.9439571360709,3.65262545243914,33.6817235592908
"Freq [GHz]","IWavePhi [deg]","IWaveTheta [deg]","Phi [deg]","Theta [deg]","re(rEPhi) [mV]","im(rEPhi) [mV]","re(rETheta) [mV]","im(rETheta) [mV]"
0.9253,180,90,-45,54.736,6.70686623977352,58.8418199472731,-3.69561606405223,-33.7297620267955
"Freq [GHz]","IWavePhi [deg]","IWaveTheta [deg]","Phi [deg]","Theta [deg]","re(rEPhi) [mV]","im(rEPhi) [mV]","re(rETheta) [mV]","im(rETheta) [mV]"
0.9253,180,90,45,125.264,6.70215659486013,58.9123405631192,-3.69379828568144,-33.7804142586371
"Freq [GHz]","IWavePhi [deg]","IWaveTheta [deg]","Phi [deg]","Theta [deg]","re(rEPhi) [mV]","im(rEPhi) [mV]","re(rETheta) [mV]","im(rETheta) [mV]"
0.9253,180,90,-135,54.736,-6.78958937892694,-58.7893500484545,-3.77840925685033,-33.6790638487784
"Freq [GHz]","IWavePhi [deg]","IWaveTheta [deg]","Phi [deg]","Theta [deg]","re(rEPhi) [mV]","im(rEPhi) [mV]","re(rETheta) [mV]","im(rETheta) [mV]"
0.9253,180,90,-45,125.264,6.79834537620467,58.6369488582663,3.71543466419694,33.6269086361139
"Freq [GHz]","IWavePhi [deg]","IWaveTheta [deg]","Phi [deg]","Theta [deg]","re(rEPhi) [mV]","im(rEPhi) [mV]","re(rETheta) [mV]","im(rETheta) [mV]"
0.9253,180,90,135,125.264,-6.73972149158612,-58.8051220687949,-3.72404792019555,-33.7346599612338
"Freq [GHz]","IWavePhi [deg]","IWaveTheta [deg]","Phi [deg]","Theta [deg]","re(rEPhi) [mV]","im(rEPhi) [mV]","re(rETheta) [mV]","im(rETheta) [mV]"
0.9253,180,90,-135,125.264,-6.63259660583067,-58.8472483449265,3.67667077862688,33.695559547074
"Freq [GHz]","IWavePhi [deg]","IWaveTheta [deg]","Phi [deg]","Theta [deg]","re(rEPhi) [mV]","im(rEPhi) [mV]","re(rETheta) [mV]","im(rETheta) [mV]"
0.9253,180,90,62.632,90,4.36793753187972,35.5411450448448,0.0100895157672735,-0.0122531073990472
"Freq [GHz]","IWavePhi [deg]","IWaveTheta [deg]","Phi [deg]","Theta [deg]","re(rEPhi) [mV]","im(rEPhi) [mV]","re(rETheta) [mV]","im(rETheta) [mV]"
0.9253,180,90,117.368,90,-4.38430776010811,-35.6299166536606,-0.055442180984406,-0.0659868817440649
"Freq [GHz]","IWavePhi [deg]","IWaveTheta [deg]","Phi [deg]","Theta [deg]","re(rEPhi) [mV]","im(rEPhi) [mV]","re(rETheta) [mV]","im(rETheta) [mV]"
0.9253,180,90,-62.632,90,4.25906677842916,35.8481656221908,-0.0478383471836629,-0.0411775167603909
"Freq [GHz]","IWavePhi [deg]","IWaveTheta [deg]","Phi [deg]","Theta [deg]","re(rEPhi) [mV]","im(rEPhi) [mV]","re(rETheta) [mV]","im(rETheta) [mV]"
0.9253,180,90,-117.368,90,-4.19613104649042,-35.8765217046135,0.0187371650987411,0.0131412277441841
"Freq [GHz]","IWavePhi [deg]","IWaveTheta [deg]","Phi [deg]","Theta [deg]","re(rEPhi) [mV]","im(rEPhi) [mV]","re(rETheta) [mV]","im(rETheta) [mV]"
0.9253,180,90,27.368,90,9.14775446151198,79.6707971049584,-0.0502065953289857,-0.0390833537491596
"Freq [GHz]","IWavePhi [deg]","IWaveTheta [deg]","Phi [deg]","Theta [deg]","re(rEPhi) [mV]","im(rEPhi) [mV]","re(rETheta) [mV]","im(rETheta) [mV]"
0.9253,180,90,152.632,90,-9.09316992861996,-79.5961437169681,-0.00247053399316406,-0.0204462382524075
"Freq [GHz]","IWavePhi [deg]","IWaveTheta [deg]","Phi [deg]","Theta [deg]","re(rEPhi) [mV]","im(rEPhi) [mV]","re(rETheta) [mV]","im(rETheta) [mV]"
0.9253,180,90,-27.368,90,9.14224366788966,79.5541960869289,-0.0203637994403367,-0.0150880996149854
"Freq [GHz]","IWavePhi [deg]","IWaveTheta [deg]","Phi [deg]","Theta [deg]","re(rEPhi) [mV]","im(rEPhi) [mV]","re(rETheta) [mV]","im(rETheta) [mV]"
0.9253,180,90,-152.632,90,-9.25069852264434,-79.5446082230218,-0.0500617370947059,-0.0652049632290728
"Freq [GHz]","IWavePhi [deg]","IWaveTheta [deg]","Phi [deg]","Theta [deg]","re(rEPhi) [mV]","im(rEPhi) [mV]","re(rETheta) [mV]","im(rETheta) [mV]"
0.9253,180,90,0,27.368,9.26989751436218,84.6842980830751,0.0648282234020066,-0.0419690356544506
"Freq [GHz]","IWavePhi [deg]","IWaveTheta [deg]","Phi [deg]","Theta [deg]","re(rEPhi) [mV]","im(rEPhi) [mV]","re(rETheta) [mV]","im(rETheta) [mV]"
0.9253,180,90,180,27.368,-9.36524333148218,-84.7391383392015,-0.128036678997217,-0.0363527613320794
"Freq [GHz]","IWavePhi [deg]","IWaveTheta [deg]","Phi [deg]","Theta [deg]","re(rEPhi) [mV]","im(rEPhi) [mV]","re(rETheta) [mV]","im(rETheta) [mV]"
0.9253,180,90,0,152.632,9.37851605474268,84.7116949007754,-0.0458686251507386,-0.0818784371155993
"Freq [GHz]","IWavePhi [deg]","IWaveTheta [deg]","Phi [deg]","Theta [deg]","re(rEPhi) [mV]","im(rEPhi) [mV]","re(rETheta) [mV]","im(rETheta) [mV]"
0.9253,180,90,180,152.632,-9.25853386409035,-84.6351971947737,0.0318566155435874,0.038818611733285
"Freq [GHz]","IWavePhi [deg]","IWaveTheta [deg]","Phi [deg]","Theta [deg]","re(rEPhi) [mV]","im(rEPhi) [mV]","re(rETheta) [mV]","im(rETheta) [mV]"
0.9253,180,90,0,62.632,10.4719385940487,91.6467341012227,-0.0621940391889395,0.035045109007945
"Freq [GHz]","IWavePhi [deg]","IWaveTheta [deg]","Phi [deg]","Theta [deg]","re(rEPhi) [mV]","im(rEPhi) [mV]","re(rETheta) [mV]","im(rETheta) [mV]"
0.9253,180,90,180,62.632,-10.3554607522444,-91.5627194041697,-0.0106128402583499,-0.0627545464824933
"Freq [GHz]","IWavePhi [deg]","IWaveTheta [deg]","Phi [deg]","Theta [deg]","re(rEPhi) [mV]","im(rEPhi) [mV]","re(rETheta) [mV]","im(rETheta) [mV]"
0.9253,180,90,0,117.368,10.2851671719654,91.7008915448754,-0.0231020448031629,-0.0118425496775775
"Freq [GHz]","IWavePhi [deg]","IWaveTheta [deg]","Phi [deg]","Theta [deg]","re(rEPhi) [mV]","im(rEPhi) [mV]","re(rETheta) [mV]","im(rETheta) [mV]"
0.9253,180,90,180,117.368,-10.4394249981479,-91.7920931297891,0.0247056511480714,-0.0808226839922676
"Freq [GHz]","IWavePhi [deg]","IWaveTheta [deg]","Phi [deg]","Theta [deg]","re(rEPhi) [mV]","im(rEPhi) [mV]","re(rETheta) [mV]","im(rETheta) [mV]"
0.9253,180,90,90,27.368,-0.0494084759652543,-0.0551182957535508,7.83204866994155,71.2069913342297
"Freq [GHz]","IWavePhi [deg]","IWaveTheta [deg]","Phi [deg]","Theta [deg]","re(rEPhi) [mV]","im(rEPhi) [mV]","re(rETheta) [mV]","im(rETheta) [mV]"
0.9253,180,90,-90,27.368,0.0211320765160836,0.0696293143033704,-7.84095862700989,-71.2306291630713
"Freq [GHz]","IWavePhi [deg]","IWaveTheta [deg]","Phi [deg]","Theta [deg]","re(rEPhi) [mV]","im(rEPhi) [mV]","re(rETheta) [mV]","im(rETheta) [mV]"
0.9253,180,90,90,152.632,-0.0739032844573367,-0.0122996662134014,-7.76747308911358,-71.3852021244645
"Freq [GHz]","IWavePhi [deg]","IWaveTheta [deg]","Phi [deg]","Theta [deg]","re(rEPhi) [mV]","im(rEPhi) [mV]","re(rETheta) [mV]","im(rETheta) [mV]"
0.9253,180,90,-90,152.632,0.0786439586151093,0.0785733345757197,7.78094917995789,71.3129749917756
"Freq [GHz]","IWavePhi [deg]","IWaveTheta [deg]","Phi [deg]","Theta [deg]","re(rEPhi) [mV]","im(rEPhi) [mV]","re(rETheta) [mV]","im(rETheta) [mV]"
0.9253,180,90,90,62.632,0.0710567431589147,0.0597430643517166,3.845206479014,34.3657517103376
"Freq [GHz]","IWavePhi [deg]","IWaveTheta [deg]","Phi [deg]","Theta [deg]","re(rEPhi) [mV]","im(rEPhi) [mV]","re(rETheta) [mV]","im(rETheta) [mV]"
0.9253,180,90,-90,62.632,0.050835575324086,0.0207261573952796,-3.80557093723193,-34.3864421155402
"Freq [GHz]","IWavePhi [deg]","IWaveTheta [deg]","Phi [deg]","Theta [deg]","re(rEPhi) [mV]","im(rEPhi) [mV]","re(rETheta) [mV]","im(rETheta) [mV]"
0.9253,180,90,90,117.368,0.0151783879312303,-0.0252932820089107,-3.88687503440539,-34.3436662025379
"Freq [GHz]","IWavePhi [deg]","IWaveTheta [deg]","Phi [deg]","Theta [deg]","re(rEPhi) [mV]","im(rEPhi) [mV]","re(rETheta) [mV]","im(rETheta) [mV]"
0.9253,180,90,-90,117.368,-0.0432663258879607,-0.0206518627698173,3.8686722235251,34.3628183154566
"Freq [GHz]","IWavePhi [deg]","IWaveTheta [deg]","Phi [deg]","Theta [deg]","re(rEPhi) [mV]","im(rEPhi) [mV]","re(rETheta) [mV]","im(rETheta) [mV]"
0.9253,180,90,0,90,-10.8514857878652,-94.4145678726382,-0.0130776658523751,0.0329448500933012
"Freq [GHz]","IWavePhi [deg]","IWaveTheta [deg]","Phi [deg]","Theta [deg]","re(rEPhi) [mV]","im(rEPhi) [mV]","re(rETheta) [mV]","im(rETheta) [mV]"
0.9253,180,90,180,90,10.8534724206117,94.3803038045767,0.0230901259243611,0.0447340113287921
"Freq [GHz]","IWavePhi [deg]","IWaveTheta [deg]","Phi [deg]","Theta [deg]","re(rEPhi) [mV]","im(rEPhi) [mV]","re(rETheta) [mV]","im(rETheta) [mV]"
0.9253,180,90,90,90,-0.0712754633703494,0.00433730147911298,0.00249391045318109,0.0833133677661654
"Freq [GHz]","IWavePhi [deg]","IWaveTheta [deg]","Phi [deg]","Theta [deg]","re(rEPhi) [mV]","im(rEPhi) [mV]","re(rETheta) [mV]","im(rETheta) [mV]"
0.9253,180,90,-90,90,0.00543517741475663,0.0845154944163348,0.0448196837204455,-0.00167674210514272
"Freq [GHz]","IWavePhi [deg]","IWaveTheta [deg]","Phi [deg]","Theta [deg]","re(rEPhi) [mV]","im(rEPhi) [mV]","re(rETheta) [mV]","im(rETheta) [mV]"
0.9253,180,90,0,0,-8.80961128067705,-82.0208150221639,0.0814163746634735,0.0462436741141522
"Freq [GHz]","IWavePhi [deg]","IWaveTheta [deg]","Phi [deg]","Theta [deg]","re(rEPhi) [mV]","im(rEPhi) [mV]","re(rETheta) [mV]","im(rETheta) [mV]"
0.9253,180,90,0,180,-8.78700701184501,-82.1490987862313,-0.103881509493669,-0.112476422984849
"Freq [GHz]","IWavePhi [deg]","IWaveTheta [deg]","Phi [deg]","Theta [deg]","re(rEPhi) [mV]","im(rEPhi) [mV]","re(rETheta) [mV]","im(rETheta) [mV]"
0.9253,180,90,45,54.736,-6.68686644026647,-58.7539161426259,-3.68537506274156,-33.6364466906215
"Freq [GHz]","IWavePhi [deg]","IWaveTheta [deg]","Phi [deg]","Theta [deg]","re(rEPhi) [mV]","im(rEPhi) [mV]","re(rETheta) [mV]","im(rETheta) [mV]"
0.9253,180,90,135,54.736,6.5687952655248,58.9439571360685,-3.6526254524409,-33.6817235592928
"Freq [GHz]","IWavePhi [deg]","IWaveTheta [deg]","Phi [deg]","Theta [deg]","re(rEPhi) [mV]","im(rEPhi) [mV]","re(rETheta) [mV]","im(rETheta) [mV]"
0.9253,180,90,-45,54.736,-6.70686623977124,-58.8418199472753,3.69561606405313,33.7297620267947
"Freq [GHz]","IWavePhi [deg]","IWaveTheta [deg]","Phi [deg]","Theta [deg]","re(rEPhi) [mV]","im(rEPhi) [mV]","re(rETheta) [mV]","im(rETheta) [mV]"
0.9253,180,90,45,125.264,-6.70215659486226,-58.9123405631168,3.69379828567984,33.7804142586391
"Freq [GHz]","IWavePhi [deg]","IWaveTheta [deg]","Phi [deg]","Theta [deg]","re(rEPhi) [mV]","im(rEPhi) [mV]","re(rETheta) [mV]","im(rETheta) [mV]"
0.9253,180,90,-135,54.736,6.78958937892481,58.7893500484521,3.77840925685194,33.6790638487804
"Freq [GHz]","IWavePhi [deg]","IWaveTheta [deg]","Phi [deg]","Theta [deg]","re(rEPhi) [mV]","im(rEPhi) [mV]","re(rETheta) [mV]","im(rETheta) [mV]"
0.9253,180,90,-45,125.264,-6.79834537620681,-58.6369488582639,-3.71543466419519,-33.6269086361159
"Freq [GHz]","IWavePhi [deg]","IWaveTheta [deg]","Phi [deg]","Theta [deg]","re(rEPhi) [mV]","im(rEPhi) [mV]","re(rETheta) [mV]","im(rETheta) [mV]"
0.9253,180,90,135,125.264,6.73972149158839,58.8051220687971,3.72404792019465,33.7346599612331
"Freq [GHz]","IWavePhi [deg]","IWaveTheta [deg]","Phi [deg]","Theta [deg]","re(rEPhi) [mV]","im(rEPhi) [mV]","re(rETheta) [mV]","im(rETheta) [mV]"
0.9253,180,90,-135,125.264,6.63259660583297,58.8472483449288,-3.67667077862602,-33.6955595470731
"Freq [GHz]","IWavePhi [deg]","IWaveTheta [deg]","Phi [deg]","Theta [deg]","re(rEPhi) [mV]","im(rEPhi) [mV]","re(rETheta) [mV]","im(rETheta) [mV]"
0.9253,180,90,62.632,90,-4.36793753188363,-35.5411450448438,-0.0100895157680226,0.0122531073993399
"Freq [GHz]","IWavePhi [deg]","IWaveTheta [deg]","Phi [deg]","Theta [deg]","re(rEPhi) [mV]","im(rEPhi) [mV]","re(rETheta) [mV]","im(rETheta) [mV]"
0.9253,180,90,117.368,90,4.38430776010763,35.6299166536646,0.0554421809843397,0.0659868817450605
"Freq [GHz]","IWavePhi [deg]","IWaveTheta [deg]","Phi [deg]","Theta [deg]","re(rEPhi) [mV]","im(rEPhi) [mV]","re(rETheta) [mV]","im(rETheta) [mV]"
0.9253,180,90,-62.632,90,-4.25906677842965,-35.8481656221948,0.0478383471837282,0.0411775167613875
"Freq [GHz]","IWavePhi [deg]","IWaveTheta [deg]","Phi [deg]","Theta [deg]","re(rEPhi) [mV]","im(rEPhi) [mV]","re(rETheta) [mV]","im(rETheta) [mV]"
0.9253,180,90,-117.368,90,4.19613104648651,35.8765217046125,-0.0187371650979934,-0.013141227743892
"Freq [GHz]","IWavePhi [deg]","IWaveTheta [deg]","Phi [deg]","Theta [deg]","re(rEPhi) [mV]","im(rEPhi) [mV]","re(rETheta) [mV]","im(rETheta) [mV]"
0.9253,180,90,27.368,90,-9.14775446151212,-79.6707971049605,0.0502065953290308,0.0390833537482072
"Freq [GHz]","IWavePhi [deg]","IWaveTheta [deg]","Phi [deg]","Theta [deg]","re(rEPhi) [mV]","im(rEPhi) [mV]","re(rETheta) [mV]","im(rETheta) [mV]"
0.9253,180,90,152.632,90,9.0931699286186,79.5961437169697,0.00247053399272613,0.0204462382530586
"Freq [GHz]","IWavePhi [deg]","IWaveTheta [deg]","Phi [deg]","Theta [deg]","re(rEPhi) [mV]","im(rEPhi) [mV]","re(rETheta) [mV]","im(rETheta) [mV]"
0.9253,180,90,-27.368,90,-9.14224366789102,-79.5541960869305,0.0203637994407748,0.0150880996156353
"Freq [GHz]","IWavePhi [deg]","IWaveTheta [deg]","Phi [deg]","Theta [deg]","re(rEPhi) [mV]","im(rEPhi) [mV]","re(rETheta) [mV]","im(rETheta) [mV]"
0.9253,180,90,-152.632,90,9.2506985226442,79.5446082230239,0.0500617370946611,0.0652049632281205
"Freq [GHz]","IWavePhi [deg]","IWaveTheta [deg]","Phi [deg]","Theta [deg]","re(rEPhi) [mV]","im(rEPhi) [mV]","re(rETheta) [mV]","im(rETheta) [mV]"
0.9253,180,90,0,27.368,-9.26989751436218,-84.6842980830751,-0.0648282234008827,0.0419690356578863
"Freq [GHz]","IWavePhi [deg]","IWaveTheta [deg]","Phi [deg]","Theta [deg]","re(rEPhi) [mV]","im(rEPhi) [mV]","re(rETheta) [mV]","im(rETheta) [mV]"
0.9253,180,90,180,27.368,9.36524333148218,84.7391383392015,0.128036678992873,0.0363527613318536
"Freq [GHz]","IWavePhi [deg]","IWaveTheta [deg]","Phi [deg]","Theta [deg]","re(rEPhi) [mV]","im(rEPhi) [mV]","re(rETheta) [mV]","im(rETheta) [mV]"
0.9253,180,90,0,152.632,-9.37851605474268,-84.7116949007754,0.0458686251550828,0.0818784371153739
"Freq [GHz]","IWavePhi [deg]","IWaveTheta [deg]","Phi [deg]","Theta [deg]","re(rEPhi) [mV]","im(rEPhi) [mV]","re(rETheta) [mV]","im(rETheta) [mV]"
0.9253,180,90,180,152.632,9.25853386409035,84.6351971947737,-0.0318566155447116,-0.038818611729849
"Freq [GHz]","IWavePhi [deg]","IWaveTheta [deg]","Phi [deg]","Theta [deg]","re(rEPhi) [mV]","im(rEPhi) [mV]","re(rETheta) [mV]","im(rETheta) [mV]"
0.9253,180,90,0,62.632,-10.4719385940487,-91.6467341012227,0.0621940391896324,-0.0350451090089274
"Freq [GHz]","IWavePhi [deg]","IWaveTheta [deg]","Phi [deg]","Theta [deg]","re(rEPhi) [mV]","im(rEPhi) [mV]","re(rETheta) [mV]","im(rETheta) [mV]"
0.9253,180,90,180,62.632,10.3554607522444,91.5627194041697,0.0106128402610543,0.0627545464820361
"Freq [GHz]","IWavePhi [deg]","IWaveTheta [deg]","Phi [deg]","Theta [deg]","re(rEPhi) [mV]","im(rEPhi) [mV]","re(rETheta) [mV]","im(rETheta) [mV]"
0.9253,180,90,0,117.368,-10.2851671719654,-91.7008915448754,0.0231020448004582,0.0118425496771198
"Freq [GHz]","IWavePhi [deg]","IWaveTheta [deg]","Phi [deg]","Theta [deg]","re(rEPhi) [mV]","im(rEPhi) [mV]","re(rETheta) [mV]","im(rETheta) [mV]"
0.9253,180,90,180,117.368,10.4394249981479,91.7920931297891,-0.0247056511487642,0.0808226839912855
"Freq [GHz]","IWavePhi [deg]","IWaveTheta [deg]","Phi [deg]","Theta [deg]","re(rEPhi) [mV]","im(rEPhi) [mV]","re(rETheta) [mV]","im(rETheta) [mV]"
0.9253,180,90,90,27.368,0.0494084759614963,0.0551182957560887,-7.83204866994185,-71.2069913342295
"Freq [GHz]","IWavePhi [deg]","IWaveTheta [deg]","Phi [deg]","Theta [deg]","re(rEPhi) [mV]","im(rEPhi) [mV]","re(rETheta) [mV]","im(rETheta) [mV]"
0.9253,180,90,-90,27.368,-0.0211320765175788,-0.0696293142990684,7.84095862701002,71.2306291630708
"Freq [GHz]","IWavePhi [deg]","IWaveTheta [deg]","Phi [deg]","Theta [deg]","re(rEPhi) [mV]","im(rEPhi) [mV]","re(rETheta) [mV]","im(rETheta) [mV]"
0.9253,180,90,90,152.632,0.0739032844558416,0.0122996662090998,7.76747308911344,71.385202124464
"Freq [GHz]","IWavePhi [deg]","IWaveTheta [deg]","Phi [deg]","Theta [deg]","re(rEPhi) [mV]","im(rEPhi) [mV]","re(rETheta) [mV]","im(rETheta) [mV]"
0.9253,180,90,-90,152.632,-0.078643958618867,-0.0785733345782576,-7.7809491799576,-71.3129749917753
"Freq [GHz]","IWavePhi [deg]","IWaveTheta [deg]","Phi [deg]","Theta [deg]","re(rEPhi) [mV]","im(rEPhi) [mV]","re(rETheta) [mV]","im(rETheta) [mV]"
0.9253,180,90,90,62.632,-0.0710567431582479,-0.0597430643562226,-3.84520647901387,-34.3657517103385
"Freq [GHz]","IWavePhi [deg]","IWaveTheta [deg]","Phi [deg]","Theta [deg]","re(rEPhi) [mV]","im(rEPhi) [mV]","re(rETheta) [mV]","im(rETheta) [mV]"
0.9253,180,90,-90,62.632,-0.0508355753197172,-0.0207261573941186,3.80557093723129,34.3864421155399
"Freq [GHz]","IWavePhi [deg]","IWaveTheta [deg]","Phi [deg]","Theta [deg]","re(rEPhi) [mV]","im(rEPhi) [mV]","re(rETheta) [mV]","im(rETheta) [mV]"
0.9253,180,90,90,117.368,-0.0151783879268619,0.02529328200775,3.88687503440602,34.3436662025377
"Freq [GHz]","IWavePhi [deg]","IWaveTheta [deg]","Phi [deg]","Theta [deg]","re(rEPhi) [mV]","im(rEPhi) [mV]","re(rETheta) [mV]","im(rETheta) [mV]"
0.9253,180,90,-90,117.368,0.043266325888627,0.0206518627743239,-3.86867222352522,-34.3628183154575
"Freq [GHz]","IWavePhi [deg]","IWaveTheta [deg]","Phi [deg]","Theta [deg]","re(rEPhi) [mV]","im(rEPhi) [mV]","re(rETheta) [mV]","im(rETheta) [mV]"
0.9253,180,90,0,90,1.59472404225253e-15,1.34998859268704e-14,1.43804780414475e-18,-3.84377287382805e-18
"Freq [GHz]","IWavePhi [deg]","IWaveTheta [deg]","Phi [deg]","Theta [deg]","re(rEPhi) [mV]","im(rEPhi) [mV]","re(rETheta) [mV]","im(rETheta) [mV]"
0.9253,180,90,180,90,-1.59106831051767e-15,-1.34935149958225e-14,-3.06400088164678e-18,-6.42544119390743e-18
"Freq [GHz]","IWavePhi [deg]","IWaveTheta [deg]","Phi [deg]","Theta [deg]","re(rEPhi) [mV]","im(rEPhi) [mV]","re(rETheta) [mV]","im(rETheta) [mV]"
0.9253,180,90,90,90,1.01499791753464e-17,-1.09948621805132e-18,1.70041820795604e-18,-1.10145002071929e-17
"Freq [GHz]","IWavePhi [deg]","IWaveTheta [deg]","Phi [deg]","Theta [deg]","re(rEPhi) [mV]","im(rEPhi) [mV]","re(rETheta) [mV]","im(rETheta) [mV]"
0.9253,180,90,-90,90,-6.52487766776594e-19,-1.12979096227328e-17,-9.02139584196617e-18,1.25749072860791e-18
"Freq [GHz]","IWavePhi [deg]","IWaveTheta [deg]","Phi [deg]","Theta [deg]","re(rEPhi) [mV]","im(rEPhi) [mV]","re(rETheta) [mV]","im(rETheta) [mV]"
0.9253,180,90,0,0,1.29545323213682e-15,1.17265430219918e-14,-1.22706024742845e-17,-6.73450839118121e-18
"Freq [GHz]","IWavePhi [deg]","IWaveTheta [deg]","Phi [deg]","Theta [deg]","re(rEPhi) [mV]","im(rEPhi) [mV]","re(rETheta) [mV]","im(rETheta) [mV]"
