"Freq [GHz]","IWavePhi [deg]","IWaveTheta [deg]","Phi [deg]","Theta [deg]","re(rEPhi) [mV]","im(rEPhi) [mV]","re(rETheta) [mV]","im(rETheta) [mV]"
0.7118,180,90,0,90,-56.1207086869259,65.421915720524,0.0133537485369405,-0.0220616246239452
"Freq [GHz]","IWavePhi [deg]","IWaveTheta [deg]","Phi [deg]","Theta [deg]","re(rEPhi) [mV]","im(rEPhi) [mV]","re(rETheta) [mV]","im(rETheta) [mV]"
0.7118,180,90,180,90,56.1580181399838,-65.4207698207545,-0.000919135655111223,-0.0170115252785146
"Freq [GHz]","IWavePhi [deg]","IWaveTheta [deg]","Phi [deg]","Theta [deg]","re(rEPhi) [mV]","im(rEPhi) [mV]","re(rETheta) [mV]","im(rETheta) [mV]"
0.7118,180,90,90,90,0.00600434042118011,0.00480069026608045,0.0154256120058001,-0.00455929515022763
"Freq [GHz]","IWavePhi [deg]","IWaveTheta [deg]","Phi [deg]","Theta [deg]","re(rEPhi) [mV]","im(rEPhi) [mV]","re(rETheta) [mV]","im(rETheta) [mV]"
0.7118,180,90,-90,90,0.00373339605617247,0.00262532037364704,0.00637933622591291,-0.0218343370583764
"Freq [GHz]","IWavePhi [deg]","IWaveTheta [deg]","Phi [deg]","Theta [deg]","re(rEPhi) [mV]","im(rEPhi) [mV]","re(rETheta) [mV]","im(rETheta) [mV]"
0.7118,180,90,0,0,-51.9975469084635,60.325916723069,-0.00514748729264371,0.00135606773059799
"Freq [GHz]","IWavePhi [deg]","IWaveTheta [deg]","Phi [deg]","Theta [deg]","re(rEPhi) [mV]","im(rEPhi) [mV]","re(rETheta) [mV]","im(rETheta) [mV]"
0.7118,180,90,0,180,-51.9696442104252,60.3470011681979,-0.00823875429031499,-0.00654200635594616
"Freq [GHz]","IWavePhi [deg]","IWaveTheta [deg]","Phi [deg]","Theta [deg]","re(rEPhi) [mV]","im(rEPhi) [mV]","re(rETheta) [mV]","im(rETheta) [mV]"
0.7118,180,90,45,54.736,-36.9411890985571,42.804084919429,-21.2455309542339,24.5745345642688
"Freq [GHz]","IWavePhi [deg]","IWaveTheta [deg]","Phi [deg]","Theta [deg]","re(rEPhi) [mV]","im(rEPhi) [mV]","re(rETheta) [mV]","im(rETheta) [mV]"
0.7118,180,90,135,54.736,36.949640223364,-42.8044355794617,-21.2520350088305,24.5717993179825
"Freq [GHz]","IWavePhi [deg]","IWaveTheta [deg]","Phi [deg]","Theta [deg]","re(rEPhi) [mV]","im(rEPhi) [mV]","re(rETheta) [mV]","im(rETheta) [mV]"
0.7118,180,90,-45,54.736,-36.95436543203,42.8184083766538,21.2577882700497,-24.6038384554041
"Freq [GHz]","IWavePhi [deg]","IWaveTheta [deg]","Phi [deg]","Theta [deg]","re(rEPhi) [mV]","im(rEPhi) [mV]","re(rETheta) [mV]","im(rETheta) [mV]"
0.7118,180,90,45,125.264,-36.9522553771548,42.8304446942858,21.2678647068738,-24.5954713843035
"Freq [GHz]","IWavePhi [deg]","IWaveTheta [deg]","Phi [deg]","Theta [deg]","re(rEPhi) [mV]","im(rEPhi) [mV]","re(rETheta) [mV]","im(rETheta) [mV]"
0.7118,180,90,-135,54.736,36.9212187278351,-42.8282010474125,21.2475754656516,-24.6127024700326
"Freq [GHz]","IWavePhi [deg]","IWaveTheta [deg]","Phi [deg]","Theta [deg]","re(rEPhi) [mV]","im(rEPhi) [mV]","re(rETheta) [mV]","im(rETheta) [mV]"
0.7118,180,90,-45,125.264,-36.9254869453555,42.814976440208,-21.2351572687092,24.5738956994577
"Freq [GHz]","IWavePhi [deg]","IWaveTheta [deg]","Phi [deg]","Theta [deg]","re(rEPhi) [mV]","im(rEPhi) [mV]","re(rETheta) [mV]","im(rETheta) [mV]"
0.7118,180,90,135,125.264,36.9373027940597,-42.8080120014475,21.2638951482595,-24.5962163987248
"Freq [GHz]","IWavePhi [deg]","IWaveTheta [deg]","Phi [deg]","Theta [deg]","re(rEPhi) [mV]","im(rEPhi) [mV]","re(rETheta) [mV]","im(rETheta) [mV]"
0.7118,180,90,-135,125.264,36.925749554473,-42.8108377849197,-21.2376882237331,24.5651916061076
"Freq [GHz]","IWavePhi [deg]","IWaveTheta [deg]","Phi [deg]","Theta [deg]","re(rEPhi) [mV]","im(rEPhi) [mV]","re(rETheta) [mV]","im(rETheta) [mV]"
0.7118,180,90,0,90,56.1207086869259,-65.421915720524,-0.0133537485283942,0.0220616246242605
"Freq [GHz]","IWavePhi [deg]","IWaveTheta [deg]","Phi [deg]","Theta [deg]","re(rEPhi) [mV]","im(rEPhi) [mV]","re(rETheta) [mV]","im(rETheta) [mV]"
0.7118,180,90,180,90,-56.1580181399838,65.4207698207545,0.000919135652110699,0.0170115252750776
"Freq [GHz]","IWavePhi [deg]","IWaveTheta [deg]","Phi [deg]","Theta [deg]","re(rEPhi) [mV]","im(rEPhi) [mV]","re(rETheta) [mV]","im(rETheta) [mV]"
0.7118,180,90,90,90,-0.00600434042041299,-0.00480069026573601,-0.0154256120019886,0.00455929515217671
"Freq [GHz]","IWavePhi [deg]","IWaveTheta [deg]","Phi [deg]","Theta [deg]","re(rEPhi) [mV]","im(rEPhi) [mV]","re(rETheta) [mV]","im(rETheta) [mV]"
0.7118,180,90,-90,90,-0.00373339605521074,-0.00262532037391579,-0.00637933622409808,0.0218343370561075
"Freq [GHz]","IWavePhi [deg]","IWaveTheta [deg]","Phi [deg]","Theta [deg]","re(rEPhi) [mV]","im(rEPhi) [mV]","re(rETheta) [mV]","im(rETheta) [mV]"
0.7118,180,90,0,0,51.9975469084618,-60.3259167230718,0.00514748728679854,-0.00135606773860127
"Freq [GHz]","IWavePhi [deg]","IWaveTheta [deg]","Phi [deg]","Theta [deg]","re(rEPhi) [mV]","im(rEPhi) [mV]","re(rETheta) [mV]","im(rETheta) [mV]"
0.7118,180,90,0,180,51.9696442104235,-60.3470011681952,0.00823875428764358,0.00654200635910822
"Freq [GHz]","IWavePhi [deg]","IWaveTheta [deg]","Phi [deg]","Theta [deg]","re(rEPhi) [mV]","im(rEPhi) [mV]","re(rETheta) [mV]","im(rETheta) [mV]"
0.7118,180,90,45,54.736,36.9411890985563,-42.8040849194311,21.2455309542403,-24.5745345642662
"Freq [GHz]","IWavePhi [deg]","IWaveTheta [deg]","Phi [deg]","Theta [deg]","re(rEPhi) [mV]","im(rEPhi) [mV]","re(rETheta) [mV]","im(rETheta) [mV]"
0.7118,180,90,135,54.736,-36.9496402233635,42.8044355794607,21.25203500883,-24.5717993179881
"Freq [GHz]","IWavePhi [deg]","IWaveTheta [deg]","Phi [deg]","Theta [deg]","re(rEPhi) [mV]","im(rEPhi) [mV]","re(rETheta) [mV]","im(rETheta) [mV]"
0.7118,180,90,-45,54.736,36.9543654320271,-42.8184083766571,-21.2577882700542,24.6038384554042
"Freq [GHz]","IWavePhi [deg]","IWaveTheta [deg]","Phi [deg]","Theta [deg]","re(rEPhi) [mV]","im(rEPhi) [mV]","re(rETheta) [mV]","im(rETheta) [mV]"
0.7118,180,90,45,125.264,36.9522553771514,-42.8304446942847,-21.2678647068757,24.5954713843067
"Freq [GHz]","IWavePhi [deg]","IWaveTheta [deg]","Phi [deg]","Theta [deg]","re(rEPhi) [mV]","im(rEPhi) [mV]","re(rETheta) [mV]","im(rETheta) [mV]"
0.7118,180,90,-135,54.736,-36.9212187278382,42.8282010474112,-21.2475754656419,24.6127024700342
"Freq [GHz]","IWavePhi [deg]","IWaveTheta [deg]","Phi [deg]","Theta [deg]","re(rEPhi) [mV]","im(rEPhi) [mV]","re(rETheta) [mV]","im(rETheta) [mV]"
0.7118,180,90,-45,125.264,36.9254869453543,-42.8149764402022,21.2351572687096,-24.5738956994637
"Freq [GHz]","IWavePhi [deg]","IWaveTheta [deg]","Phi [deg]","Theta [deg]","re(rEPhi) [mV]","im(rEPhi) [mV]","re(rETheta) [mV]","im(rETheta) [mV]"
0.7118,180,90,135,125.264,-36.9373027940609,42.8080120014459,-21.263895148255,24.5962163987237
"Freq [GHz]","IWavePhi [deg]","IWaveTheta [deg]","Phi [deg]","Theta [deg]","re(rEPhi) [mV]","im(rEPhi) [mV]","re(rETheta) [mV]","im(rETheta) [mV]"
0.7118,180,90,-135,125.264,-36.9257495544741,42.8108377849217,21.2376882237353,-24.5651916061013
"Freq [GHz]","IWavePhi [deg]","IWaveTheta [deg]","Phi [deg]","Theta [deg]","re(rEPhi) [mV]","im(rEPhi) [mV]","re(rETheta) [mV]","im(rETheta) [mV]"
0.7118,180,90,0,90,-5.9129987068145e-15,6.899285225452e-15,-2.08641684928159e-15,2.70017919591547e-16
"Freq [GHz]","IWavePhi [deg]","IWaveTheta [deg]","Phi [deg]","Theta [deg]","re(rEPhi) [mV]","im(rEPhi) [mV]","re(rETheta) [mV]","im(rETheta) [mV]"
0.7118,180,90,180,90,5.91706727734282e-15,-6.89924276335992e-15,-2.08768748556237e-15,2.70984192941584e-16
"Freq [GHz]","IWavePhi [deg]","IWaveTheta [deg]","Phi [deg]","Theta [deg]","re(rEPhi) [mV]","im(rEPhi) [mV]","re(rETheta) [mV]","im(rETheta) [mV]"
0.7118,180,90,90,90,5.8448819738481e-19,5.78412020878631e-19,-9.16135185600773e-16,2.41830381246148e-16
"Freq [GHz]","IWavePhi [deg]","IWaveTheta [deg]","Phi [deg]","Theta [deg]","re(rEPhi) [mV]","im(rEPhi) [mV]","re(rETheta) [mV]","im(rETheta) [mV]"
0.7118,180,90,-90,90,2.91272578894964e-19,2.58047774129381e-19,-1.64759481341887e-15,1.37108491366333e-16
"Freq [GHz]","IWavePhi [deg]","IWaveTheta [deg]","Phi [deg]","Theta [deg]","re(rEPhi) [mV]","im(rEPhi) [mV]","re(rETheta) [mV]","im(rETheta) [mV]"
0.7118,180,90,0,0,-4.18900420452753e-15,6.42681087538366e-15,-6.69916412690352e-19,-1.09085916342758e-19
"Freq [GHz]","IWavePhi [deg]","IWaveTheta [deg]","Phi [deg]","Theta [deg]","re(rEPhi) [mV]","im(rEPhi) [mV]","re(rETheta) [mV]","im(rETheta) [mV]"
0.7118,180,90,0,180,-6.76435093158101e-15,6.29914100081768e-15,-8.63614913424886e-19,-7.73871332216798e-19
"Freq [GHz]","IWavePhi [deg]","IWaveTheta [deg]","Phi [deg]","Theta [deg]","re(rEPhi) [mV]","im(rEPhi) [mV]","re(rETheta) [mV]","im(rETheta) [mV]"
0.7118,180,90,45,54.736,-3.53047185942766e-15,4.53501554578829e-15,-3.29703961671685e-15,2.82359583522495e-15
"Freq [GHz]","IWavePhi [deg]","IWaveTheta [deg]","Phi [deg]","Theta [deg]","re(rEPhi) [mV]","im(rEPhi) [mV]","re(rETheta) [mV]","im(rETheta) [mV]"
0.7118,180,90,135,54.736,3.53149753371739e-15,-4.5352049339959e-15,-3.2974097928826e-15,2.82323727983519e-15
"Freq [GHz]","IWavePhi [deg]","IWaveTheta [deg]","Phi [deg]","Theta [deg]","re(rEPhi) [mV]","im(rEPhi) [mV]","re(rETheta) [mV]","im(rETheta) [mV]"
0.7118,180,90,-45,54.736,-3.23930652777956e-15,4.54269050412358e-15,2.13575483979668e-16,-2.44247156696717e-15
"Freq [GHz]","IWavePhi [deg]","IWaveTheta [deg]","Phi [deg]","Theta [deg]","re(rEPhi) [mV]","im(rEPhi) [mV]","re(rETheta) [mV]","im(rETheta) [mV]"
0.7118,180,90,45,125.264,-4.74668982932761e-15,4.50050486808082e-15,1.47334406015643e-15,-2.36461636451425e-15
"Freq [GHz]","IWavePhi [deg]","IWaveTheta [deg]","Phi [deg]","Theta [deg]","re(rEPhi) [mV]","im(rEPhi) [mV]","re(rETheta) [mV]","im(rETheta) [mV]"
0.7118,180,90,-135,54.736,3.23595308742814e-15,-4.54370942571104e-15,2.12546246620719e-16,-2.44303440721406e-15
"Freq [GHz]","IWavePhi [deg]","IWaveTheta [deg]","Phi [deg]","Theta [deg]","re(rEPhi) [mV]","im(rEPhi) [mV]","re(rETheta) [mV]","im(rETheta) [mV]"
0.7118,180,90,-45,125.264,-4.07803336726045e-15,4.48330107274167e-15,-3.98770230449385e-15,2.74114182678604e-15
"Freq [GHz]","IWavePhi [deg]","IWaveTheta [deg]","Phi [deg]","Theta [deg]","re(rEPhi) [mV]","im(rEPhi) [mV]","re(rETheta) [mV]","im(rETheta) [mV]"
0.7118,180,90,135,125.264,4.74495202342735e-15,-4.49812503943661e-15,1.47322311882918e-15,-2.3645561163366e-15
"Freq [GHz]","IWavePhi [deg]","IWaveTheta [deg]","Phi [deg]","Theta [deg]","re(rEPhi) [mV]","im(rEPhi) [mV]","re(rETheta) [mV]","im(rETheta) [mV]"
0.7118,180,90,-135,125.264,4.07807599813963e-15,-4.4829526278832e-15,-3.98775578601081e-15,2.74004671350196e-15
"Freq [GHz]","IWavePhi [deg]","IWaveTheta [deg]","Phi [deg]","Theta [deg]","re(rEPhi) [mV]","im(rEPhi) [mV]","re(rETheta) [mV]","im(rETheta) [mV]"
0.7118,180,90,0,90,-2.2742103957322e-18,1.10962479644926e-18,2.08795851564429e-15,-2.70820319463093e-16
"Freq [GHz]","IWavePhi [deg]","IWaveTheta [deg]","Phi [deg]","Theta [deg]","re(rEPhi) [mV]","im(rEPhi) [mV]","re(rETheta) [mV]","im(rETheta) [mV]"
0.7118,180,90,180,90,2.24581128648133e-18,-1.36552436036836e-18,2.08754777398667e-15,-2.71148746360588e-16
"Freq [GHz]","IWavePhi [deg]","IWaveTheta [deg]","Phi [deg]","Theta [deg]","re(rEPhi) [mV]","im(rEPhi) [mV]","re(rETheta) [mV]","im(rETheta) [mV]"
0.7118,180,90,90,90,1.44442433888894e-20,-1.60927476797845e-19,1.64908667765273e-15,-1.36757959414768e-16
"Freq [GHz]","IWavePhi [deg]","IWaveTheta [deg]","Phi [deg]","Theta [deg]","re(rEPhi) [mV]","im(rEPhi) [mV]","re(rETheta) [mV]","im(rETheta) [mV]"
0.7118,180,90,-90,90,1.1970293521853e-20,1.38171833047774e-19,9.17140791518347e-16,-2.42562525717542e-16
"Freq [GHz]","IWavePhi [deg]","IWaveTheta [deg]","Phi [deg]","Theta [deg]","re(rEPhi) [mV]","im(rEPhi) [mV]","re(rETheta) [mV]","im(rETheta) [mV]"
0.7118,180,90,0,0,1.2875157368e-15,6.57592050568137e-17,1.00549045187063e-19,1.77174843015421e-19
"Freq [GHz]","IWavePhi [deg]","IWaveTheta [deg]","Phi [deg]","Theta [deg]","re(rEPhi) [mV]","im(rEPhi) [mV]","re(rETheta) [mV]","im(rETheta) [mV]"
0.7118,180,90,0,180,-1.29154247564919e-15,-6.30651170793559e-17,7.81284106472474e-20,8.05077725619442e-20
"Freq [GHz]","IWavePhi [deg]","IWaveTheta [deg]","Phi [deg]","Theta [deg]","re(rEPhi) [mV]","im(rEPhi) [mV]","re(rETheta) [mV]","im(rETheta) [mV]"
0.7118,180,90,45,54.736,4.19531724577919e-16,2.99675942950312e-17,1.88724626956802e-15,-1.48622062365094e-16
"Freq [GHz]","IWavePhi [deg]","IWaveTheta [deg]","Phi [deg]","Theta [deg]","re(rEPhi) [mV]","im(rEPhi) [mV]","re(rETheta) [mV]","im(rETheta) [mV]"
0.7118,180,90,135,54.736,-4.19544527892465e-16,-3.0337757995297e-17,1.8870543207836e-15,-1.48563183987441e-16
"Freq [GHz]","IWavePhi [deg]","IWaveTheta [deg]","Phi [deg]","Theta [deg]","re(rEPhi) [mV]","im(rEPhi) [mV]","re(rETheta) [mV]","im(rETheta) [mV]"
0.7118,180,90,-45,54.736,6.05743710936351e-16,1.97277598631583e-17,9.14012525659628e-16,-2.30252743332808e-16
"Freq [GHz]","IWavePhi [deg]","IWaveTheta [deg]","Phi [deg]","Theta [deg]","re(rEPhi) [mV]","im(rEPhi) [mV]","re(rETheta) [mV]","im(rETheta) [mV]"
0.7118,180,90,45,125.264,-4.2239376570643e-16,-2.86686808522058e-17,1.88935950699475e-15,-1.49764144909385e-16
"Freq [GHz]","IWavePhi [deg]","IWaveTheta [deg]","Phi [deg]","Theta [deg]","re(rEPhi) [mV]","im(rEPhi) [mV]","re(rETheta) [mV]","im(rETheta) [mV]"
0.7118,180,90,-135,54.736,-6.0590812180257e-16,-1.97461775831622e-17,9.14185081923362e-16,-2.30791110172286e-16
"Freq [GHz]","IWavePhi [deg]","IWaveTheta [deg]","Phi [deg]","Theta [deg]","re(rEPhi) [mV]","im(rEPhi) [mV]","re(rETheta) [mV]","im(rETheta) [mV]"
0.7118,180,90,-45,125.264,-6.09040295137856e-16,-1.71250527030715e-17,9.12409209821029e-16,-2.29270019114714e-16
"Freq [GHz]","IWavePhi [deg]","IWaveTheta [deg]","Phi [deg]","Theta [deg]","re(rEPhi) [mV]","im(rEPhi) [mV]","re(rETheta) [mV]","im(rETheta) [mV]"
0.7118,180,90,135,125.264,4.22575040879265e-16,2.84336286875761e-17,1.88899129604822e-15,-1.49871847047643e-16
"Freq [GHz]","IWavePhi [deg]","IWaveTheta [deg]","Phi [deg]","Theta [deg]","re(rEPhi) [mV]","im(rEPhi) [mV]","re(rETheta) [mV]","im(rETheta) [mV]"
0.7118,180,90,-135,125.264,6.08826066564673e-16,1.72366794515212e-17,9.12276715347122e-16,-2.29325796710168e-16
"Freq [GHz]","IWavePhi [deg]","IWaveTheta [deg]","Phi [deg]","Theta [deg]","re(rEPhi) [mV]","im(rEPhi) [mV]","re(rETheta) [mV]","im(rETheta) [mV]"
0.7118,180,90,0,90,-51.945760546118,60.335249208069,0.0106615922033364,-0.0242958189666164
"Freq [GHz]","IWavePhi [deg]","IWaveTheta [deg]","Phi [deg]","Theta [deg]","re(rEPhi) [mV]","im(rEPhi) [mV]","re(rETheta) [mV]","im(rETheta) [mV]"
0.7118,180,90,180,90,51.9807177367719,-60.3351326023239,-0.00360432319884635,-0.0193297822698256
"Freq [GHz]","IWavePhi [deg]","IWaveTheta [deg]","Phi [deg]","Theta [deg]","re(rEPhi) [mV]","im(rEPhi) [mV]","re(rETheta) [mV]","im(rETheta) [mV]"
0.7118,180,90,90,90,0.00518552815925454,0.00407101131176583,8.03278611227918,0.400725015604489
"Freq [GHz]","IWavePhi [deg]","IWaveTheta [deg]","Phi [deg]","Theta [deg]","re(rEPhi) [mV]","im(rEPhi) [mV]","re(rETheta) [mV]","im(rETheta) [mV]"
0.7118,180,90,-90,90,0.00339098637116026,0.00296182379855325,-8.01370270200263,-0.428314841920437
"Freq [GHz]","IWavePhi [deg]","IWaveTheta [deg]","Phi [deg]","Theta [deg]","re(rEPhi) [mV]","im(rEPhi) [mV]","re(rETheta) [mV]","im(rETheta) [mV]"
0.7118,180,90,0,0,-40.868294895434,56.2438502984625,-0.00484268389742496,0.00109040823669473
"Freq [GHz]","IWavePhi [deg]","IWaveTheta [deg]","Phi [deg]","Theta [deg]","re(rEPhi) [mV]","im(rEPhi) [mV]","re(rETheta) [mV]","im(rETheta) [mV]"
0.7118,180,90,0,180,-54.5797698297087,55.0478625990655,-0.00758945679118988,-0.005995858901144
"Freq [GHz]","IWavePhi [deg]","IWaveTheta [deg]","Phi [deg]","Theta [deg]","re(rEPhi) [mV]","im(rEPhi) [mV]","re(rETheta) [mV]","im(rETheta) [mV]"
0.7118,180,90,45,54.736,-31.3880203982848,39.7065836116705,-13.7531546689829,22.9919464469676
"Freq [GHz]","IWavePhi [deg]","IWaveTheta [deg]","Phi [deg]","Theta [deg]","re(rEPhi) [mV]","im(rEPhi) [mV]","re(rETheta) [mV]","im(rETheta) [mV]"
0.7118,180,90,135,54.736,31.3957717829243,-39.7086765676572,-13.7588806538502,22.9886107413974
"Freq [GHz]","IWavePhi [deg]","IWaveTheta [deg]","Phi [deg]","Theta [deg]","re(rEPhi) [mV]","im(rEPhi) [mV]","re(rETheta) [mV]","im(rETheta) [mV]"
0.7118,180,90,-45,54.736,-31.3995016582251,39.7218694376526,13.7627632773172,-23.0222717442862
"Freq [GHz]","IWavePhi [deg]","IWaveTheta [deg]","Phi [deg]","Theta [deg]","re(rEPhi) [mV]","im(rEPhi) [mV]","re(rETheta) [mV]","im(rETheta) [mV]"
0.7118,180,90,45,125.264,-36.8304393970006,39.269232859808,25.280546541767,-22.3563971907023
"Freq [GHz]","IWavePhi [deg]","IWaveTheta [deg]","Phi [deg]","Theta [deg]","re(rEPhi) [mV]","im(rEPhi) [mV]","re(rETheta) [mV]","im(rETheta) [mV]"
0.7118,180,90,-135,54.736,31.3689523436187,-39.7305880998528,13.7540036465626,-23.0322756928076
"Freq [GHz]","IWavePhi [deg]","IWaveTheta [deg]","Phi [deg]","Theta [deg]","re(rEPhi) [mV]","im(rEPhi) [mV]","re(rETheta) [mV]","im(rETheta) [mV]"
0.7118,180,90,-45,125.264,-36.8042011752131,39.2554775123127,-25.2505021864272,22.3331036173205
"Freq [GHz]","IWavePhi [deg]","IWaveTheta [deg]","Phi [deg]","Theta [deg]","re(rEPhi) [mV]","im(rEPhi) [mV]","re(rETheta) [mV]","im(rETheta) [mV]"
0.7118,180,90,135,125.264,36.816798137628,-39.2494764871111,25.277173760989,-22.3569042846125
"Freq [GHz]","IWavePhi [deg]","IWaveTheta [deg]","Phi [deg]","Theta [deg]","re(rEPhi) [mV]","im(rEPhi) [mV]","re(rETheta) [mV]","im(rETheta) [mV]"
0.7118,180,90,-135,125.264,36.8036587746249,-39.2519636833297,-25.2527396872816,22.32345352632
"Freq [GHz]","IWavePhi [deg]","IWaveTheta [deg]","Phi [deg]","Theta [deg]","re(rEPhi) [mV]","im(rEPhi) [mV]","re(rETheta) [mV]","im(rETheta) [mV]"
0.7118,180,90,0,90,-51.9620143330421,60.3230819515315,0.0139584020659514,-0.0164167590425915
"Freq [GHz]","IWavePhi [deg]","IWaveTheta [deg]","Phi [deg]","Theta [deg]","re(rEPhi) [mV]","im(rEPhi) [mV]","re(rETheta) [mV]","im(rETheta) [mV]"
0.7118,180,90,180,90,51.9957947587225,-60.3211754831251,0.00194133827973246,-0.0120800920470675
"Freq [GHz]","IWavePhi [deg]","IWaveTheta [deg]","Phi [deg]","Theta [deg]","re(rEPhi) [mV]","im(rEPhi) [mV]","re(rETheta) [mV]","im(rETheta) [mV]"
0.7118,180,90,90,90,0.0058767205050975,0.00477467570195996,-8.00372199125958,-0.409563467662738
"Freq [GHz]","IWavePhi [deg]","IWaveTheta [deg]","Phi [deg]","Theta [deg]","re(rEPhi) [mV]","im(rEPhi) [mV]","re(rETheta) [mV]","im(rETheta) [mV]"
0.7118,180,90,-90,90,0.00347666123794567,0.00186404378975505,8.02603173624037,0.388478761160271
"Freq [GHz]","IWavePhi [deg]","IWaveTheta [deg]","Phi [deg]","Theta [deg]","re(rEPhi) [mV]","im(rEPhi) [mV]","re(rETheta) [mV]","im(rETheta) [mV]"
0.7118,180,90,0,0,-54.6207476131808,55.0153488250905,-0.0046676690070071,0.00141819047175329
"Freq [GHz]","IWavePhi [deg]","IWaveTheta [deg]","Phi [deg]","Theta [deg]","re(rEPhi) [mV]","im(rEPhi) [mV]","re(rETheta) [mV]","im(rETheta) [mV]"
0.7118,180,90,0,180,-40.8579342884586,56.2508719751101,-0.00763652151838352,-0.00607520511948882
"Freq [GHz]","IWavePhi [deg]","IWaveTheta [deg]","Phi [deg]","Theta [deg]","re(rEPhi) [mV]","im(rEPhi) [mV]","re(rETheta) [mV]","im(rETheta) [mV]"
0.7118,180,90,45,54.736,-36.829148193111,39.2373505790193,-25.2655769664855,22.3309191525344
"Freq [GHz]","IWavePhi [deg]","IWaveTheta [deg]","Phi [deg]","Theta [deg]","re(rEPhi) [mV]","im(rEPhi) [mV]","re(rETheta) [mV]","im(rETheta) [mV]"
0.7118,180,90,135,54.736,36.8369920886088,-39.2358732778572,-25.2718798963031,22.3292031973692
"Freq [GHz]","IWavePhi [deg]","IWaveTheta [deg]","Phi [deg]","Theta [deg]","re(rEPhi) [mV]","im(rEPhi) [mV]","re(rETheta) [mV]","im(rETheta) [mV]"
0.7118,180,90,-45,54.736,-36.8422776769258,39.2481762259979,25.279099491285,-22.3545203029139
"Freq [GHz]","IWavePhi [deg]","IWaveTheta [deg]","Phi [deg]","Theta [deg]","re(rEPhi) [mV]","im(rEPhi) [mV]","re(rETheta) [mV]","im(rETheta) [mV]"
0.7118,180,90,45,125.264,-31.4074199376139,39.7235924256398,13.7799308840163,-23.0057220897558
"Freq [GHz]","IWavePhi [deg]","IWaveTheta [deg]","Phi [deg]","Theta [deg]","re(rEPhi) [mV]","im(rEPhi) [mV]","re(rETheta) [mV]","im(rETheta) [mV]"
0.7118,180,90,-135,54.736,36.8116520937853,-39.2575558573645,25.26903737142,-22.3609095824582
