"Freq [GHz]","IWavePhi [deg]","IWaveTheta [deg]","Phi [deg]","Theta [deg]","re(rEPhi) [mV]","im(rEPhi) [mV]","re(rETheta) [mV]","im(rETheta) [mV]"
1.6371,180,90,0,90,26.2391657758699,68.1296379963381,-0.0512752085943248,-0.0151270243394726
"Freq [GHz]","IWavePhi [deg]","IWaveTheta [deg]","Phi [deg]","Theta [deg]","re(rEPhi) [mV]","im(rEPhi) [mV]","re(rETheta) [mV]","im(rETheta) [mV]"
1.6371,180,90,180,90,-26.2410328491786,-68.2092142280263,-0.0456956723836,0.0424345569733643
"Freq [GHz]","IWavePhi [deg]","IWaveTheta [deg]","Phi [deg]","Theta [deg]","re(rEPhi) [mV]","im(rEPhi) [mV]","re(rETheta) [mV]","im(rETheta) [mV]"
1.6371,180,90,90,90,0.0189550933494872,-0.00700934969454081,-0.00594921319970971,-0.0690521655251589
"Freq [GHz]","IWavePhi [deg]","IWaveTheta [deg]","Phi [deg]","Theta [deg]","re(rEPhi) [mV]","im(rEPhi) [mV]","re(rETheta) [mV]","im(rETheta) [mV]"
1.6371,180,90,-90,90,0.0409438251274742,-0.0030759935356858,-0.00846963672680148,0.011660609159516
"Freq [GHz]","IWavePhi [deg]","IWaveTheta [deg]","Phi [deg]","Theta [deg]","re(rEPhi) [mV]","im(rEPhi) [mV]","re(rETheta) [mV]","im(rETheta) [mV]"
1.6371,180,90,0,0,12.6210071056561,43.9518083201643,0.0171826804024913,0.000224472620151037
"Freq [GHz]","IWavePhi [deg]","IWaveTheta [deg]","Phi [deg]","Theta [deg]","re(rEPhi) [mV]","im(rEPhi) [mV]","re(rETheta) [mV]","im(rETheta) [mV]"
1.6371,180,90,0,180,12.3734415529194,43.9500584169653,-0.0203524104758938,0.0182567317377904
"Freq [GHz]","IWavePhi [deg]","IWaveTheta [deg]","Phi [deg]","Theta [deg]","re(rEPhi) [mV]","im(rEPhi) [mV]","re(rETheta) [mV]","im(rETheta) [mV]"
1.6371,180,90,45,54.736,13.2814593731602,33.2016249696636,7.14032963703017,19.1812677602728
"Freq [GHz]","IWavePhi [deg]","IWaveTheta [deg]","Phi [deg]","Theta [deg]","re(rEPhi) [mV]","im(rEPhi) [mV]","re(rETheta) [mV]","im(rETheta) [mV]"
1.6371,180,90,135,54.736,-13.3347581066368,-33.1484461253324,7.21673867167488,19.2524052314062
"Freq [GHz]","IWavePhi [deg]","IWaveTheta [deg]","Phi [deg]","Theta [deg]","re(rEPhi) [mV]","im(rEPhi) [mV]","re(rETheta) [mV]","im(rETheta) [mV]"
1.6371,180,90,-45,54.736,13.2472408824481,33.1074179983335,-7.24508877880886,-19.1452368714869
"Freq [GHz]","IWavePhi [deg]","IWaveTheta [deg]","Phi [deg]","Theta [deg]","re(rEPhi) [mV]","im(rEPhi) [mV]","re(rETheta) [mV]","im(rETheta) [mV]"
1.6371,180,90,45,125.264,13.3587939021168,33.1487583818504,-7.32391824571586,-19.1927175099493
"Freq [GHz]","IWavePhi [deg]","IWaveTheta [deg]","Phi [deg]","Theta [deg]","re(rEPhi) [mV]","im(rEPhi) [mV]","re(rETheta) [mV]","im(rETheta) [mV]"
1.6371,180,90,-135,54.736,-13.1997668076707,-33.1265332348081,-7.22145040880951,-19.1196587673366
"Freq [GHz]","IWavePhi [deg]","IWaveTheta [deg]","Phi [deg]","Theta [deg]","re(rEPhi) [mV]","im(rEPhi) [mV]","re(rETheta) [mV]","im(rETheta) [mV]"
1.6371,180,90,-45,125.264,13.0488857172146,33.1396175736467,7.04782013337062,19.1491363140809
"Freq [GHz]","IWavePhi [deg]","IWaveTheta [deg]","Phi [deg]","Theta [deg]","re(rEPhi) [mV]","im(rEPhi) [mV]","re(rETheta) [mV]","im(rETheta) [mV]"
1.6371,180,90,135,125.264,-13.2731553642507,-33.1537013331077,-7.29759514340758,-19.2602597960742
"Freq [GHz]","IWavePhi [deg]","IWaveTheta [deg]","Phi [deg]","Theta [deg]","re(rEPhi) [mV]","im(rEPhi) [mV]","re(rETheta) [mV]","im(rETheta) [mV]"
1.6371,180,90,-135,125.264,-13.3885328795041,-33.0283351660605,7.19234218425978,19.0909600631398
"Freq [GHz]","IWavePhi [deg]","IWaveTheta [deg]","Phi [deg]","Theta [deg]","re(rEPhi) [mV]","im(rEPhi) [mV]","re(rETheta) [mV]","im(rETheta) [mV]"
1.6371,180,90,62.632,90,9.12929094521438,17.6949873933988,-0.0337456413587714,-0.0170221364327671
"Freq [GHz]","IWavePhi [deg]","IWaveTheta [deg]","Phi [deg]","Theta [deg]","re(rEPhi) [mV]","im(rEPhi) [mV]","re(rETheta) [mV]","im(rETheta) [mV]"
1.6371,180,90,117.368,90,-9.03634926919008,-17.5868559274231,-0.0587519482448773,-0.0600830822050916
"Freq [GHz]","IWavePhi [deg]","IWaveTheta [deg]","Phi [deg]","Theta [deg]","re(rEPhi) [mV]","im(rEPhi) [mV]","re(rETheta) [mV]","im(rETheta) [mV]"
1.6371,180,90,-62.632,90,9.16595920447967,17.8208847778218,-0.0345702294399923,0.0144320555542064
"Freq [GHz]","IWavePhi [deg]","IWaveTheta [deg]","Phi [deg]","Theta [deg]","re(rEPhi) [mV]","im(rEPhi) [mV]","re(rETheta) [mV]","im(rETheta) [mV]"
1.6371,180,90,-117.368,90,-9.02781961234629,-17.6031151245211,0.00338497651451645,-0.0550503165085545
"Freq [GHz]","IWavePhi [deg]","IWaveTheta [deg]","Phi [deg]","Theta [deg]","re(rEPhi) [mV]","im(rEPhi) [mV]","re(rETheta) [mV]","im(rETheta) [mV]"
1.6371,180,90,27.368,90,20.5179820514364,52.0609676741251,-0.0919642150174576,-0.00329472918606946
"Freq [GHz]","IWavePhi [deg]","IWaveTheta [deg]","Phi [deg]","Theta [deg]","re(rEPhi) [mV]","im(rEPhi) [mV]","re(rETheta) [mV]","im(rETheta) [mV]"
1.6371,180,90,152.632,90,-20.6765052336117,-52.0194861275319,-0.090432123933475,-0.0110542606515644
"Freq [GHz]","IWavePhi [deg]","IWaveTheta [deg]","Phi [deg]","Theta [deg]","re(rEPhi) [mV]","im(rEPhi) [mV]","re(rETheta) [mV]","im(rETheta) [mV]"
1.6371,180,90,-27.368,90,20.8009467377789,52.1821661096606,-0.081425445452468,0.0177897570876127
"Freq [GHz]","IWavePhi [deg]","IWaveTheta [deg]","Phi [deg]","Theta [deg]","re(rEPhi) [mV]","im(rEPhi) [mV]","re(rETheta) [mV]","im(rETheta) [mV]"
1.6371,180,90,-152.632,90,-20.7442149206012,-52.0162009761783,-0.0495378908030369,-0.0443669593294152
"Freq [GHz]","IWavePhi [deg]","IWaveTheta [deg]","Phi [deg]","Theta [deg]","re(rEPhi) [mV]","im(rEPhi) [mV]","re(rETheta) [mV]","im(rETheta) [mV]"
1.6371,180,90,0,27.368,14.1794163967988,48.2477173626436,0.00978230044573932,0.00362941609458627
"Freq [GHz]","IWavePhi [deg]","IWaveTheta [deg]","Phi [deg]","Theta [deg]","re(rEPhi) [mV]","im(rEPhi) [mV]","re(rETheta) [mV]","im(rETheta) [mV]"
1.6371,180,90,180,27.368,-14.3109955243099,-48.1681738725065,0.0182362718415602,-0.0046471426778229
"Freq [GHz]","IWavePhi [deg]","IWaveTheta [deg]","Phi [deg]","Theta [deg]","re(rEPhi) [mV]","im(rEPhi) [mV]","re(rETheta) [mV]","im(rETheta) [mV]"
1.6371,180,90,0,152.632,14.2776138285721,48.0744069734206,-0.0349744241313701,-0.0106152687829129
"Freq [GHz]","IWavePhi [deg]","IWaveTheta [deg]","Phi [deg]","Theta [deg]","re(rEPhi) [mV]","im(rEPhi) [mV]","re(rETheta) [mV]","im(rETheta) [mV]"
1.6371,180,90,180,152.632,-14.3795290493148,-48.2817148872777,-0.00958331469895625,0.0329091383860295
"Freq [GHz]","IWavePhi [deg]","IWaveTheta [deg]","Phi [deg]","Theta [deg]","re(rEPhi) [mV]","im(rEPhi) [mV]","re(rETheta) [mV]","im(rETheta) [mV]"
1.6371,180,90,0,62.632,22.0058867775948,62.0254981633025,-0.0946677148644126,-0.00601808105211985
"Freq [GHz]","IWavePhi [deg]","IWaveTheta [deg]","Phi [deg]","Theta [deg]","re(rEPhi) [mV]","im(rEPhi) [mV]","re(rETheta) [mV]","im(rETheta) [mV]"
1.6371,180,90,180,62.632,-22.0784345425054,-62.0610672059488,-0.0425167891617121,-0.0681606404180964
"Freq [GHz]","IWavePhi [deg]","IWaveTheta [deg]","Phi [deg]","Theta [deg]","re(rEPhi) [mV]","im(rEPhi) [mV]","re(rETheta) [mV]","im(rETheta) [mV]"
1.6371,180,90,0,117.368,22.1705735334138,62.0206041128327,-0.0742125882050944,-0.0067091602636355
"Freq [GHz]","IWavePhi [deg]","IWaveTheta [deg]","Phi [deg]","Theta [deg]","re(rEPhi) [mV]","im(rEPhi) [mV]","re(rETheta) [mV]","im(rETheta) [mV]"
1.6371,180,90,180,117.368,-22.0906758535852,-61.8002216849819,-0.0761846909310539,-0.104371519141273
"Freq [GHz]","IWavePhi [deg]","IWaveTheta [deg]","Phi [deg]","Theta [deg]","re(rEPhi) [mV]","im(rEPhi) [mV]","re(rETheta) [mV]","im(rETheta) [mV]"
1.6371,180,90,90,27.368,-0.00848538354137675,-0.0145993568568463,11.8884152165818,37.2822555197527
"Freq [GHz]","IWavePhi [deg]","IWaveTheta [deg]","Phi [deg]","Theta [deg]","re(rEPhi) [mV]","im(rEPhi) [mV]","re(rETheta) [mV]","im(rETheta) [mV]"
1.6371,180,90,-90,27.368,-0.00168571713458043,-0.0467221853748244,-11.7028653514281,-37.2724437169802
"Freq [GHz]","IWavePhi [deg]","IWaveTheta [deg]","Phi [deg]","Theta [deg]","re(rEPhi) [mV]","im(rEPhi) [mV]","re(rETheta) [mV]","im(rETheta) [mV]"
1.6371,180,90,90,152.632,-0.0450453395018052,-0.0393682314345429,-11.8979373293141,-37.3792908241325
"Freq [GHz]","IWavePhi [deg]","IWaveTheta [deg]","Phi [deg]","Theta [deg]","re(rEPhi) [mV]","im(rEPhi) [mV]","re(rETheta) [mV]","im(rETheta) [mV]"
1.6371,180,90,-90,152.632,1.94136777002773e-05,-0.0250118039309289,11.7960188304729,37.2046032371869
"Freq [GHz]","IWavePhi [deg]","IWaveTheta [deg]","Phi [deg]","Theta [deg]","re(rEPhi) [mV]","im(rEPhi) [mV]","re(rETheta) [mV]","im(rETheta) [mV]"
1.6371,180,90,90,62.632,0.0237968942359563,0.0199676671938901,7.74809882572247,16.2803466452732
"Freq [GHz]","IWavePhi [deg]","IWaveTheta [deg]","Phi [deg]","Theta [deg]","re(rEPhi) [mV]","im(rEPhi) [mV]","re(rETheta) [mV]","im(rETheta) [mV]"
1.6371,180,90,-90,62.632,-0.00588764547278747,-0.0310034376985576,-7.71974121080813,-16.2764816196226
"Freq [GHz]","IWavePhi [deg]","IWaveTheta [deg]","Phi [deg]","Theta [deg]","re(rEPhi) [mV]","im(rEPhi) [mV]","re(rETheta) [mV]","im(rETheta) [mV]"
1.6371,180,90,90,117.368,-0.0145279446698233,-0.0721422588549605,-7.80964244475901,-16.2799359110228
"Freq [GHz]","IWavePhi [deg]","IWaveTheta [deg]","Phi [deg]","Theta [deg]","re(rEPhi) [mV]","im(rEPhi) [mV]","re(rETheta) [mV]","im(rETheta) [mV]"
1.6371,180,90,-90,117.368,-0.0221033178378573,-0.00691455052303868,7.73267177982826,16.1957071210764
"Freq [GHz]","IWavePhi [deg]","IWaveTheta [deg]","Phi [deg]","Theta [deg]","re(rEPhi) [mV]","im(rEPhi) [mV]","re(rETheta) [mV]","im(rETheta) [mV]"
1.6371,180,90,0,90,-26.2391657758699,-68.1296379963381,0.0512752085933399,0.015127024343948
"Freq [GHz]","IWavePhi [deg]","IWaveTheta [deg]","Phi [deg]","Theta [deg]","re(rEPhi) [mV]","im(rEPhi) [mV]","re(rETheta) [mV]","im(rETheta) [mV]"
1.6371,180,90,180,90,26.2410328491786,68.2092142280263,0.045695672384585,-0.0424345569688889
"Freq [GHz]","IWavePhi [deg]","IWaveTheta [deg]","Phi [deg]","Theta [deg]","re(rEPhi) [mV]","im(rEPhi) [mV]","re(rETheta) [mV]","im(rETheta) [mV]"
1.6371,180,90,90,90,-0.0189550933494878,0.00700934969454081,0.00594921320265668,0.0690521655286682
"Freq [GHz]","IWavePhi [deg]","IWaveTheta [deg]","Phi [deg]","Theta [deg]","re(rEPhi) [mV]","im(rEPhi) [mV]","re(rETheta) [mV]","im(rETheta) [mV]"
1.6371,180,90,-90,90,-0.0409438251274748,0.0030759935356858,0.00846963672385466,-0.0116606091560069
"Freq [GHz]","IWavePhi [deg]","IWaveTheta [deg]","Phi [deg]","Theta [deg]","re(rEPhi) [mV]","im(rEPhi) [mV]","re(rETheta) [mV]","im(rETheta) [mV]"
1.6371,180,90,0,0,-12.6210071056561,-43.9518083201643,-0.0171826804024913,-0.000224472620150445
"Freq [GHz]","IWavePhi [deg]","IWaveTheta [deg]","Phi [deg]","Theta [deg]","re(rEPhi) [mV]","im(rEPhi) [mV]","re(rETheta) [mV]","im(rETheta) [mV]"
1.6371,180,90,0,180,-12.3734415529194,-43.9500584169653,0.0203524104758936,-0.018256731737791
"Freq [GHz]","IWavePhi [deg]","IWaveTheta [deg]","Phi [deg]","Theta [deg]","re(rEPhi) [mV]","im(rEPhi) [mV]","re(rETheta) [mV]","im(rETheta) [mV]"
1.6371,180,90,45,54.736,-13.2814593731602,-33.2016249696636,-7.14032963702826,-19.181267760276
"Freq [GHz]","IWavePhi [deg]","IWaveTheta [deg]","Phi [deg]","Theta [deg]","re(rEPhi) [mV]","im(rEPhi) [mV]","re(rETheta) [mV]","im(rETheta) [mV]"
1.6371,180,90,135,54.736,13.3347581066368,33.1484461253324,-7.21673867167143,-19.2524052314048
"Freq [GHz]","IWavePhi [deg]","IWaveTheta [deg]","Phi [deg]","Theta [deg]","re(rEPhi) [mV]","im(rEPhi) [mV]","re(rETheta) [mV]","im(rETheta) [mV]"
1.6371,180,90,-45,54.736,-13.2472408824481,-33.1074179983335,7.24508877880603,19.1452368714893
"Freq [GHz]","IWavePhi [deg]","IWaveTheta [deg]","Phi [deg]","Theta [deg]","re(rEPhi) [mV]","im(rEPhi) [mV]","re(rETheta) [mV]","im(rETheta) [mV]"
1.6371,180,90,45,125.264,-13.3587939021168,-33.1487583818504,7.32391824571868,19.1927175099468
"Freq [GHz]","IWavePhi [deg]","IWaveTheta [deg]","Phi [deg]","Theta [deg]","re(rEPhi) [mV]","im(rEPhi) [mV]","re(rETheta) [mV]","im(rETheta) [mV]"
1.6371,180,90,-135,54.736,13.1997668076707,33.1265332348081,7.22145040880669,19.1196587673341
"Freq [GHz]","IWavePhi [deg]","IWaveTheta [deg]","Phi [deg]","Theta [deg]","re(rEPhi) [mV]","im(rEPhi) [mV]","re(rETheta) [mV]","im(rETheta) [mV]"
1.6371,180,90,-45,125.264,-13.0488857172146,-33.1396175736467,-7.04782013337407,-19.1491363140794
"Freq [GHz]","IWavePhi [deg]","IWaveTheta [deg]","Phi [deg]","Theta [deg]","re(rEPhi) [mV]","im(rEPhi) [mV]","re(rETheta) [mV]","im(rETheta) [mV]"
1.6371,180,90,135,125.264,13.2731553642507,33.1537013331077,7.29759514341041,19.2602597960767
"Freq [GHz]","IWavePhi [deg]","IWaveTheta [deg]","Phi [deg]","Theta [deg]","re(rEPhi) [mV]","im(rEPhi) [mV]","re(rETheta) [mV]","im(rETheta) [mV]"
1.6371,180,90,-135,125.264,13.3885328795041,33.0283351660605,-7.19234218426169,-19.090960063143
"Freq [GHz]","IWavePhi [deg]","IWaveTheta [deg]","Phi [deg]","Theta [deg]","re(rEPhi) [mV]","im(rEPhi) [mV]","re(rETheta) [mV]","im(rETheta) [mV]"
1.6371,180,90,62.632,90,-9.12929094521438,-17.6949873933988,0.0337456413602068,0.0170221364284153
"Freq [GHz]","IWavePhi [deg]","IWaveTheta [deg]","Phi [deg]","Theta [deg]","re(rEPhi) [mV]","im(rEPhi) [mV]","re(rETheta) [mV]","im(rETheta) [mV]"
1.6371,180,90,117.368,90,9.03634926919008,17.5868559274231,0.0587519482413483,0.0600830822080147
"Freq [GHz]","IWavePhi [deg]","IWaveTheta [deg]","Phi [deg]","Theta [deg]","re(rEPhi) [mV]","im(rEPhi) [mV]","re(rETheta) [mV]","im(rETheta) [mV]"
1.6371,180,90,-62.632,90,-9.16595920447967,-17.8208847778218,0.0345702294435214,-0.0144320555512832
"Freq [GHz]","IWavePhi [deg]","IWaveTheta [deg]","Phi [deg]","Theta [deg]","re(rEPhi) [mV]","im(rEPhi) [mV]","re(rETheta) [mV]","im(rETheta) [mV]"
1.6371,180,90,-117.368,90,9.02781961234629,17.6031151245211,-0.00338497651595211,0.0550503165042028
"Freq [GHz]","IWavePhi [deg]","IWaveTheta [deg]","Phi [deg]","Theta [deg]","re(rEPhi) [mV]","im(rEPhi) [mV]","re(rETheta) [mV]","im(rETheta) [mV]"
1.6371,180,90,27.368,90,-20.5179820514364,-52.0609676741251,0.0919642150162769,0.00329472919049723
"Freq [GHz]","IWavePhi [deg]","IWaveTheta [deg]","Phi [deg]","Theta [deg]","re(rEPhi) [mV]","im(rEPhi) [mV]","re(rETheta) [mV]","im(rETheta) [mV]"
1.6371,180,90,152.632,90,20.6765052336117,52.0194861275319,0.0904321239292812,0.0110542606497176
"Freq [GHz]","IWavePhi [deg]","IWaveTheta [deg]","Phi [deg]","Theta [deg]","re(rEPhi) [mV]","im(rEPhi) [mV]","re(rETheta) [mV]","im(rETheta) [mV]"
1.6371,180,90,-27.368,90,-20.8009467377789,-52.1821661096606,0.0814254454566619,-0.0177897570894595
"Freq [GHz]","IWavePhi [deg]","IWaveTheta [deg]","Phi [deg]","Theta [deg]","re(rEPhi) [mV]","im(rEPhi) [mV]","re(rETheta) [mV]","im(rETheta) [mV]"
1.6371,180,90,-152.632,90,20.7442149206012,52.0162009761783,0.0495378908042176,0.0443669593338429
"Freq [GHz]","IWavePhi [deg]","IWaveTheta [deg]","Phi [deg]","Theta [deg]","re(rEPhi) [mV]","im(rEPhi) [mV]","re(rETheta) [mV]","im(rETheta) [mV]"
1.6371,180,90,0,27.368,-14.1794163967988,-48.2477173626436,-0.00978230044756463,-0.00362941609353337
"Freq [GHz]","IWavePhi [deg]","IWaveTheta [deg]","Phi [deg]","Theta [deg]","re(rEPhi) [mV]","im(rEPhi) [mV]","re(rETheta) [mV]","im(rETheta) [mV]"
1.6371,180,90,180,27.368,14.3109955243099,48.1681738725065,-0.0182362718394556,0.00464714267790164
"Freq [GHz]","IWavePhi [deg]","IWaveTheta [deg]","Phi [deg]","Theta [deg]","re(rEPhi) [mV]","im(rEPhi) [mV]","re(rETheta) [mV]","im(rETheta) [mV]"
1.6371,180,90,0,152.632,-14.2776138285721,-48.0744069734206,0.0349744241292654,0.0106152687829916
"Freq [GHz]","IWavePhi [deg]","IWaveTheta [deg]","Phi [deg]","Theta [deg]","re(rEPhi) [mV]","im(rEPhi) [mV]","re(rETheta) [mV]","im(rETheta) [mV]"
1.6371,180,90,180,152.632,14.3795290493148,48.2817148872777,0.00958331470078186,-0.0329091383849764
"Freq [GHz]","IWavePhi [deg]","IWaveTheta [deg]","Phi [deg]","Theta [deg]","re(rEPhi) [mV]","im(rEPhi) [mV]","re(rETheta) [mV]","im(rETheta) [mV]"
1.6371,180,90,0,62.632,-22.0058867775948,-62.0254981633025,0.0946677148678111,0.00601808105435842
"Freq [GHz]","IWavePhi [deg]","IWaveTheta [deg]","Phi [deg]","Theta [deg]","re(rEPhi) [mV]","im(rEPhi) [mV]","re(rETheta) [mV]","im(rETheta) [mV]"
1.6371,180,90,180,62.632,22.0784345425054,62.0610672059488,0.0425167891589776,0.0681606404211106
"Freq [GHz]","IWavePhi [deg]","IWaveTheta [deg]","Phi [deg]","Theta [deg]","re(rEPhi) [mV]","im(rEPhi) [mV]","re(rETheta) [mV]","im(rETheta) [mV]"
1.6371,180,90,0,117.368,-22.1705735334138,-62.0206041128327,0.074212588207829,0.00670916026664967
"Freq [GHz]","IWavePhi [deg]","IWaveTheta [deg]","Phi [deg]","Theta [deg]","re(rEPhi) [mV]","im(rEPhi) [mV]","re(rETheta) [mV]","im(rETheta) [mV]"
1.6371,180,90,180,117.368,22.0906758535852,61.8002216849819,0.0761846909276552,0.104371519143511
"Freq [GHz]","IWavePhi [deg]","IWaveTheta [deg]","Phi [deg]","Theta [deg]","re(rEPhi) [mV]","im(rEPhi) [mV]","re(rETheta) [mV]","im(rETheta) [mV]"
1.6371,180,90,90,27.368,0.00848538354137648,0.0145993568568455,-11.8884152165802,-37.2822555197541
"Freq [GHz]","IWavePhi [deg]","IWaveTheta [deg]","Phi [deg]","Theta [deg]","re(rEPhi) [mV]","im(rEPhi) [mV]","re(rETheta) [mV]","im(rETheta) [mV]"
1.6371,180,90,-90,27.368,0.00168571713458096,0.0467221853748246,11.702865351426,37.2724437169798
"Freq [GHz]","IWavePhi [deg]","IWaveTheta [deg]","Phi [deg]","Theta [deg]","re(rEPhi) [mV]","im(rEPhi) [mV]","re(rETheta) [mV]","im(rETheta) [mV]"
1.6371,180,90,90,152.632,0.045045339501806,0.0393682314345429,11.8979373293162,37.3792908241321
"Freq [GHz]","IWavePhi [deg]","IWaveTheta [deg]","Phi [deg]","Theta [deg]","re(rEPhi) [mV]","im(rEPhi) [mV]","re(rETheta) [mV]","im(rETheta) [mV]"
1.6371,180,90,-90,152.632,-1.94136777002773e-05,0.0250118039309297,-11.7960188304746,-37.2046032371882
"Freq [GHz]","IWavePhi [deg]","IWaveTheta [deg]","Phi [deg]","Theta [deg]","re(rEPhi) [mV]","im(rEPhi) [mV]","re(rETheta) [mV]","im(rETheta) [mV]"
1.6371,180,90,90,62.632,-0.0237968942359562,-0.0199676671938894,-7.74809882571885,-16.2803466452714
"Freq [GHz]","IWavePhi [deg]","IWaveTheta [deg]","Phi [deg]","Theta [deg]","re(rEPhi) [mV]","im(rEPhi) [mV]","re(rETheta) [mV]","im(rETheta) [mV]"
1.6371,180,90,-90,62.632,0.00588764547278747,0.0310034376985588,7.71974121080508,16.2764816196253
"Freq [GHz]","IWavePhi [deg]","IWaveTheta [deg]","Phi [deg]","Theta [deg]","re(rEPhi) [mV]","im(rEPhi) [mV]","re(rETheta) [mV]","im(rETheta) [mV]"
1.6371,180,90,90,117.368,0.0145279446698233,0.0721422588549598,7.80964244476206,16.2799359110255
"Freq [GHz]","IWavePhi [deg]","IWaveTheta [deg]","Phi [deg]","Theta [deg]","re(rEPhi) [mV]","im(rEPhi) [mV]","re(rETheta) [mV]","im(rETheta) [mV]"
1.6371,180,90,-90,117.368,0.0221033178378579,0.006914550523038,-7.73267177983188,-16.1957071210746
"Freq [GHz]","IWavePhi [deg]","IWaveTheta [deg]","Phi [deg]","Theta [deg]","re(rEPhi) [mV]","im(rEPhi) [mV]","re(rETheta) [mV]","im(rETheta) [mV]"
1.6371,180,90,0,90,2.27117208410695e-15,3.99788705116755e-15,-1.42893815849035e-15,3.38920000859382e-16
"Freq [GHz]","IWavePhi [deg]","IWaveTheta [deg]","Phi [deg]","Theta [deg]","re(rEPhi) [mV]","im(rEPhi) [mV]","re(rETheta) [mV]","im(rETheta) [mV]"
1.6371,180,90,180,90,-2.28502704695184e-15,-3.99499805094905e-15,-1.40992541404049e-15,3.21405580224765e-16
"Freq [GHz]","IWavePhi [deg]","IWaveTheta [deg]","Phi [deg]","Theta [deg]","re(rEPhi) [mV]","im(rEPhi) [mV]","re(rETheta) [mV]","im(rETheta) [mV]"
1.6371,180,90,90,90,6.3875898870898e-18,-8.5653067221114e-19,-3.11920116634925e-15,5.62131264210828e-15
"Freq [GHz]","IWavePhi [deg]","IWaveTheta [deg]","Phi [deg]","Theta [deg]","re(rEPhi) [mV]","im(rEPhi) [mV]","re(rETheta) [mV]","im(rETheta) [mV]"
1.6371,180,90,-90,90,-6.54550965471198e-18,-1.00754194632497e-18,4.16296341783421e-15,-4.82567631422062e-15
"Freq [GHz]","IWavePhi [deg]","IWaveTheta [deg]","Phi [deg]","Theta [deg]","re(rEPhi) [mV]","im(rEPhi) [mV]","re(rETheta) [mV]","im(rETheta) [mV]"
1.6371,180,90,0,0,4.81880969230195e-15,-7.01143468365479e-16,-3.43160736958444e-19,7.91007616794155e-18
