"Freq [GHz]","IWavePhi [deg]","IWaveTheta [deg]","Phi [deg]","Theta [deg]","re(rEPhi) [mV]","im(rEPhi) [mV]","re(rETheta) [mV]","im(rETheta) [mV]"
0.7118,180,90,0,90,-57.1443848436957,66.73767067713,0.00389420353765843,0.000982453576126275
"Freq [GHz]","IWavePhi [deg]","IWaveTheta [deg]","Phi [deg]","Theta [deg]","re(rEPhi) [mV]","im(rEPhi) [mV]","re(rETheta) [mV]","im(rETheta) [mV]"
0.7118,180,90,180,90,57.1334160860211,-66.7498611998585,0.0100802893517147,-0.00723867760376554
"Freq [GHz]","IWavePhi [deg]","IWaveTheta [deg]","Phi [deg]","Theta [deg]","re(rEPhi) [mV]","im(rEPhi) [mV]","re(rETheta) [mV]","im(rETheta) [mV]"
0.7118,180,90,90,90,-0.0119396234227713,-0.00124861071025029,-0.00775988996089875,-0.00402123753661924
"Freq [GHz]","IWavePhi [deg]","IWaveTheta [deg]","Phi [deg]","Theta [deg]","re(rEPhi) [mV]","im(rEPhi) [mV]","re(rETheta) [mV]","im(rETheta) [mV]"
0.7118,180,90,-90,90,0.0193757433796326,-0.00756608121662156,-0.0151611198319505,0.00758796424981887
"Freq [GHz]","IWavePhi [deg]","IWaveTheta [deg]","Phi [deg]","Theta [deg]","re(rEPhi) [mV]","im(rEPhi) [mV]","re(rETheta) [mV]","im(rETheta) [mV]"
0.7118,180,90,0,0,-52.9473026172779,61.4792852584351,0.0216300654527075,0.00442899410965822
"Freq [GHz]","IWavePhi [deg]","IWaveTheta [deg]","Phi [deg]","Theta [deg]","re(rEPhi) [mV]","im(rEPhi) [mV]","re(rETheta) [mV]","im(rETheta) [mV]"
0.7118,180,90,0,180,-52.937404797768,61.5707937175911,-0.0327463753143876,-0.0181922627308713
"Freq [GHz]","IWavePhi [deg]","IWaveTheta [deg]","Phi [deg]","Theta [deg]","re(rEPhi) [mV]","im(rEPhi) [mV]","re(rETheta) [mV]","im(rETheta) [mV]"
0.7118,180,90,45,54.736,-37.6333968548679,43.6793228468005,-21.644105335095,25.1023247483545
"Freq [GHz]","IWavePhi [deg]","IWaveTheta [deg]","Phi [deg]","Theta [deg]","re(rEPhi) [mV]","im(rEPhi) [mV]","re(rETheta) [mV]","im(rETheta) [mV]"
0.7118,180,90,135,54.736,37.5639218346941,-43.6885902584771,-21.6264915655734,25.1182003857151
"Freq [GHz]","IWavePhi [deg]","IWaveTheta [deg]","Phi [deg]","Theta [deg]","re(rEPhi) [mV]","im(rEPhi) [mV]","re(rETheta) [mV]","im(rETheta) [mV]"
0.7118,180,90,-45,54.736,-37.6691667607374,43.742221649344,21.6871972543377,-25.0749124537017
"Freq [GHz]","IWavePhi [deg]","IWaveTheta [deg]","Phi [deg]","Theta [deg]","re(rEPhi) [mV]","im(rEPhi) [mV]","re(rETheta) [mV]","im(rETheta) [mV]"
0.7118,180,90,45,125.264,-37.6174209516282,43.7081954031897,21.659711269982,-25.1291444121592
"Freq [GHz]","IWavePhi [deg]","IWaveTheta [deg]","Phi [deg]","Theta [deg]","re(rEPhi) [mV]","im(rEPhi) [mV]","re(rETheta) [mV]","im(rETheta) [mV]"
0.7118,180,90,-135,54.736,37.6443469103574,-43.7646976534317,21.6619711629594,-25.116451013046
"Freq [GHz]","IWavePhi [deg]","IWaveTheta [deg]","Phi [deg]","Theta [deg]","re(rEPhi) [mV]","im(rEPhi) [mV]","re(rETheta) [mV]","im(rETheta) [mV]"
0.7118,180,90,-45,125.264,-37.5689753023491,43.7963101354178,-21.6239264492147,25.0975324731582
"Freq [GHz]","IWavePhi [deg]","IWaveTheta [deg]","Phi [deg]","Theta [deg]","re(rEPhi) [mV]","im(rEPhi) [mV]","re(rETheta) [mV]","im(rETheta) [mV]"
0.7118,180,90,135,125.264,37.6511760799817,-43.7314880722745,21.6813799345132,-25.1464925948783
"Freq [GHz]","IWavePhi [deg]","IWaveTheta [deg]","Phi [deg]","Theta [deg]","re(rEPhi) [mV]","im(rEPhi) [mV]","re(rETheta) [mV]","im(rETheta) [mV]"
0.7118,180,90,-135,125.264,37.6553535801653,-43.7754596421758,-21.6477649798857,25.1149410845283
"Freq [GHz]","IWavePhi [deg]","IWaveTheta [deg]","Phi [deg]","Theta [deg]","re(rEPhi) [mV]","im(rEPhi) [mV]","re(rETheta) [mV]","im(rETheta) [mV]"
0.7118,180,90,62.632,90,-23.4954967041406,27.3053572340716,-0.0247771031326484,-0.0580621260305774
"Freq [GHz]","IWavePhi [deg]","IWaveTheta [deg]","Phi [deg]","Theta [deg]","re(rEPhi) [mV]","im(rEPhi) [mV]","re(rETheta) [mV]","im(rETheta) [mV]"
0.7118,180,90,117.368,90,23.5358231399305,-27.27577745628,0.0258051822515399,0.0238156354752472
"Freq [GHz]","IWavePhi [deg]","IWaveTheta [deg]","Phi [deg]","Theta [deg]","re(rEPhi) [mV]","im(rEPhi) [mV]","re(rETheta) [mV]","im(rETheta) [mV]"
0.7118,180,90,-62.632,90,-23.5289333809862,27.2529592835696,0.0195059948443448,-0.0206823049480835
"Freq [GHz]","IWavePhi [deg]","IWaveTheta [deg]","Phi [deg]","Theta [deg]","re(rEPhi) [mV]","im(rEPhi) [mV]","re(rETheta) [mV]","im(rETheta) [mV]"
0.7118,180,90,-117.368,90,23.5077868008145,-27.2194975932643,-0.0391886032917225,0.0378454094651586
"Freq [GHz]","IWavePhi [deg]","IWaveTheta [deg]","Phi [deg]","Theta [deg]","re(rEPhi) [mV]","im(rEPhi) [mV]","re(rETheta) [mV]","im(rETheta) [mV]"
0.7118,180,90,27.368,90,-49.2222754078997,57.4109216664523,0.021622837663117,0.00654256914512879
"Freq [GHz]","IWavePhi [deg]","IWaveTheta [deg]","Phi [deg]","Theta [deg]","re(rEPhi) [mV]","im(rEPhi) [mV]","re(rETheta) [mV]","im(rETheta) [mV]"
0.7118,180,90,152.632,90,49.3144386531555,-57.4334226674741,-0.00415735565543394,0.00535511196951076
"Freq [GHz]","IWavePhi [deg]","IWaveTheta [deg]","Phi [deg]","Theta [deg]","re(rEPhi) [mV]","im(rEPhi) [mV]","re(rETheta) [mV]","im(rETheta) [mV]"
0.7118,180,90,-27.368,90,-49.3342638108901,57.4715725393129,0.00176483785253923,-0.0256546268545193
"Freq [GHz]","IWavePhi [deg]","IWaveTheta [deg]","Phi [deg]","Theta [deg]","re(rEPhi) [mV]","im(rEPhi) [mV]","re(rETheta) [mV]","im(rETheta) [mV]"
0.7118,180,90,-152.632,90,49.2421909468239,-57.5091640915653,0.0177755730617814,-0.0219901919411537
"Freq [GHz]","IWavePhi [deg]","IWaveTheta [deg]","Phi [deg]","Theta [deg]","re(rEPhi) [mV]","im(rEPhi) [mV]","re(rETheta) [mV]","im(rETheta) [mV]"
0.7118,180,90,0,27.368,-53.7894921448625,62.6075450962235,-0.00401050309836641,-0.00491593440604367
"Freq [GHz]","IWavePhi [deg]","IWaveTheta [deg]","Phi [deg]","Theta [deg]","re(rEPhi) [mV]","im(rEPhi) [mV]","re(rETheta) [mV]","im(rETheta) [mV]"
0.7118,180,90,180,27.368,53.8679022094628,-62.5761734069957,0.0308305484830873,-0.0301732693875681
"Freq [GHz]","IWavePhi [deg]","IWaveTheta [deg]","Phi [deg]","Theta [deg]","re(rEPhi) [mV]","im(rEPhi) [mV]","re(rETheta) [mV]","im(rETheta) [mV]"
0.7118,180,90,0,152.632,-53.8640607232082,62.6196302414268,0.0151664288366008,0.0353778041935486
"Freq [GHz]","IWavePhi [deg]","IWaveTheta [deg]","Phi [deg]","Theta [deg]","re(rEPhi) [mV]","im(rEPhi) [mV]","re(rETheta) [mV]","im(rETheta) [mV]"
0.7118,180,90,180,152.632,53.7813546359754,-62.6011457256887,-0.00482684206912826,-0.00186328228910878
"Freq [GHz]","IWavePhi [deg]","IWaveTheta [deg]","Phi [deg]","Theta [deg]","re(rEPhi) [mV]","im(rEPhi) [mV]","re(rETheta) [mV]","im(rETheta) [mV]"
0.7118,180,90,0,62.632,-56.2592668777515,65.6526456459227,0.00544961993060374,-0.0504027699986586
"Freq [GHz]","IWavePhi [deg]","IWaveTheta [deg]","Phi [deg]","Theta [deg]","re(rEPhi) [mV]","im(rEPhi) [mV]","re(rETheta) [mV]","im(rETheta) [mV]"
0.7118,180,90,180,62.632,56.330590035447,-65.5913663095943,-0.00320180063410718,-0.000579105968973723
"Freq [GHz]","IWavePhi [deg]","IWaveTheta [deg]","Phi [deg]","Theta [deg]","re(rEPhi) [mV]","im(rEPhi) [mV]","re(rETheta) [mV]","im(rETheta) [mV]"
0.7118,180,90,0,117.368,-56.3328841280868,65.664568807563,-0.0068959682737674,0.00353224837871626
"Freq [GHz]","IWavePhi [deg]","IWaveTheta [deg]","Phi [deg]","Theta [deg]","re(rEPhi) [mV]","im(rEPhi) [mV]","re(rETheta) [mV]","im(rETheta) [mV]"
0.7118,180,90,180,117.368,56.2556866428825,-65.618162590176,-0.0148527401432104,0.0285422436676189
"Freq [GHz]","IWavePhi [deg]","IWaveTheta [deg]","Phi [deg]","Theta [deg]","re(rEPhi) [mV]","im(rEPhi) [mV]","re(rETheta) [mV]","im(rETheta) [mV]"
0.7118,180,90,90,27.368,0.0393805559289088,0.0198164081586874,-46.3568113344912,53.7879310497501
"Freq [GHz]","IWavePhi [deg]","IWaveTheta [deg]","Phi [deg]","Theta [deg]","re(rEPhi) [mV]","im(rEPhi) [mV]","re(rETheta) [mV]","im(rETheta) [mV]"
0.7118,180,90,-90,27.368,0.0209189692134268,0.00527989149614009,46.3618764817236,-53.729746821232
"Freq [GHz]","IWavePhi [deg]","IWaveTheta [deg]","Phi [deg]","Theta [deg]","re(rEPhi) [mV]","im(rEPhi) [mV]","re(rETheta) [mV]","im(rETheta) [mV]"
0.7118,180,90,90,152.632,-0.0128475246771053,0.00876120643534116,46.3564989801771,-53.8779145489583
"Freq [GHz]","IWavePhi [deg]","IWaveTheta [deg]","Phi [deg]","Theta [deg]","re(rEPhi) [mV]","im(rEPhi) [mV]","re(rETheta) [mV]","im(rETheta) [mV]"
0.7118,180,90,-90,152.632,-0.0476419540735765,0.000238124010271496,-46.372712414239,53.8121951289125
"Freq [GHz]","IWavePhi [deg]","IWaveTheta [deg]","Phi [deg]","Theta [deg]","re(rEPhi) [mV]","im(rEPhi) [mV]","re(rETheta) [mV]","im(rETheta) [mV]"
0.7118,180,90,90,62.632,-0.0446783752362247,-0.0508331253115505,-22.9988461017687,26.6023488144967
"Freq [GHz]","IWavePhi [deg]","IWaveTheta [deg]","Phi [deg]","Theta [deg]","re(rEPhi) [mV]","im(rEPhi) [mV]","re(rETheta) [mV]","im(rETheta) [mV]"
0.7118,180,90,-90,62.632,-0.0164146033238818,0.0224821545163686,23.0200066126831,-26.6690337996259
"Freq [GHz]","IWavePhi [deg]","IWaveTheta [deg]","Phi [deg]","Theta [deg]","re(rEPhi) [mV]","im(rEPhi) [mV]","re(rETheta) [mV]","im(rETheta) [mV]"
0.7118,180,90,90,117.368,0.0219206632161213,0.0272543981240425,23.0101251413815,-26.5980519615327
"Freq [GHz]","IWavePhi [deg]","IWaveTheta [deg]","Phi [deg]","Theta [deg]","re(rEPhi) [mV]","im(rEPhi) [mV]","re(rETheta) [mV]","im(rETheta) [mV]"
0.7118,180,90,-90,117.368,0.0624388598880569,-0.028765175963961,-23.0122519624986,26.6578438465968
"Freq [GHz]","IWavePhi [deg]","IWaveTheta [deg]","Phi [deg]","Theta [deg]","re(rEPhi) [mV]","im(rEPhi) [mV]","re(rETheta) [mV]","im(rETheta) [mV]"
0.7118,180,90,0,90,57.1443848436957,-66.73767067713,-0.0038942035380658,-0.000982453575450797
"Freq [GHz]","IWavePhi [deg]","IWaveTheta [deg]","Phi [deg]","Theta [deg]","re(rEPhi) [mV]","im(rEPhi) [mV]","re(rETheta) [mV]","im(rETheta) [mV]"
0.7118,180,90,180,90,-57.1334160860211,66.7498611998585,-0.0100802893518544,0.00723867760396259
"Freq [GHz]","IWavePhi [deg]","IWaveTheta [deg]","Phi [deg]","Theta [deg]","re(rEPhi) [mV]","im(rEPhi) [mV]","re(rETheta) [mV]","im(rETheta) [mV]"
0.7118,180,90,90,90,0.0119396234226405,0.00124861071024643,0.00775988996096362,0.0040212375368849
"Freq [GHz]","IWavePhi [deg]","IWaveTheta [deg]","Phi [deg]","Theta [deg]","re(rEPhi) [mV]","im(rEPhi) [mV]","re(rETheta) [mV]","im(rETheta) [mV]"
0.7118,180,90,-90,90,-0.0193757433794256,0.00756608121671114,0.0151611198325904,-0.00758796424937558
"Freq [GHz]","IWavePhi [deg]","IWaveTheta [deg]","Phi [deg]","Theta [deg]","re(rEPhi) [mV]","im(rEPhi) [mV]","re(rETheta) [mV]","im(rETheta) [mV]"
0.7118,180,90,0,0,52.9473026172779,-61.4792852584351,-0.0216300654526496,-0.00442899410975733
"Freq [GHz]","IWavePhi [deg]","IWaveTheta [deg]","Phi [deg]","Theta [deg]","re(rEPhi) [mV]","im(rEPhi) [mV]","re(rETheta) [mV]","im(rETheta) [mV]"
0.7118,180,90,0,180,52.937404797768,-61.5707937175911,0.0327463753142568,0.0181922627306768
"Freq [GHz]","IWavePhi [deg]","IWaveTheta [deg]","Phi [deg]","Theta [deg]","re(rEPhi) [mV]","im(rEPhi) [mV]","re(rETheta) [mV]","im(rETheta) [mV]"
0.7118,180,90,45,54.736,37.633396854868,-43.6793228468005,21.644105335095,-25.1023247483545
"Freq [GHz]","IWavePhi [deg]","IWaveTheta [deg]","Phi [deg]","Theta [deg]","re(rEPhi) [mV]","im(rEPhi) [mV]","re(rETheta) [mV]","im(rETheta) [mV]"
0.7118,180,90,135,54.736,-37.563921834694,43.6885902584771,21.6264915655732,-25.1182003857154
"Freq [GHz]","IWavePhi [deg]","IWaveTheta [deg]","Phi [deg]","Theta [deg]","re(rEPhi) [mV]","im(rEPhi) [mV]","re(rETheta) [mV]","im(rETheta) [mV]"
0.7118,180,90,-45,54.736,37.6691667607376,-43.742221649344,-21.6871972543371,25.0749124537013
"Freq [GHz]","IWavePhi [deg]","IWaveTheta [deg]","Phi [deg]","Theta [deg]","re(rEPhi) [mV]","im(rEPhi) [mV]","re(rETheta) [mV]","im(rETheta) [mV]"
0.7118,180,90,45,125.264,37.617420951628,-43.7081954031897,-21.6597112699816,25.129144412159
"Freq [GHz]","IWavePhi [deg]","IWaveTheta [deg]","Phi [deg]","Theta [deg]","re(rEPhi) [mV]","im(rEPhi) [mV]","re(rETheta) [mV]","im(rETheta) [mV]"
0.7118,180,90,-135,54.736,-37.6443469103573,43.7646976534316,-21.6619711629594,25.1164510130457
"Freq [GHz]","IWavePhi [deg]","IWaveTheta [deg]","Phi [deg]","Theta [deg]","re(rEPhi) [mV]","im(rEPhi) [mV]","re(rETheta) [mV]","im(rETheta) [mV]"
0.7118,180,90,-45,125.264,37.568975302349,-43.7963101354179,21.6239264492144,-25.0975324731586
"Freq [GHz]","IWavePhi [deg]","IWaveTheta [deg]","Phi [deg]","Theta [deg]","re(rEPhi) [mV]","im(rEPhi) [mV]","re(rETheta) [mV]","im(rETheta) [mV]"
0.7118,180,90,135,125.264,-37.6511760799818,43.7314880722745,-21.681379934513,25.1464925948781
"Freq [GHz]","IWavePhi [deg]","IWaveTheta [deg]","Phi [deg]","Theta [deg]","re(rEPhi) [mV]","im(rEPhi) [mV]","re(rETheta) [mV]","im(rETheta) [mV]"
0.7118,180,90,-135,125.264,-37.6553535801655,43.7754596421757,21.647764979885,-25.1149410845284
"Freq [GHz]","IWavePhi [deg]","IWaveTheta [deg]","Phi [deg]","Theta [deg]","re(rEPhi) [mV]","im(rEPhi) [mV]","re(rETheta) [mV]","im(rETheta) [mV]"
0.7118,180,90,62.632,90,23.4954967041407,-27.3053572340717,0.0247771031327159,0.0580621260305069
"Freq [GHz]","IWavePhi [deg]","IWaveTheta [deg]","Phi [deg]","Theta [deg]","re(rEPhi) [mV]","im(rEPhi) [mV]","re(rETheta) [mV]","im(rETheta) [mV]"
0.7118,180,90,117.368,90,-23.5358231399304,27.2757774562801,-0.0258051822516017,-0.0238156354755941
"Freq [GHz]","IWavePhi [deg]","IWaveTheta [deg]","Phi [deg]","Theta [deg]","re(rEPhi) [mV]","im(rEPhi) [mV]","re(rETheta) [mV]","im(rETheta) [mV]"
0.7118,180,90,-62.632,90,23.528933380986,-27.2529592835696,-0.0195059948450099,0.020682304947745
"Freq [GHz]","IWavePhi [deg]","IWaveTheta [deg]","Phi [deg]","Theta [deg]","re(rEPhi) [mV]","im(rEPhi) [mV]","re(rETheta) [mV]","im(rETheta) [mV]"
0.7118,180,90,-117.368,90,-23.5077868008146,27.2194975932641,0.0391886032913614,-0.0378454094658935
"Freq [GHz]","IWavePhi [deg]","IWaveTheta [deg]","Phi [deg]","Theta [deg]","re(rEPhi) [mV]","im(rEPhi) [mV]","re(rETheta) [mV]","im(rETheta) [mV]"
0.7118,180,90,27.368,90,49.2222754078998,-57.4109216664524,-0.021622837663423,-0.00654256914467193
"Freq [GHz]","IWavePhi [deg]","IWaveTheta [deg]","Phi [deg]","Theta [deg]","re(rEPhi) [mV]","im(rEPhi) [mV]","re(rETheta) [mV]","im(rETheta) [mV]"
0.7118,180,90,152.632,90,-49.3144386531556,57.4334226674741,0.00415735565544602,-0.00535511196934209
"Freq [GHz]","IWavePhi [deg]","IWaveTheta [deg]","Phi [deg]","Theta [deg]","re(rEPhi) [mV]","im(rEPhi) [mV]","re(rETheta) [mV]","im(rETheta) [mV]"
0.7118,180,90,-27.368,90,49.3342638108902,-57.4715725393129,-0.00176483785190335,0.025654626855017
"Freq [GHz]","IWavePhi [deg]","IWaveTheta [deg]","Phi [deg]","Theta [deg]","re(rEPhi) [mV]","im(rEPhi) [mV]","re(rETheta) [mV]","im(rETheta) [mV]"
0.7118,180,90,-152.632,90,-49.242190946824,57.5091640915654,-0.0177755730622024,0.0219901919416024
"Freq [GHz]","IWavePhi [deg]","IWaveTheta [deg]","Phi [deg]","Theta [deg]","re(rEPhi) [mV]","im(rEPhi) [mV]","re(rETheta) [mV]","im(rETheta) [mV]"
0.7118,180,90,0,27.368,53.7894921448625,-62.6075450962235,0.00401050309856412,0.00491593440611961
"Freq [GHz]","IWavePhi [deg]","IWaveTheta [deg]","Phi [deg]","Theta [deg]","re(rEPhi) [mV]","im(rEPhi) [mV]","re(rETheta) [mV]","im(rETheta) [mV]"
0.7118,180,90,180,27.368,-53.8679022094628,62.5761734069957,-0.0308305484829967,0.0301732693874554
"Freq [GHz]","IWavePhi [deg]","IWaveTheta [deg]","Phi [deg]","Theta [deg]","re(rEPhi) [mV]","im(rEPhi) [mV]","re(rETheta) [mV]","im(rETheta) [mV]"
0.7118,180,90,0,152.632,53.8640607232082,-62.6196302414268,-0.0151664288367105,-0.0353778041936761
"Freq [GHz]","IWavePhi [deg]","IWaveTheta [deg]","Phi [deg]","Theta [deg]","re(rEPhi) [mV]","im(rEPhi) [mV]","re(rETheta) [mV]","im(rETheta) [mV]"
0.7118,180,90,180,152.632,-53.7813546359754,62.6011457256887,0.00482684206909119,0.0018632822885615
"Freq [GHz]","IWavePhi [deg]","IWaveTheta [deg]","Phi [deg]","Theta [deg]","re(rEPhi) [mV]","im(rEPhi) [mV]","re(rETheta) [mV]","im(rETheta) [mV]"
0.7118,180,90,0,62.632,56.2592668777515,-65.6526456459227,-0.00544961993092115,0.0504027699992279
"Freq [GHz]","IWavePhi [deg]","IWaveTheta [deg]","Phi [deg]","Theta [deg]","re(rEPhi) [mV]","im(rEPhi) [mV]","re(rETheta) [mV]","im(rETheta) [mV]"
0.7118,180,90,180,62.632,-56.330590035447,65.5913663095943,0.00320180063401927,0.000579105969076628
"Freq [GHz]","IWavePhi [deg]","IWaveTheta [deg]","Phi [deg]","Theta [deg]","re(rEPhi) [mV]","im(rEPhi) [mV]","re(rETheta) [mV]","im(rETheta) [mV]"
0.7118,180,90,0,117.368,56.3328841280868,-65.664568807563,0.0068959682741879,-0.0035322483782605
"Freq [GHz]","IWavePhi [deg]","IWaveTheta [deg]","Phi [deg]","Theta [deg]","re(rEPhi) [mV]","im(rEPhi) [mV]","re(rETheta) [mV]","im(rETheta) [mV]"
0.7118,180,90,180,117.368,-56.2556866428825,65.618162590176,0.0148527401427731,-0.028542243667331
"Freq [GHz]","IWavePhi [deg]","IWaveTheta [deg]","Phi [deg]","Theta [deg]","re(rEPhi) [mV]","im(rEPhi) [mV]","re(rETheta) [mV]","im(rETheta) [mV]"
0.7118,180,90,90,27.368,-0.0393805559290357,-0.0198164081587412,46.3568113344912,-53.78793104975
"Freq [GHz]","IWavePhi [deg]","IWaveTheta [deg]","Phi [deg]","Theta [deg]","re(rEPhi) [mV]","im(rEPhi) [mV]","re(rETheta) [mV]","im(rETheta) [mV]"
0.7118,180,90,-90,27.368,-0.0209189692135895,-0.00527989149617642,-46.3618764817238,53.7297468212321
"Freq [GHz]","IWavePhi [deg]","IWaveTheta [deg]","Phi [deg]","Theta [deg]","re(rEPhi) [mV]","im(rEPhi) [mV]","re(rETheta) [mV]","im(rETheta) [mV]"
0.7118,180,90,90,152.632,0.0128475246772363,-0.00876120643549371,-46.3564989801772,53.8779145489586
"Freq [GHz]","IWavePhi [deg]","IWaveTheta [deg]","Phi [deg]","Theta [deg]","re(rEPhi) [mV]","im(rEPhi) [mV]","re(rETheta) [mV]","im(rETheta) [mV]"
0.7118,180,90,-90,152.632,0.0476419540737972,-0.000238124010249678,46.3727124142394,-53.8121951289124
"Freq [GHz]","IWavePhi [deg]","IWaveTheta [deg]","Phi [deg]","Theta [deg]","re(rEPhi) [mV]","im(rEPhi) [mV]","re(rETheta) [mV]","im(rETheta) [mV]"
0.7118,180,90,90,62.632,0.0446783752361122,0.0508331253114433,22.9988461017687,-26.6023488144963
"Freq [GHz]","IWavePhi [deg]","IWaveTheta [deg]","Phi [deg]","Theta [deg]","re(rEPhi) [mV]","im(rEPhi) [mV]","re(rETheta) [mV]","im(rETheta) [mV]"
0.7118,180,90,-90,62.632,0.0164146033239024,-0.0224821545161367,-23.020006612683,26.6690337996266
"Freq [GHz]","IWavePhi [deg]","IWaveTheta [deg]","Phi [deg]","Theta [deg]","re(rEPhi) [mV]","im(rEPhi) [mV]","re(rETheta) [mV]","im(rETheta) [mV]"
0.7118,180,90,90,117.368,-0.0219206632161057,-0.0272543981239249,-23.0101251413816,26.5980519615328
"Freq [GHz]","IWavePhi [deg]","IWaveTheta [deg]","Phi [deg]","Theta [deg]","re(rEPhi) [mV]","im(rEPhi) [mV]","re(rETheta) [mV]","im(rETheta) [mV]"
0.7118,180,90,-90,117.368,-0.0624388598878504,0.0287651759639279,23.0122519624993,-26.6578438465967
"Freq [GHz]","IWavePhi [deg]","IWaveTheta [deg]","Phi [deg]","Theta [deg]","re(rEPhi) [mV]","im(rEPhi) [mV]","re(rETheta) [mV]","im(rETheta) [mV]"
0.7118,180,90,0,90,-9.03579326001281e-15,1.05559931846468e-14,7.63645685781366e-19,-4.98835865608956e-20
"Freq [GHz]","IWavePhi [deg]","IWaveTheta [deg]","Phi [deg]","Theta [deg]","re(rEPhi) [mV]","im(rEPhi) [mV]","re(rETheta) [mV]","im(rETheta) [mV]"
0.7118,180,90,180,90,9.03417065581816e-15,-1.0558105717527e-14,1.80952477359565e-18,-1.17482659945951e-18
"Freq [GHz]","IWavePhi [deg]","IWaveTheta [deg]","Phi [deg]","Theta [deg]","re(rEPhi) [mV]","im(rEPhi) [mV]","re(rETheta) [mV]","im(rETheta) [mV]"
0.7118,180,90,90,90,-1.77381950323474e-18,1.50375349557382e-20,-1.0894212164803e-18,-8.01965491826752e-19
"Freq [GHz]","IWavePhi [deg]","IWaveTheta [deg]","Phi [deg]","Theta [deg]","re(rEPhi) [mV]","im(rEPhi) [mV]","re(rETheta) [mV]","im(rETheta) [mV]"
0.7118,180,90,-90,90,2.91505299141796e-18,-1.33723596607413e-18,-2.168054243469e-18,1.25736348394037e-18
"Freq [GHz]","IWavePhi [deg]","IWaveTheta [deg]","Phi [deg]","Theta [deg]","re(rEPhi) [mV]","im(rEPhi) [mV]","re(rETheta) [mV]","im(rETheta) [mV]"
0.7118,180,90,0,0,-8.37115096293236e-15,9.72447642307025e-15,3.30675687078287e-18,7.74961778073603e-19
