"Freq [GHz]","IWavePhi [deg]","IWaveTheta [deg]","Phi [deg]","Theta [deg]","re(rEPhi) [mV]","im(rEPhi) [mV]","re(rETheta) [mV]","im(rETheta) [mV]"
0.7118,180,90,0,90,-56.1248800129381,65.3834851921281,0.00551010950508588,-0.0116411375700489
"Freq [GHz]","IWavePhi [deg]","IWaveTheta [deg]","Phi [deg]","Theta [deg]","re(rEPhi) [mV]","im(rEPhi) [mV]","re(rETheta) [mV]","im(rETheta) [mV]"
0.7118,180,90,180,90,56.1635094048712,-65.3830942120471,-0.00767156357733474,-0.00670287360972232
"Freq [GHz]","IWavePhi [deg]","IWaveTheta [deg]","Phi [deg]","Theta [deg]","re(rEPhi) [mV]","im(rEPhi) [mV]","re(rETheta) [mV]","im(rETheta) [mV]"
0.7118,180,90,90,90,0.00616801032702113,0.00497751311526774,0.00916980196764136,0.00150328781710309
"Freq [GHz]","IWavePhi [deg]","IWaveTheta [deg]","Phi [deg]","Theta [deg]","re(rEPhi) [mV]","im(rEPhi) [mV]","re(rETheta) [mV]","im(rETheta) [mV]"
0.7118,180,90,-90,90,0.00502979525186075,0.00268830107010592,0.00326909812610364,-0.0123886717933164
"Freq [GHz]","IWavePhi [deg]","IWaveTheta [deg]","Phi [deg]","Theta [deg]","re(rEPhi) [mV]","im(rEPhi) [mV]","re(rETheta) [mV]","im(rETheta) [mV]"
0.7118,180,90,0,0,-52.0012216552635,60.2928262161173,-0.00363435400968967,0.00175856339527408
"Freq [GHz]","IWavePhi [deg]","IWaveTheta [deg]","Phi [deg]","Theta [deg]","re(rEPhi) [mV]","im(rEPhi) [mV]","re(rETheta) [mV]","im(rETheta) [mV]"
0.7118,180,90,0,180,-51.9763480972524,60.311342907261,-0.00817091188852094,-0.00839112589707719
"Freq [GHz]","IWavePhi [deg]","IWaveTheta [deg]","Phi [deg]","Theta [deg]","re(rEPhi) [mV]","im(rEPhi) [mV]","re(rETheta) [mV]","im(rETheta) [mV]"
0.7118,180,90,0,90,56.1248800129381,-65.3834851921281,-0.00551010950483631,0.0116411375698275
"Freq [GHz]","IWavePhi [deg]","IWaveTheta [deg]","Phi [deg]","Theta [deg]","re(rEPhi) [mV]","im(rEPhi) [mV]","re(rETheta) [mV]","im(rETheta) [mV]"
0.7118,180,90,180,90,-56.1635094048712,65.3830942120471,0.00767156357702467,0.00670287360960641
"Freq [GHz]","IWavePhi [deg]","IWaveTheta [deg]","Phi [deg]","Theta [deg]","re(rEPhi) [mV]","im(rEPhi) [mV]","re(rETheta) [mV]","im(rETheta) [mV]"
0.7118,180,90,90,90,-0.00616801032701289,-0.00497751311527289,-0.00916980196758768,-0.00150328781683235
"Freq [GHz]","IWavePhi [deg]","IWaveTheta [deg]","Phi [deg]","Theta [deg]","re(rEPhi) [mV]","im(rEPhi) [mV]","re(rETheta) [mV]","im(rETheta) [mV]"
0.7118,180,90,-90,90,-0.00502979525187002,-0.0026883010701121,-0.00326909812606992,0.0123886717936719
"Freq [GHz]","IWavePhi [deg]","IWaveTheta [deg]","Phi [deg]","Theta [deg]","re(rEPhi) [mV]","im(rEPhi) [mV]","re(rETheta) [mV]","im(rETheta) [mV]"
0.7118,180,90,0,0,52.0012216552635,-60.2928262161173,0.00363435400969018,-0.00175856339527949
"Freq [GHz]","IWavePhi [deg]","IWaveTheta [deg]","Phi [deg]","Theta [deg]","re(rEPhi) [mV]","im(rEPhi) [mV]","re(rETheta) [mV]","im(rETheta) [mV]"
0.7118,180,90,0,180,51.9763480972524,-60.311342907261,0.00817091188853124,0.00839112589710011
"Freq [GHz]","IWavePhi [deg]","IWaveTheta [deg]","Phi [deg]","Theta [deg]","re(rEPhi) [mV]","im(rEPhi) [mV]","re(rETheta) [mV]","im(rETheta) [mV]"
0.7118,180,90,0,90,-5.91445952952914e-15,6.89647249566838e-15,-2.08677869397456e-15,2.7108997900629e-16
"Freq [GHz]","IWavePhi [deg]","IWaveTheta [deg]","Phi [deg]","Theta [deg]","re(rEPhi) [mV]","im(rEPhi) [mV]","re(rETheta) [mV]","im(rETheta) [mV]"
0.7118,180,90,180,90,5.9186865821365e-15,-6.89645723619326e-15,-2.08794949946936e-15,2.72030456336052e-16
"Freq [GHz]","IWavePhi [deg]","IWaveTheta [deg]","Phi [deg]","Theta [deg]","re(rEPhi) [mV]","im(rEPhi) [mV]","re(rETheta) [mV]","im(rETheta) [mV]"
0.7118,180,90,90,90,6.05138783921344e-19,5.72639205473669e-19,-9.16445832956338e-16,2.42479618340702e-16
"Freq [GHz]","IWavePhi [deg]","IWaveTheta [deg]","Phi [deg]","Theta [deg]","re(rEPhi) [mV]","im(rEPhi) [mV]","re(rETheta) [mV]","im(rETheta) [mV]"
0.7118,180,90,-90,90,4.20617770049415e-19,2.6618419851627e-19,-1.64784794116772e-15,1.38081083938943e-16
"Freq [GHz]","IWavePhi [deg]","IWaveTheta [deg]","Phi [deg]","Theta [deg]","re(rEPhi) [mV]","im(rEPhi) [mV]","re(rETheta) [mV]","im(rETheta) [mV]"
0.7118,180,90,0,0,-4.19043035862095e-15,6.42450499880936e-15,-4.97594135242199e-19,-6.80411933374482e-20
"Freq [GHz]","IWavePhi [deg]","IWaveTheta [deg]","Phi [deg]","Theta [deg]","re(rEPhi) [mV]","im(rEPhi) [mV]","re(rETheta) [mV]","im(rETheta) [mV]"
0.7118,180,90,0,180,-6.76591091063082e-15,6.29642344954794e-15,-8.5378387385932e-19,-9.62689135428904e-19
"Freq [GHz]","IWavePhi [deg]","IWaveTheta [deg]","Phi [deg]","Theta [deg]","re(rEPhi) [mV]","im(rEPhi) [mV]","re(rETheta) [mV]","im(rETheta) [mV]"
0.7118,180,90,0,90,-1.271168760826e-18,1.88743574384967e-19,2.08759790530243e-15,-2.70685330429521e-16
"Freq [GHz]","IWavePhi [deg]","IWaveTheta [deg]","Phi [deg]","Theta [deg]","re(rEPhi) [mV]","im(rEPhi) [mV]","re(rETheta) [mV]","im(rETheta) [mV]"
0.7118,180,90,180,90,1.24304285403052e-18,-4.34385346156971e-19,2.08718029340868e-15,-2.71027154362887e-16
"Freq [GHz]","IWavePhi [deg]","IWaveTheta [deg]","Phi [deg]","Theta [deg]","re(rEPhi) [mV]","im(rEPhi) [mV]","re(rETheta) [mV]","im(rETheta) [mV]"
0.7118,180,90,90,90,1.81820806912559e-20,-1.34310136185259e-19,1.6492315856579e-15,-1.36648113288742e-16
"Freq [GHz]","IWavePhi [deg]","IWaveTheta [deg]","Phi [deg]","Theta [deg]","re(rEPhi) [mV]","im(rEPhi) [mV]","re(rETheta) [mV]","im(rETheta) [mV]"
0.7118,180,90,-90,90,-2.65275249003686e-21,1.410136150313e-19,9.16666526112492e-16,-2.42502817889936e-16
"Freq [GHz]","IWavePhi [deg]","IWaveTheta [deg]","Phi [deg]","Theta [deg]","re(rEPhi) [mV]","im(rEPhi) [mV]","re(rETheta) [mV]","im(rETheta) [mV]"
0.7118,180,90,0,0,1.28827753286198e-15,6.48320067449753e-17,8.61234885481343e-20,1.93597286398305e-19
"Freq [GHz]","IWavePhi [deg]","IWaveTheta [deg]","Phi [deg]","Theta [deg]","re(rEPhi) [mV]","im(rEPhi) [mV]","re(rETheta) [mV]","im(rETheta) [mV]"
0.7118,180,90,0,180,-1.29038974264533e-15,-6.38704727863914e-17,6.34988641243058e-20,8.48997508569927e-20
"Freq [GHz]","IWavePhi [deg]","IWaveTheta [deg]","Phi [deg]","Theta [deg]","re(rEPhi) [mV]","im(rEPhi) [mV]","re(rETheta) [mV]","im(rETheta) [mV]"
0.7118,180,90,0,90,-51.9519278468696,60.2982627677852,0.0036921210648756,-0.015025511963489
"Freq [GHz]","IWavePhi [deg]","IWaveTheta [deg]","Phi [deg]","Theta [deg]","re(rEPhi) [mV]","im(rEPhi) [mV]","re(rETheta) [mV]","im(rETheta) [mV]"
0.7118,180,90,180,90,51.9881529742982,-60.2986649272963,-0.0098315431121445,-0.0102317323702151
"Freq [GHz]","IWavePhi [deg]","IWaveTheta [deg]","Phi [deg]","Theta [deg]","re(rEPhi) [mV]","im(rEPhi) [mV]","re(rETheta) [mV]","im(rETheta) [mV]"
0.7118,180,90,90,90,0.00534514111628167,0.00428391867469265,8.02584484951723,0.406134480280106
"Freq [GHz]","IWavePhi [deg]","IWaveTheta [deg]","Phi [deg]","Theta [deg]","re(rEPhi) [mV]","im(rEPhi) [mV]","re(rETheta) [mV]","im(rETheta) [mV]"
0.7118,180,90,-90,90,0.00448548931219908,0.00301822858257542,-8.01563775680489,-0.420333019148253
"Freq [GHz]","IWavePhi [deg]","IWaveTheta [deg]","Phi [deg]","Theta [deg]","re(rEPhi) [mV]","im(rEPhi) [mV]","re(rETheta) [mV]","im(rETheta) [mV]"
0.7118,180,90,0,0,-40.8736959417014,56.211854038692,-0.00348648660088305,0.00153207908906865
"Freq [GHz]","IWavePhi [deg]","IWaveTheta [deg]","Phi [deg]","Theta [deg]","re(rEPhi) [mV]","im(rEPhi) [mV]","re(rETheta) [mV]","im(rETheta) [mV]"
0.7118,180,90,0,180,-54.5879867783256,55.0133999939991,-0.00758415963434174,-0.00768463515836409
"Freq [GHz]","IWavePhi [deg]","IWaveTheta [deg]","Phi [deg]","Theta [deg]","re(rEPhi) [mV]","im(rEPhi) [mV]","re(rETheta) [mV]","im(rETheta) [mV]"
0.7118,180,90,0,90,-51.9638247568806,60.2895551728274,0.00651055521989284,-0.00645536088173216
"Freq [GHz]","IWavePhi [deg]","IWaveTheta [deg]","Phi [deg]","Theta [deg]","re(rEPhi) [mV]","im(rEPhi) [mV]","re(rETheta) [mV]","im(rETheta) [mV]"
0.7118,180,90,180,90,51.9987783279606,-60.2885118638966,-0.00424120251736545,-0.00216099508397288
"Freq [GHz]","IWavePhi [deg]","IWaveTheta [deg]","Phi [deg]","Theta [deg]","re(rEPhi) [mV]","im(rEPhi) [mV]","re(rETheta) [mV]","im(rETheta) [mV]"
0.7118,180,90,90,90,0.00602335981342761,0.00488651937040842,-8.00849429217663,-0.403610318180269
"Freq [GHz]","IWavePhi [deg]","IWaveTheta [deg]","Phi [deg]","Theta [deg]","re(rEPhi) [mV]","im(rEPhi) [mV]","re(rETheta) [mV]","im(rETheta) [mV]"
0.7118,180,90,-90,90,0.00477269386183388,0.00192560639606999,8.02208163788243,0.39774354199235
"Freq [GHz]","IWavePhi [deg]","IWaveTheta [deg]","Phi [deg]","Theta [deg]","re(rEPhi) [mV]","im(rEPhi) [mV]","re(rETheta) [mV]","im(rETheta) [mV]"
0.7118,180,90,0,0,-54.6224562980713,54.9868860110188,-0.00322957951888779,0.00172627633958353
"Freq [GHz]","IWavePhi [deg]","IWaveTheta [deg]","Phi [deg]","Theta [deg]","re(rEPhi) [mV]","im(rEPhi) [mV]","re(rETheta) [mV]","im(rETheta) [mV]"
0.7118,180,90,0,180,-40.8623798406963,56.2196593713893,-0.00751394054890841,-0.00780055339245099
"Freq [GHz]","IWavePhi [deg]","IWaveTheta [deg]","Phi [deg]","Theta [deg]","re(rEPhi) [mV]","im(rEPhi) [mV]","re(rETheta) [mV]","im(rETheta) [mV]"
0.7118,180,90,0,90,-0.00308215168136924,0.00743894254103041,17.3440379357546,-2.44132695754799
"Freq [GHz]","IWavePhi [deg]","IWaveTheta [deg]","Phi [deg]","Theta [deg]","re(rEPhi) [mV]","im(rEPhi) [mV]","re(rETheta) [mV]","im(rETheta) [mV]"
0.7118,180,90,180,90,0.00192252345977001,-0.00817875062936279,17.340858912983,-2.44514076814241
"Freq [GHz]","IWavePhi [deg]","IWaveTheta [deg]","Phi [deg]","Theta [deg]","re(rEPhi) [mV]","im(rEPhi) [mV]","re(rETheta) [mV]","im(rETheta) [mV]"
0.7118,180,90,90,90,0.0003666880439881,-0.00083851575885311,12.9926930744751,-1.69690102745009
"Freq [GHz]","IWavePhi [deg]","IWaveTheta [deg]","Phi [deg]","Theta [deg]","re(rEPhi) [mV]","im(rEPhi) [mV]","re(rETheta) [mV]","im(rETheta) [mV]"
0.7118,180,90,-90,90,0.000303025124409765,0.000731205618279111,12.9842524871834,-1.70986394148107
"Freq [GHz]","IWavePhi [deg]","IWaveTheta [deg]","Phi [deg]","Theta [deg]","re(rEPhi) [mV]","im(rEPhi) [mV]","re(rETheta) [mV]","im(rETheta) [mV]"
0.7118,180,90,0,0,-0.000847612672718687,0.00495381070258892,0.000788913183318439,0.00181554205941095
"Freq [GHz]","IWavePhi [deg]","IWaveTheta [deg]","Phi [deg]","Theta [deg]","re(rEPhi) [mV]","im(rEPhi) [mV]","re(rETheta) [mV]","im(rETheta) [mV]"
0.7118,180,90,0,180,-0.00303608429450543,0.0120893815331473,0.000255317421694568,0.000565976273356231
"Freq [GHz]","IWavePhi [deg]","IWaveTheta [deg]","Phi [deg]","Theta [deg]","re(rEPhi) [mV]","im(rEPhi) [mV]","re(rETheta) [mV]","im(rETheta) [mV]"
0.7118,180,90,0,90,-0.00308215168136927,0.00743894254103047,17.3440379357546,-2.44132695754799
"Freq [GHz]","IWavePhi [deg]","IWaveTheta [deg]","Phi [deg]","Theta [deg]","re(rEPhi) [mV]","im(rEPhi) [mV]","re(rETheta) [mV]","im(rETheta) [mV]"
0.7118,180,90,180,90,0.00192252345977004,-0.00817875062936273,17.340858912983,-2.44514076814241
"Freq [GHz]","IWavePhi [deg]","IWaveTheta [deg]","Phi [deg]","Theta [deg]","re(rEPhi) [mV]","im(rEPhi) [mV]","re(rETheta) [mV]","im(rETheta) [mV]"
0.7118,180,90,90,90,0.000366688046208906,-0.000838515757506345,12.9926930744751,-1.69690102745009
"Freq [GHz]","IWavePhi [deg]","IWaveTheta [deg]","Phi [deg]","Theta [deg]","re(rEPhi) [mV]","im(rEPhi) [mV]","re(rETheta) [mV]","im(rETheta) [mV]"
0.7118,180,90,-90,90,0.000303025126602174,0.000731205616981876,12.9842524871834,-1.70986394148107
"Freq [GHz]","IWavePhi [deg]","IWaveTheta [deg]","Phi [deg]","Theta [deg]","re(rEPhi) [mV]","im(rEPhi) [mV]","re(rETheta) [mV]","im(rETheta) [mV]"
0.7118,180,90,0,0,-0.000847612672718687,0.00495381070258905,0.000788913185900522,0.00181554205948541
"Freq [GHz]","IWavePhi [deg]","IWaveTheta [deg]","Phi [deg]","Theta [deg]","re(rEPhi) [mV]","im(rEPhi) [mV]","re(rETheta) [mV]","im(rETheta) [mV]"
0.7118,180,90,0,180,-0.00303608429450543,0.0120893815331471,0.000255317424218345,0.000565976273262014
"Freq [GHz]","IWavePhi [deg]","IWaveTheta [deg]","Phi [deg]","Theta [deg]","re(rEPhi) [mV]","im(rEPhi) [mV]","re(rETheta) [mV]","im(rETheta) [mV]"
0.7118,180,90,0,90,0.0021227079818631,0.0107263538254707,12.9799154559447,-1.69564502502803
"Freq [GHz]","IWavePhi [deg]","IWaveTheta [deg]","Phi [deg]","Theta [deg]","re(rEPhi) [mV]","im(rEPhi) [mV]","re(rETheta) [mV]","im(rETheta) [mV]"
0.7118,180,90,180,90,-0.00340320116317149,-0.0103007197760502,12.978517998235,-1.6983255294176
"Freq [GHz]","IWavePhi [deg]","IWaveTheta [deg]","Phi [deg]","Theta [deg]","re(rEPhi) [mV]","im(rEPhi) [mV]","re(rETheta) [mV]","im(rETheta) [mV]"
0.7118,180,90,90,90,0.000271195925018554,-0.000376890356401605,5.704813239888,-1.50835650542753
"Freq [GHz]","IWavePhi [deg]","IWaveTheta [deg]","Phi [deg]","Theta [deg]","re(rEPhi) [mV]","im(rEPhi) [mV]","re(rETheta) [mV]","im(rETheta) [mV]"
0.7118,180,90,-90,90,0.000553776665301563,0.000187695864388351,10.2489047115894,-0.867676430061088
"Freq [GHz]","IWavePhi [deg]","IWaveTheta [deg]","Phi [deg]","Theta [deg]","re(rEPhi) [mV]","im(rEPhi) [mV]","re(rETheta) [mV]","im(rETheta) [mV]"
0.7118,180,90,0,0,-8.01417044418673,-0.394117865994274,0.000675152063528529,0.00146261040153618
"Freq [GHz]","IWavePhi [deg]","IWaveTheta [deg]","Phi [deg]","Theta [deg]","re(rEPhi) [mV]","im(rEPhi) [mV]","re(rETheta) [mV]","im(rETheta) [mV]"
0.7118,180,90,0,180,8.01830448539447,0.41429430346668,0.000116876942169531,0.000390407451914103
"Freq [GHz]","IWavePhi [deg]","IWaveTheta [deg]","Phi [deg]","Theta [deg]","re(rEPhi) [mV]","im(rEPhi) [mV]","re(rETheta) [mV]","im(rETheta) [mV]"
0.7118,180,90,0,90,-0.00790466056500679,0.00117369660368836,12.9815838563974,-1.68323808755735
"Freq [GHz]","IWavePhi [deg]","IWaveTheta [deg]","Phi [deg]","Theta [deg]","re(rEPhi) [mV]","im(rEPhi) [mV]","re(rETheta) [mV]","im(rETheta) [mV]"
0.7118,180,90,180,90,0.00772976902153348,-0.00270119580226858,12.9789869741505,-1.68536371758964
"Freq [GHz]","IWavePhi [deg]","IWaveTheta [deg]","Phi [deg]","Theta [deg]","re(rEPhi) [mV]","im(rEPhi) [mV]","re(rETheta) [mV]","im(rETheta) [mV]"
0.7118,180,90,90,90,0.000113056738998699,-0.000835190974873265,10.2556330848438,-0.849736888012116
"Freq [GHz]","IWavePhi [deg]","IWaveTheta [deg]","Phi [deg]","Theta [deg]","re(rEPhi) [mV]","im(rEPhi) [mV]","re(rETheta) [mV]","im(rETheta) [mV]"
0.7118,180,90,-90,90,-1.64934221182337e-05,0.000876880431540426,5.70022770472129,-1.50798707707541
"Freq [GHz]","IWavePhi [deg]","IWaveTheta [deg]","Phi [deg]","Theta [deg]","re(rEPhi) [mV]","im(rEPhi) [mV]","re(rETheta) [mV]","im(rETheta) [mV]"
0.7118,180,90,0,0,8.01106516635011,0.40315337828718,0.000535548107049602,0.00120387010115917
"Freq [GHz]","IWavePhi [deg]","IWaveTheta [deg]","Phi [deg]","Theta [deg]","re(rEPhi) [mV]","im(rEPhi) [mV]","re(rETheta) [mV]","im(rETheta) [mV]"
0.7118,180,90,0,180,-8.02419979013774,-0.397174143485397,0.000394881422370142,0.000527944349807188
"Freq [GHz]","IWavePhi [deg]","IWaveTheta [deg]","Phi [deg]","Theta [deg]","re(rEPhi) [mV]","im(rEPhi) [mV]","re(rETheta) [mV]","im(rETheta) [mV]"
0.7118,180,90,0,90,-3.1811811960049e-15,3.69180416562711e-15,-6.39465845946357e-16,8.91528107514032e-17
"Freq [GHz]","IWavePhi [deg]","IWaveTheta [deg]","Phi [deg]","Theta [deg]","re(rEPhi) [mV]","im(rEPhi) [mV]","re(rETheta) [mV]","im(rETheta) [mV]"
0.7118,180,90,180,90,3.18344176911898e-15,-3.691800688726e-15,-6.40177076960326e-16,8.95853542495978e-17
"Freq [GHz]","IWavePhi [deg]","IWaveTheta [deg]","Phi [deg]","Theta [deg]","re(rEPhi) [mV]","im(rEPhi) [mV]","re(rETheta) [mV]","im(rETheta) [mV]"
0.7118,180,90,90,90,3.13933898659711e-19,2.93563869992646e-19,1.22716860670568e-17,8.74801079926869e-17
"Freq [GHz]","IWavePhi [deg]","IWaveTheta [deg]","Phi [deg]","Theta [deg]","re(rEPhi) [mV]","im(rEPhi) [mV]","re(rETheta) [mV]","im(rETheta) [mV]"
0.7118,180,90,-90,90,2.63078963594496e-19,1.58469130246637e-19,-9.69637028148112e-16,3.73378081604335e-17
"Freq [GHz]","IWavePhi [deg]","IWaveTheta [deg]","Phi [deg]","Theta [deg]","re(rEPhi) [mV]","im(rEPhi) [mV]","re(rETheta) [mV]","im(rETheta) [mV]"
0.7118,180,90,0,0,-2.50290099498543e-15,3.44168317710241e-15,-2.4272263643867e-19,2.7174030183766e-20
"Freq [GHz]","IWavePhi [deg]","IWaveTheta [deg]","Phi [deg]","Theta [deg]","re(rEPhi) [mV]","im(rEPhi) [mV]","re(rETheta) [mV]","im(rETheta) [mV]"
0.7118,180,90,0,180,-3.34258795824046e-15,3.3680427218274e-15,-4.72292385205887e-19,-4.92342895771835e-19
"Freq [GHz]","IWavePhi [deg]","IWaveTheta [deg]","Phi [deg]","Theta [deg]","re(rEPhi) [mV]","im(rEPhi) [mV]","re(rETheta) [mV]","im(rETheta) [mV]"
0.7118,180,90,0,90,3.1807733105794e-15,-3.69109362550249e-15,2.6822121362543e-15,-3.77117931670216e-16
"Freq [GHz]","IWavePhi [deg]","IWaveTheta [deg]","Phi [deg]","Theta [deg]","re(rEPhi) [mV]","im(rEPhi) [mV]","re(rETheta) [mV]","im(rETheta) [mV]"
0.7118,180,90,180,90,-3.18309454505459e-15,3.69091864358978e-15,2.68237713372978e-15,-3.77977795108745e-16
"Freq [GHz]","IWavePhi [deg]","IWaveTheta [deg]","Phi [deg]","Theta [deg]","re(rEPhi) [mV]","im(rEPhi) [mV]","re(rETheta) [mV]","im(rETheta) [mV]"
0.7118,180,90,90,90,-3.11445641509534e-19,-4.27570953097455e-19,2.49966146352989e-15,-2.37719036782129e-16
"Freq [GHz]","IWavePhi [deg]","IWaveTheta [deg]","Phi [deg]","Theta [deg]","re(rEPhi) [mV]","im(rEPhi) [mV]","re(rETheta) [mV]","im(rETheta) [mV]"
0.7118,180,90,-90,90,-2.46969572075445e-19,-2.15881808911409e-21,1.51692262375491e-15,-2.88747134675118e-16
"Freq [GHz]","IWavePhi [deg]","IWaveTheta [deg]","Phi [deg]","Theta [deg]","re(rEPhi) [mV]","im(rEPhi) [mV]","re(rETheta) [mV]","im(rETheta) [mV]"
0.7118,180,90,0,0,3.34398137919956e-15,-3.36672606380589e-15,3.19283270866213e-19,1.76563820302572e-19
"Freq [GHz]","IWavePhi [deg]","IWaveTheta [deg]","Phi [deg]","Theta [deg]","re(rEPhi) [mV]","im(rEPhi) [mV]","re(rETheta) [mV]","im(rETheta) [mV]"
0.7118,180,90,0,180,2.50103793807627e-15,-3.4411208284496e-15,5.06045641166386e-19,5.61354156773819e-19
