"Freq [GHz]","IWavePhi [deg]","IWaveTheta [deg]","Phi [deg]","Theta [deg]","re(rEPhi) [mV]","im(rEPhi) [mV]","re(rETheta) [mV]","im(rETheta) [mV]"
1.6371,180,90,0,90,26.1678321984193,68.0734902043872,-0.0309570389520313,-0.0152247364209611
"Freq [GHz]","IWavePhi [deg]","IWaveTheta [deg]","Phi [deg]","Theta [deg]","re(rEPhi) [mV]","im(rEPhi) [mV]","re(rETheta) [mV]","im(rETheta) [mV]"
1.6371,180,90,180,90,-26.1949258110871,-68.1353035340812,0.000938395969046143,0.0286669370386791
"Freq [GHz]","IWavePhi [deg]","IWaveTheta [deg]","Phi [deg]","Theta [deg]","re(rEPhi) [mV]","im(rEPhi) [mV]","re(rETheta) [mV]","im(rETheta) [mV]"
1.6371,180,90,90,90,-0.0359004404286835,-0.0406501504831567,0.00742142769424691,0.01110196429008
"Freq [GHz]","IWavePhi [deg]","IWaveTheta [deg]","Phi [deg]","Theta [deg]","re(rEPhi) [mV]","im(rEPhi) [mV]","re(rETheta) [mV]","im(rETheta) [mV]"
1.6371,180,90,-90,90,0.0772162800878936,-0.00819484723186797,-0.0170898987365906,0.0753938671337618
"Freq [GHz]","IWavePhi [deg]","IWaveTheta [deg]","Phi [deg]","Theta [deg]","re(rEPhi) [mV]","im(rEPhi) [mV]","re(rETheta) [mV]","im(rETheta) [mV]"
1.6371,180,90,0,0,12.7065293974004,43.9024396248351,0.00476522002120648,-0.00382832865729592
"Freq [GHz]","IWavePhi [deg]","IWaveTheta [deg]","Phi [deg]","Theta [deg]","re(rEPhi) [mV]","im(rEPhi) [mV]","re(rETheta) [mV]","im(rETheta) [mV]"
1.6371,180,90,0,180,12.4282090046912,43.8867089053186,-0.00909034714420108,0.0409659559704482
"Freq [GHz]","IWavePhi [deg]","IWaveTheta [deg]","Phi [deg]","Theta [deg]","re(rEPhi) [mV]","im(rEPhi) [mV]","re(rETheta) [mV]","im(rETheta) [mV]"
1.6371,180,90,45,54.736,13.3215857408314,33.1954175857729,7.21553000823464,19.1579492333358
"Freq [GHz]","IWavePhi [deg]","IWaveTheta [deg]","Phi [deg]","Theta [deg]","re(rEPhi) [mV]","im(rEPhi) [mV]","re(rETheta) [mV]","im(rETheta) [mV]"
1.6371,180,90,135,54.736,-13.3510718673205,-33.033013088188,7.27298731223116,19.1785228948342
"Freq [GHz]","IWavePhi [deg]","IWaveTheta [deg]","Phi [deg]","Theta [deg]","re(rEPhi) [mV]","im(rEPhi) [mV]","re(rETheta) [mV]","im(rETheta) [mV]"
1.6371,180,90,-45,54.736,13.3003049862911,33.1077688464773,-7.257547915166,-19.1715863464768
"Freq [GHz]","IWavePhi [deg]","IWaveTheta [deg]","Phi [deg]","Theta [deg]","re(rEPhi) [mV]","im(rEPhi) [mV]","re(rETheta) [mV]","im(rETheta) [mV]"
1.6371,180,90,45,125.264,13.3293156074026,33.0576362945116,-7.28706394105711,-19.1558837656674
"Freq [GHz]","IWavePhi [deg]","IWaveTheta [deg]","Phi [deg]","Theta [deg]","re(rEPhi) [mV]","im(rEPhi) [mV]","re(rETheta) [mV]","im(rETheta) [mV]"
1.6371,180,90,-135,54.736,-13.2303034131664,-33.0768542267141,-7.25684884821787,-19.1478286502499
"Freq [GHz]","IWavePhi [deg]","IWaveTheta [deg]","Phi [deg]","Theta [deg]","re(rEPhi) [mV]","im(rEPhi) [mV]","re(rETheta) [mV]","im(rETheta) [mV]"
1.6371,180,90,-45,125.264,13.0279692805616,33.1487261083422,7.03744190449097,19.171585624015
"Freq [GHz]","IWavePhi [deg]","IWaveTheta [deg]","Phi [deg]","Theta [deg]","re(rEPhi) [mV]","im(rEPhi) [mV]","re(rETheta) [mV]","im(rETheta) [mV]"
1.6371,180,90,135,125.264,-13.1865774985909,-33.0734017735408,-7.20700737172001,-19.2245093902103
"Freq [GHz]","IWavePhi [deg]","IWaveTheta [deg]","Phi [deg]","Theta [deg]","re(rEPhi) [mV]","im(rEPhi) [mV]","re(rETheta) [mV]","im(rETheta) [mV]"
1.6371,180,90,-135,125.264,-13.3858286260602,-33.1411259990672,7.19211786787851,19.1698120365728
"Freq [GHz]","IWavePhi [deg]","IWaveTheta [deg]","Phi [deg]","Theta [deg]","re(rEPhi) [mV]","im(rEPhi) [mV]","re(rETheta) [mV]","im(rETheta) [mV]"
1.6371,180,90,0,90,-26.1678321984193,-68.0734902043872,0.030957038951982,0.0152247364209503
"Freq [GHz]","IWavePhi [deg]","IWaveTheta [deg]","Phi [deg]","Theta [deg]","re(rEPhi) [mV]","im(rEPhi) [mV]","re(rETheta) [mV]","im(rETheta) [mV]"
1.6371,180,90,180,90,26.1949258110871,68.1353035340812,-0.000938395969095432,-0.0286669370386681
"Freq [GHz]","IWavePhi [deg]","IWaveTheta [deg]","Phi [deg]","Theta [deg]","re(rEPhi) [mV]","im(rEPhi) [mV]","re(rETheta) [mV]","im(rETheta) [mV]"
1.6371,180,90,90,90,0.0359004404407958,0.0406501505030232,-0.00742142769426378,-0.0111019642901275
"Freq [GHz]","IWavePhi [deg]","IWaveTheta [deg]","Phi [deg]","Theta [deg]","re(rEPhi) [mV]","im(rEPhi) [mV]","re(rETheta) [mV]","im(rETheta) [mV]"
1.6371,180,90,-90,90,-0.0772162801000225,0.00819484725170667,0.0170898987365737,-0.0753938671337144
"Freq [GHz]","IWavePhi [deg]","IWaveTheta [deg]","Phi [deg]","Theta [deg]","re(rEPhi) [mV]","im(rEPhi) [mV]","re(rETheta) [mV]","im(rETheta) [mV]"
1.6371,180,90,0,0,-12.7065293974004,-43.9024396248351,-0.00476522004392614,0.00382832866227958
"Freq [GHz]","IWavePhi [deg]","IWaveTheta [deg]","Phi [deg]","Theta [deg]","re(rEPhi) [mV]","im(rEPhi) [mV]","re(rETheta) [mV]","im(rETheta) [mV]"
1.6371,180,90,0,180,-12.4282090046912,-43.8867089053186,0.00909034716691363,-0.0409659559654326
"Freq [GHz]","IWavePhi [deg]","IWaveTheta [deg]","Phi [deg]","Theta [deg]","re(rEPhi) [mV]","im(rEPhi) [mV]","re(rETheta) [mV]","im(rETheta) [mV]"
1.6371,180,90,45,54.736,-13.3215857408229,-33.1954175857871,-7.21553000823954,-19.1579492333276
"Freq [GHz]","IWavePhi [deg]","IWaveTheta [deg]","Phi [deg]","Theta [deg]","re(rEPhi) [mV]","im(rEPhi) [mV]","re(rETheta) [mV]","im(rETheta) [mV]"
1.6371,180,90,135,54.736,13.3510718673369,33.0330130881883,-7.27298731222167,-19.178522894834
"Freq [GHz]","IWavePhi [deg]","IWaveTheta [deg]","Phi [deg]","Theta [deg]","re(rEPhi) [mV]","im(rEPhi) [mV]","re(rETheta) [mV]","im(rETheta) [mV]"
1.6371,180,90,-45,54.736,-13.3003049862936,-33.1077688464936,7.25754791516454,19.1715863464674
"Freq [GHz]","IWavePhi [deg]","IWaveTheta [deg]","Phi [deg]","Theta [deg]","re(rEPhi) [mV]","im(rEPhi) [mV]","re(rETheta) [mV]","im(rETheta) [mV]"
1.6371,180,90,45,125.264,-13.3293156074155,-33.0576362945219,7.28706394104973,19.1558837656614
"Freq [GHz]","IWavePhi [deg]","IWaveTheta [deg]","Phi [deg]","Theta [deg]","re(rEPhi) [mV]","im(rEPhi) [mV]","re(rETheta) [mV]","im(rETheta) [mV]"
1.6371,180,90,-135,54.736,13.2303034131792,33.0768542267038,7.2568488482105,19.1478286502559
"Freq [GHz]","IWavePhi [deg]","IWaveTheta [deg]","Phi [deg]","Theta [deg]","re(rEPhi) [mV]","im(rEPhi) [mV]","re(rETheta) [mV]","im(rETheta) [mV]"
1.6371,180,90,-45,125.264,-13.0279692805781,-33.1487261083419,-7.03744190448147,-19.1715856240152
"Freq [GHz]","IWavePhi [deg]","IWaveTheta [deg]","Phi [deg]","Theta [deg]","re(rEPhi) [mV]","im(rEPhi) [mV]","re(rETheta) [mV]","im(rETheta) [mV]"
1.6371,180,90,135,125.264,13.1865774985935,33.0734017735246,7.20700737171855,19.2245093902197
"Freq [GHz]","IWavePhi [deg]","IWaveTheta [deg]","Phi [deg]","Theta [deg]","re(rEPhi) [mV]","im(rEPhi) [mV]","re(rETheta) [mV]","im(rETheta) [mV]"
1.6371,180,90,-135,125.264,13.3858286260518,33.141125999053,-7.19211786788341,-19.169812036581
"Freq [GHz]","IWavePhi [deg]","IWaveTheta [deg]","Phi [deg]","Theta [deg]","re(rEPhi) [mV]","im(rEPhi) [mV]","re(rETheta) [mV]","im(rETheta) [mV]"
1.6371,180,90,0,90,2.26321420849618e-15,4.01765643005471e-15,-1.40871187805942e-15,3.37629724005247e-16
"Freq [GHz]","IWavePhi [deg]","IWaveTheta [deg]","Phi [deg]","Theta [deg]","re(rEPhi) [mV]","im(rEPhi) [mV]","re(rETheta) [mV]","im(rETheta) [mV]"
1.6371,180,90,180,90,-2.28552312515552e-15,-4.01006751167921e-15,-1.38046633136711e-15,3.21170891027744e-16
"Freq [GHz]","IWavePhi [deg]","IWaveTheta [deg]","Phi [deg]","Theta [deg]","re(rEPhi) [mV]","im(rEPhi) [mV]","re(rETheta) [mV]","im(rETheta) [mV]"
1.6371,180,90,90,90,5.40334904461223e-18,-1.365119394866e-17,-3.13028150893553e-15,5.61293894568068e-15
"Freq [GHz]","IWavePhi [deg]","IWaveTheta [deg]","Phi [deg]","Theta [deg]","re(rEPhi) [mV]","im(rEPhi) [mV]","re(rETheta) [mV]","im(rETheta) [mV]"
1.6371,180,90,-90,90,1.05423482323789e-19,6.35633321764092e-19,4.16480471305796e-15,-4.832158003414e-15
"Freq [GHz]","IWavePhi [deg]","IWaveTheta [deg]","Phi [deg]","Theta [deg]","re(rEPhi) [mV]","im(rEPhi) [mV]","re(rETheta) [mV]","im(rETheta) [mV]"
1.6371,180,90,0,0,4.83455020358574e-15,-6.99061584474291e-16,2.83733380966907e-18,-5.66414144411647e-19
"Freq [GHz]","IWavePhi [deg]","IWaveTheta [deg]","Phi [deg]","Theta [deg]","re(rEPhi) [mV]","im(rEPhi) [mV]","re(rETheta) [mV]","im(rETheta) [mV]"
1.6371,180,90,0,180,-2.24726193978145e-15,5.84444140276544e-15,2.36863964530713e-19,-7.79252566537459e-18
"Freq [GHz]","IWavePhi [deg]","IWaveTheta [deg]","Phi [deg]","Theta [deg]","re(rEPhi) [mV]","im(rEPhi) [mV]","re(rETheta) [mV]","im(rETheta) [mV]"
1.6371,180,90,45,54.736,-9.19172392293598e-16,5.9179787446794e-15,-4.41920991710934e-15,8.25421741255432e-15
"Freq [GHz]","IWavePhi [deg]","IWaveTheta [deg]","Phi [deg]","Theta [deg]","re(rEPhi) [mV]","im(rEPhi) [mV]","re(rETheta) [mV]","im(rETheta) [mV]"
1.6371,180,90,135,54.736,9.28973917343209e-16,-5.89380385116144e-15,-4.42155350771087e-15,8.24838500919582e-15
"Freq [GHz]","IWavePhi [deg]","IWaveTheta [deg]","Phi [deg]","Theta [deg]","re(rEPhi) [mV]","im(rEPhi) [mV]","re(rETheta) [mV]","im(rETheta) [mV]"
1.6371,180,90,-45,54.736,4.82871269804915e-15,-4.59784804578414e-15,2.94217181911759e-16,-1.49430022533619e-15
"Freq [GHz]","IWavePhi [deg]","IWaveTheta [deg]","Phi [deg]","Theta [deg]","re(rEPhi) [mV]","im(rEPhi) [mV]","re(rETheta) [mV]","im(rETheta) [mV]"
1.6371,180,90,45,125.264,-7.30708206205154e-15,8.39998153447524e-15,5.18708221598865e-16,-1.60596111448514e-16
"Freq [GHz]","IWavePhi [deg]","IWaveTheta [deg]","Phi [deg]","Theta [deg]","re(rEPhi) [mV]","im(rEPhi) [mV]","re(rETheta) [mV]","im(rETheta) [mV]"
1.6371,180,90,-135,54.736,-4.80557765912352e-15,4.62281385667683e-15,2.86170498548222e-16,-1.49170571382863e-15
"Freq [GHz]","IWavePhi [deg]","IWaveTheta [deg]","Phi [deg]","Theta [deg]","re(rEPhi) [mV]","im(rEPhi) [mV]","re(rETheta) [mV]","im(rETheta) [mV]"
1.6371,180,90,-45,125.264,5.04406433796684e-15,-1.81976301549785e-15,5.8751455064475e-15,-5.31591569328164e-15
"Freq [GHz]","IWavePhi [deg]","IWaveTheta [deg]","Phi [deg]","Theta [deg]","re(rEPhi) [mV]","im(rEPhi) [mV]","re(rETheta) [mV]","im(rETheta) [mV]"
1.6371,180,90,135,125.264,7.32099558502539e-15,-8.39833660220973e-15,5.08447415100776e-16,-1.60632479523863e-16
"Freq [GHz]","IWavePhi [deg]","IWaveTheta [deg]","Phi [deg]","Theta [deg]","re(rEPhi) [mV]","im(rEPhi) [mV]","re(rETheta) [mV]","im(rETheta) [mV]"
1.6371,180,90,-135,125.264,-5.06624560029141e-15,1.81348031295191e-15,5.86943573208368e-15,-5.30073759898556e-15
"Freq [GHz]","IWavePhi [deg]","IWaveTheta [deg]","Phi [deg]","Theta [deg]","re(rEPhi) [mV]","im(rEPhi) [mV]","re(rETheta) [mV]","im(rETheta) [mV]"
1.6371,180,90,0,90,-1.19288598840443e-17,1.83764058562377e-18,1.43146029947449e-15,-3.5380310379994e-16
"Freq [GHz]","IWavePhi [deg]","IWaveTheta [deg]","Phi [deg]","Theta [deg]","re(rEPhi) [mV]","im(rEPhi) [mV]","re(rETheta) [mV]","im(rETheta) [mV]"
1.6371,180,90,180,90,3.90982154532842e-18,1.97264085026476e-18,1.45823657262404e-15,-3.51493268463694e-16
"Freq [GHz]","IWavePhi [deg]","IWaveTheta [deg]","Phi [deg]","Theta [deg]","re(rEPhi) [mV]","im(rEPhi) [mV]","re(rETheta) [mV]","im(rETheta) [mV]"
1.6371,180,90,90,90,-1.62880442222413e-19,-5.69684375737564e-19,-4.18882689071536e-15,4.82475108327836e-15
"Freq [GHz]","IWavePhi [deg]","IWaveTheta [deg]","Phi [deg]","Theta [deg]","re(rEPhi) [mV]","im(rEPhi) [mV]","re(rETheta) [mV]","im(rETheta) [mV]"
1.6371,180,90,-90,90,4.81651288954079e-18,1.59990223612754e-18,3.13184714259325e-15,-5.64494187189597e-15
"Freq [GHz]","IWavePhi [deg]","IWaveTheta [deg]","Phi [deg]","Theta [deg]","re(rEPhi) [mV]","im(rEPhi) [mV]","re(rETheta) [mV]","im(rETheta) [mV]"
1.6371,180,90,0,0,3.53249191098194e-15,-3.28767464930744e-15,-3.94932272233731e-18,-9.13774271525827e-19
"Freq [GHz]","IWavePhi [deg]","IWaveTheta [deg]","Phi [deg]","Theta [deg]","re(rEPhi) [mV]","im(rEPhi) [mV]","re(rETheta) [mV]","im(rETheta) [mV]"
1.6371,180,90,0,180,-3.55317105990903e-15,3.27663403836541e-15,-1.01741639220633e-18,-8.22939994414657e-19
"Freq [GHz]","IWavePhi [deg]","IWaveTheta [deg]","Phi [deg]","Theta [deg]","re(rEPhi) [mV]","im(rEPhi) [mV]","re(rETheta) [mV]","im(rETheta) [mV]"
1.6371,180,90,45,54.736,-1.11691377428513e-16,-1.38740024969315e-15,-3.07025992624521e-15,3.38223545927979e-15
"Freq [GHz]","IWavePhi [deg]","IWaveTheta [deg]","Phi [deg]","Theta [deg]","re(rEPhi) [mV]","im(rEPhi) [mV]","re(rETheta) [mV]","im(rETheta) [mV]"
1.6371,180,90,135,54.736,1.0603096754379e-16,1.39105586553129e-15,-3.06765718479606e-15,3.38408793000167e-15
"Freq [GHz]","IWavePhi [deg]","IWaveTheta [deg]","Phi [deg]","Theta [deg]","re(rEPhi) [mV]","im(rEPhi) [mV]","re(rETheta) [mV]","im(rETheta) [mV]"
1.6371,180,90,-45,54.736,3.18765296339026e-15,-1.24191001157477e-15,1.98173804623948e-15,-4.07089918880418e-15
"Freq [GHz]","IWavePhi [deg]","IWaveTheta [deg]","Phi [deg]","Theta [deg]","re(rEPhi) [mV]","im(rEPhi) [mV]","re(rETheta) [mV]","im(rETheta) [mV]"
1.6371,180,90,45,125.264,1.0639746650785e-16,1.36735721875615e-15,-3.03319760069202e-15,3.40108609077438e-15
"Freq [GHz]","IWavePhi [deg]","IWaveTheta [deg]","Phi [deg]","Theta [deg]","re(rEPhi) [mV]","im(rEPhi) [mV]","re(rETheta) [mV]","im(rETheta) [mV]"
1.6371,180,90,-135,54.736,-3.19005729095366e-15,1.23853024993513e-15,1.97871763564898e-15,-4.07277670879991e-15
"Freq [GHz]","IWavePhi [deg]","IWaveTheta [deg]","Phi [deg]","Theta [deg]","re(rEPhi) [mV]","im(rEPhi) [mV]","re(rETheta) [mV]","im(rETheta) [mV]"
1.6371,180,90,-45,125.264,-3.19136633395906e-15,1.27799052321939e-15,2.00248109321939e-15,-4.07749490486934e-15
"Freq [GHz]","IWavePhi [deg]","IWaveTheta [deg]","Phi [deg]","Theta [deg]","re(rEPhi) [mV]","im(rEPhi) [mV]","re(rETheta) [mV]","im(rETheta) [mV]"
1.6371,180,90,135,125.264,-1.03756268506338e-16,-1.36812255574735e-15,-3.05804282144754e-15,3.40190156281726e-15
"Freq [GHz]","IWavePhi [deg]","IWaveTheta [deg]","Phi [deg]","Theta [deg]","re(rEPhi) [mV]","im(rEPhi) [mV]","re(rETheta) [mV]","im(rETheta) [mV]"
1.6371,180,90,-135,125.264,3.19468363501313e-15,-1.27286800848968e-15,1.98234084054185e-15,-4.07783389650074e-15
"Freq [GHz]","IWavePhi [deg]","IWaveTheta [deg]","Phi [deg]","Theta [deg]","re(rEPhi) [mV]","im(rEPhi) [mV]","re(rETheta) [mV]","im(rETheta) [mV]"
1.6371,180,90,0,90,12.4014458689272,43.9778485732085,-0.112945831371046,0.136569557571688
"Freq [GHz]","IWavePhi [deg]","IWaveTheta [deg]","Phi [deg]","Theta [deg]","re(rEPhi) [mV]","im(rEPhi) [mV]","re(rETheta) [mV]","im(rETheta) [mV]"
1.6371,180,90,180,90,-12.4584618328673,-44.1755908588512,-0.203650960523789,0.117837504263194
"Freq [GHz]","IWavePhi [deg]","IWaveTheta [deg]","Phi [deg]","Theta [deg]","re(rEPhi) [mV]","im(rEPhi) [mV]","re(rETheta) [mV]","im(rETheta) [mV]"
1.6371,180,90,90,90,-0.00634088261295853,-0.00418549642629423,22.0158689689391,-20.4773326837242
"Freq [GHz]","IWavePhi [deg]","IWaveTheta [deg]","Phi [deg]","Theta [deg]","re(rEPhi) [mV]","im(rEPhi) [mV]","re(rETheta) [mV]","im(rETheta) [mV]"
1.6371,180,90,-90,90,0.0133406906262343,0.00829220568266495,-21.9925937945412,20.6763415217883
"Freq [GHz]","IWavePhi [deg]","IWaveTheta [deg]","Phi [deg]","Theta [deg]","re(rEPhi) [mV]","im(rEPhi) [mV]","re(rETheta) [mV]","im(rETheta) [mV]"
1.6371,180,90,0,0,32.9210008208078,57.1425658794913,0.0198917057390684,0.0204681956308914
"Freq [GHz]","IWavePhi [deg]","IWaveTheta [deg]","Phi [deg]","Theta [deg]","re(rEPhi) [mV]","im(rEPhi) [mV]","re(rETheta) [mV]","im(rETheta) [mV]"
1.6371,180,90,0,180,-6.59349194123759,-0.0560723411002605,-0.0119419243936351,0.0161732537102127
"Freq [GHz]","IWavePhi [deg]","IWaveTheta [deg]","Phi [deg]","Theta [deg]","re(rEPhi) [mV]","im(rEPhi) [mV]","re(rETheta) [mV]","im(rETheta) [mV]"
1.6371,180,90,45,54.736,15.0251605327353,32.5043928369297,30.7007254934382,1.5238612161089
"Freq [GHz]","IWavePhi [deg]","IWaveTheta [deg]","Phi [deg]","Theta [deg]","re(rEPhi) [mV]","im(rEPhi) [mV]","re(rETheta) [mV]","im(rETheta) [mV]"
1.6371,180,90,135,54.736,-15.053823823461,-32.4581667603434,30.7199968426474,1.59819152308479
"Freq [GHz]","IWavePhi [deg]","IWaveTheta [deg]","Phi [deg]","Theta [deg]","re(rEPhi) [mV]","im(rEPhi) [mV]","re(rETheta) [mV]","im(rETheta) [mV]"
1.6371,180,90,-45,54.736,15.1551067929206,32.3007777476917,-30.7985178215786,-1.37360310777425
"Freq [GHz]","IWavePhi [deg]","IWaveTheta [deg]","Phi [deg]","Theta [deg]","re(rEPhi) [mV]","im(rEPhi) [mV]","re(rETheta) [mV]","im(rETheta) [mV]"
1.6371,180,90,45,125.264,1.02830806370823,10.6434898064681,17.3924064314012,-23.493153351363
"Freq [GHz]","IWavePhi [deg]","IWaveTheta [deg]","Phi [deg]","Theta [deg]","re(rEPhi) [mV]","im(rEPhi) [mV]","re(rETheta) [mV]","im(rETheta) [mV]"
1.6371,180,90,-135,54.736,-14.988191056471,-32.2422763699029,-30.7066838316508,-1.32554670544397
"Freq [GHz]","IWavePhi [deg]","IWaveTheta [deg]","Phi [deg]","Theta [deg]","re(rEPhi) [mV]","im(rEPhi) [mV]","re(rETheta) [mV]","im(rETheta) [mV]"
1.6371,180,90,-45,125.264,0.684095295637078,10.3753925804098,-17.903701506659,23.4437818010474
"Freq [GHz]","IWavePhi [deg]","IWaveTheta [deg]","Phi [deg]","Theta [deg]","re(rEPhi) [mV]","im(rEPhi) [mV]","re(rETheta) [mV]","im(rETheta) [mV]"
1.6371,180,90,135,125.264,-0.95529576535047,-10.618270075332,17.5137625326684,-23.4993320948231
"Freq [GHz]","IWavePhi [deg]","IWaveTheta [deg]","Phi [deg]","Theta [deg]","re(rEPhi) [mV]","im(rEPhi) [mV]","re(rETheta) [mV]","im(rETheta) [mV]"
1.6371,180,90,-135,125.264,-0.960741726149872,-10.3645614222761,-17.726752490249,23.4533939011684
"Freq [GHz]","IWavePhi [deg]","IWaveTheta [deg]","Phi [deg]","Theta [deg]","re(rEPhi) [mV]","im(rEPhi) [mV]","re(rETheta) [mV]","im(rETheta) [mV]"
1.6371,180,90,0,90,12.4299523786625,44.1608012874673,0.0533974037827746,-0.145775083991331
"Freq [GHz]","IWavePhi [deg]","IWaveTheta [deg]","Phi [deg]","Theta [deg]","re(rEPhi) [mV]","im(rEPhi) [mV]","re(rETheta) [mV]","im(rETheta) [mV]"
1.6371,180,90,180,90,-12.4168545427201,-44.0506965059205,0.187667572418222,-0.0720811267107056
"Freq [GHz]","IWavePhi [deg]","IWaveTheta [deg]","Phi [deg]","Theta [deg]","re(rEPhi) [mV]","im(rEPhi) [mV]","re(rETheta) [mV]","im(rETheta) [mV]"
1.6371,180,90,90,90,-0.0377546804460797,-0.0529124976734713,-21.9797373784782,20.4871035926014
"Freq [GHz]","IWavePhi [deg]","IWaveTheta [deg]","Phi [deg]","Theta [deg]","re(rEPhi) [mV]","im(rEPhi) [mV]","re(rETheta) [mV]","im(rETheta) [mV]"
1.6371,180,90,-90,90,0.0815886549329818,-0.0184205454835734,22.0237901594985,-20.5751700803501
"Freq [GHz]","IWavePhi [deg]","IWaveTheta [deg]","Phi [deg]","Theta [deg]","re(rEPhi) [mV]","im(rEPhi) [mV]","re(rETheta) [mV]","im(rETheta) [mV]"
1.6371,180,90,0,0,-6.47441678807927,0.18572187798785,-0.0133663786583854,-0.0226837141343071
"Freq [GHz]","IWavePhi [deg]","IWaveTheta [deg]","Phi [deg]","Theta [deg]","re(rEPhi) [mV]","im(rEPhi) [mV]","re(rETheta) [mV]","im(rETheta) [mV]"
1.6371,180,90,0,180,32.6695258960852,57.3110585764872,0.00134875127538158,0.0376461731645573
"Freq [GHz]","IWavePhi [deg]","IWaveTheta [deg]","Phi [deg]","Theta [deg]","re(rEPhi) [mV]","im(rEPhi) [mV]","re(rETheta) [mV]","im(rETheta) [mV]"
1.6371,180,90,45,54.736,1.04133785188796,10.5943853810429,-17.6181630041629,23.4058458012715
"Freq [GHz]","IWavePhi [deg]","IWaveTheta [deg]","Phi [deg]","Theta [deg]","re(rEPhi) [mV]","im(rEPhi) [mV]","re(rETheta) [mV]","im(rETheta) [mV]"
1.6371,180,90,135,54.736,-1.04620479251055,-10.4354362506984,-17.5612739313247,23.3496052707217
"Freq [GHz]","IWavePhi [deg]","IWaveTheta [deg]","Phi [deg]","Theta [deg]","re(rEPhi) [mV]","im(rEPhi) [mV]","re(rETheta) [mV]","im(rETheta) [mV]"
1.6371,180,90,-45,54.736,0.79426480222701,10.5949840408456,17.7247184308837,-23.4943924796462
"Freq [GHz]","IWavePhi [deg]","IWaveTheta [deg]","Phi [deg]","Theta [deg]","re(rEPhi) [mV]","im(rEPhi) [mV]","re(rETheta) [mV]","im(rETheta) [mV]"
1.6371,180,90,45,125.264,15.0478380064221,32.2597529401572,-30.5938258018579,-1.43031954045417
"Freq [GHz]","IWavePhi [deg]","IWaveTheta [deg]","Phi [deg]","Theta [deg]","re(rEPhi) [mV]","im(rEPhi) [mV]","re(rETheta) [mV]","im(rETheta) [mV]"
1.6371,180,90,-135,54.736,-0.853170634439591,-10.607231924476,17.6411888460148,-23.5071457818028
