"Freq [GHz]","IWavePhi [deg]","IWaveTheta [deg]","Phi [deg]","Theta [deg]","re(rEPhi) [mV]","im(rEPhi) [mV]","re(rETheta) [nV]","im(rETheta) [nV]"
0.5694,180,90,0,90,-41.9272257530173,14.4695439724735,971.440077137324,754.137542579333
"Freq [GHz]","IWavePhi [deg]","IWaveTheta [deg]","Phi [deg]","Theta [deg]","re(rEPhi) [mV]","im(rEPhi) [mV]","re(rETheta) [uv]","im(rETheta) [uv]"
0.5694,180,90,180,90,41.9285889421988,-14.4625308534558,-1.59296566849299,-1.39995199879641
"Freq [GHz]","IWavePhi [deg]","IWaveTheta [deg]","Phi [deg]","Theta [deg]","re(rEPhi) [uv]","im(rEPhi) [nV]","re(rETheta) [uv]","im(rETheta) [uv]"
0.5694,180,90,90,90,1.07392178233855,169.042790231072,1.51729014858861,3.69688791443144
"Freq [GHz]","IWavePhi [deg]","IWaveTheta [deg]","Phi [deg]","Theta [deg]","re(rEPhi) [nV]","im(rEPhi) [nV]","re(rETheta) [nV]","im(rETheta) [nV]"
0.5694,180,90,-90,90,-933.838631120705,800.061881403503,532.933878557138,141.339271152394
"Freq [GHz]","IWavePhi [deg]","IWaveTheta [deg]","Phi [deg]","Theta [deg]","re(rEPhi) [mV]","im(rEPhi) [mV]","re(rETheta) [uv]","im(rETheta) [uv]"
0.5694,180,90,0,0,-39.899391074319,13.7362085541906,1.20243836982944,-1.22516790511437
"Freq [GHz]","IWavePhi [deg]","IWaveTheta [deg]","Phi [deg]","Theta [deg]","re(rEPhi) [mV]","im(rEPhi) [mV]","re(rETheta) [uv]","im(rETheta) [uv]"
0.5694,180,90,0,180,-39.903898508169,13.7335686838221,1.1494161505504,-1.18522081945602
"Freq [GHz]","IWavePhi [deg]","IWaveTheta [deg]","Phi [deg]","Theta [deg]","re(rEPhi) [mV]","im(rEPhi) [mV]","re(rETheta) [mV]","im(rETheta) [mV]"
0.5694,180,90,45,54.736,-28.2171033773127,9.73152140229771,-16.2484710976893,5.59868253919501
"Freq [GHz]","IWavePhi [deg]","IWaveTheta [deg]","Phi [deg]","Theta [deg]","re(rEPhi) [mV]","im(rEPhi) [mV]","re(rETheta) [mV]","im(rETheta) [mV]"
0.5694,180,90,135,54.736,28.217441302679,-9.72767498029412,-16.2474849975315,5.59512772403072
"Freq [GHz]","IWavePhi [deg]","IWaveTheta [deg]","Phi [deg]","Theta [deg]","re(rEPhi) [mV]","im(rEPhi) [mV]","re(rETheta) [mV]","im(rETheta) [mV]"
0.5694,180,90,-45,54.736,-28.2164219549345,9.72328381731361,16.2471098913786,-5.59351069184746
"Freq [GHz]","IWavePhi [deg]","IWaveTheta [deg]","Phi [deg]","Theta [deg]","re(rEPhi) [mV]","im(rEPhi) [mV]","re(rETheta) [mV]","im(rETheta) [mV]"
0.5694,180,90,45,125.264,-28.2216544502932,9.72721187518374,16.2479932444959,-5.59516533953811
"Freq [GHz]","IWavePhi [deg]","IWaveTheta [deg]","Phi [deg]","Theta [deg]","re(rEPhi) [mV]","im(rEPhi) [mV]","re(rETheta) [mV]","im(rETheta) [mV]"
0.5694,180,90,-135,54.736,28.2204918371658,-9.7323876401862,16.2514340675448,-5.59824122594203
"Freq [GHz]","IWavePhi [deg]","IWaveTheta [deg]","Phi [deg]","Theta [deg]","re(rEPhi) [mV]","im(rEPhi) [mV]","re(rETheta) [mV]","im(rETheta) [mV]"
0.5694,180,90,-45,125.264,-28.2173026826455,9.73002757654487,-16.2484883070952,5.59741997960124
"Freq [GHz]","IWavePhi [deg]","IWaveTheta [deg]","Phi [deg]","Theta [deg]","re(rEPhi) [mV]","im(rEPhi) [mV]","re(rETheta) [mV]","im(rETheta) [mV]"
0.5694,180,90,135,125.264,28.2137711756603,-9.73130141318834,16.2474338624551,-5.59706164493534
"Freq [GHz]","IWavePhi [deg]","IWaveTheta [deg]","Phi [deg]","Theta [deg]","re(rEPhi) [mV]","im(rEPhi) [mV]","re(rETheta) [mV]","im(rETheta) [mV]"
0.5694,180,90,-135,125.264,28.2143197172594,-9.72972231451869,-16.2449760688176,5.596523186673
"Freq [GHz]","IWavePhi [deg]","IWaveTheta [deg]","Phi [deg]","Theta [deg]","re(rEPhi) [mV]","im(rEPhi) [mV]","re(rETheta) [nV]","im(rETheta) [nV]"
0.5694,180,90,0,90,41.9272257530173,-14.4695439724735,-971.440076901799,-754.137542887151
"Freq [GHz]","IWavePhi [deg]","IWaveTheta [deg]","Phi [deg]","Theta [deg]","re(rEPhi) [mV]","im(rEPhi) [mV]","re(rETheta) [uv]","im(rETheta) [uv]"
0.5694,180,90,180,90,-41.9285889421988,14.4625308534558,1.59296566858077,1.3999519984191
"Freq [GHz]","IWavePhi [deg]","IWaveTheta [deg]","Phi [deg]","Theta [deg]","re(rEPhi) [uv]","im(rEPhi) [nV]","re(rETheta) [uv]","im(rETheta) [uv]"
0.5694,180,90,90,90,-1.07392178233855,-169.042790231072,-1.51729014866114,-3.69688791425208
"Freq [GHz]","IWavePhi [deg]","IWaveTheta [deg]","Phi [deg]","Theta [deg]","re(rEPhi) [nV]","im(rEPhi) [nV]","re(rETheta) [nV]","im(rETheta) [nV]"
0.5694,180,90,-90,90,933.838631120705,-800.061881403503,-532.933878314302,-141.339270703582
"Freq [GHz]","IWavePhi [deg]","IWaveTheta [deg]","Phi [deg]","Theta [deg]","re(rEPhi) [mV]","im(rEPhi) [mV]","re(rETheta) [uv]","im(rETheta) [uv]"
0.5694,180,90,0,0,39.899391074319,-13.7362085541906,-1.20243836982944,1.22516790511437
"Freq [GHz]","IWavePhi [deg]","IWaveTheta [deg]","Phi [deg]","Theta [deg]","re(rEPhi) [mV]","im(rEPhi) [mV]","re(rETheta) [uv]","im(rETheta) [uv]"
0.5694,180,90,0,180,39.903898508169,-13.7335686838221,-1.1494161505504,1.18522081945602
"Freq [GHz]","IWavePhi [deg]","IWaveTheta [deg]","Phi [deg]","Theta [deg]","re(rEPhi) [mV]","im(rEPhi) [mV]","re(rETheta) [mV]","im(rETheta) [mV]"
0.5694,180,90,45,54.736,28.2171033773127,-9.73152140229771,16.2484710976893,-5.59868253919535
"Freq [GHz]","IWavePhi [deg]","IWaveTheta [deg]","Phi [deg]","Theta [deg]","re(rEPhi) [mV]","im(rEPhi) [mV]","re(rETheta) [mV]","im(rETheta) [mV]"
0.5694,180,90,135,54.736,-28.217441302679,9.72767498029412,16.2474849975317,-5.59512772403048
"Freq [GHz]","IWavePhi [deg]","IWaveTheta [deg]","Phi [deg]","Theta [deg]","re(rEPhi) [mV]","im(rEPhi) [mV]","re(rETheta) [mV]","im(rETheta) [mV]"
0.5694,180,90,-45,54.736,28.2164219549345,-9.7232838173136,-16.247109891379,5.59351069184731
"Freq [GHz]","IWavePhi [deg]","IWaveTheta [deg]","Phi [deg]","Theta [deg]","re(rEPhi) [mV]","im(rEPhi) [mV]","re(rETheta) [mV]","im(rETheta) [mV]"
0.5694,180,90,45,125.264,28.2216544502932,-9.72721187518374,-16.2479932444961,5.59516533953817
"Freq [GHz]","IWavePhi [deg]","IWaveTheta [deg]","Phi [deg]","Theta [deg]","re(rEPhi) [mV]","im(rEPhi) [mV]","re(rETheta) [mV]","im(rETheta) [mV]"
0.5694,180,90,-135,54.736,-28.2204918371657,9.7323876401862,-16.2514340675444,5.59824122594189
"Freq [GHz]","IWavePhi [deg]","IWaveTheta [deg]","Phi [deg]","Theta [deg]","re(rEPhi) [mV]","im(rEPhi) [mV]","re(rETheta) [mV]","im(rETheta) [mV]"
0.5694,180,90,-45,125.264,28.2173026826455,-9.73002757654487,16.2484883070949,-5.59741997960126
"Freq [GHz]","IWavePhi [deg]","IWaveTheta [deg]","Phi [deg]","Theta [deg]","re(rEPhi) [mV]","im(rEPhi) [mV]","re(rETheta) [mV]","im(rETheta) [mV]"
0.5694,180,90,135,125.264,-28.2137711756603,9.73130141318834,-16.247433862455,5.59706164493517
"Freq [GHz]","IWavePhi [deg]","IWaveTheta [deg]","Phi [deg]","Theta [deg]","re(rEPhi) [mV]","im(rEPhi) [mV]","re(rETheta) [mV]","im(rETheta) [mV]"
0.5694,180,90,-135,125.264,-28.2143197172594,9.72972231451869,16.2449760688178,-5.59652318667316
"Freq [GHz]","IWavePhi [deg]","IWaveTheta [deg]","Phi [deg]","Theta [deg]","re(rEPhi) [V]","im(rEPhi) [V]","re(rETheta) [V]","im(rETheta) [V]"
0.5694,180,90,0,90,-4.6643429055625e-18,1.60968568453101e-18,-1.39359693540117e-18,9.44171857247126e-20
"Freq [GHz]","IWavePhi [deg]","IWaveTheta [deg]","Phi [deg]","Theta [deg]","re(rEPhi) [V]","im(rEPhi) [V]","re(rETheta) [V]","im(rETheta) [V]"
0.5694,180,90,180,90,4.6644845826262e-18,-1.60884816888049e-18,-1.39394638777617e-18,9.41445900269232e-20
"Freq [GHz]","IWavePhi [deg]","IWaveTheta [deg]","Phi [deg]","Theta [deg]","re(rEPhi) [V]","im(rEPhi) [V]","re(rETheta) [V]","im(rETheta) [V]"
0.5694,180,90,90,90,1.26194775963727e-22,1.18044738548779e-23,-5.85751946458463e-19,9.74447134407118e-20
"Freq [GHz]","IWavePhi [deg]","IWaveTheta [deg]","Phi [deg]","Theta [deg]","re(rEPhi) [V]","im(rEPhi) [V]","re(rETheta) [V]","im(rETheta) [V]"
0.5694,180,90,-90,90,-1.38634659523528e-22,8.8573768467498e-23,-1.48246873006255e-18,5.2664814980027e-20
"Freq [GHz]","IWavePhi [deg]","IWaveTheta [deg]","Phi [deg]","Theta [deg]","re(rEPhi) [V]","im(rEPhi) [V]","re(rETheta) [V]","im(rETheta) [V]"
0.5694,180,90,0,0,-3.59421726508065e-18,1.55457222065291e-18,1.75254993972688e-22,-1.94566777980357e-22
"Freq [GHz]","IWavePhi [deg]","IWaveTheta [deg]","Phi [deg]","Theta [deg]","re(rEPhi) [V]","im(rEPhi) [V]","re(rETheta) [V]","im(rETheta) [V]"
0.5694,180,90,0,180,-5.28356908076286e-18,1.5013490627342e-18,6.95987212685141e-23,-6.85311916980644e-23
"Freq [GHz]","IWavePhi [deg]","IWaveTheta [deg]","Phi [deg]","Theta [deg]","re(rEPhi) [V]","im(rEPhi) [V]","re(rETheta) [V]","im(rETheta) [V]"
0.5694,180,90,45,54.736,-2.85896161572493e-18,1.09192026163337e-18,-2.44822044913889e-18,7.09977646177925e-19
"Freq [GHz]","IWavePhi [deg]","IWaveTheta [deg]","Phi [deg]","Theta [deg]","re(rEPhi) [V]","im(rEPhi) [V]","re(rETheta) [V]","im(rETheta) [V]"
0.5694,180,90,135,54.736,2.8590736242884e-18,-1.09142719548629e-18,-2.44803473410121e-18,7.09601600708696e-19
"Freq [GHz]","IWavePhi [deg]","IWaveTheta [deg]","Phi [deg]","Theta [deg]","re(rEPhi) [V]","im(rEPhi) [V]","re(rETheta) [V]","im(rETheta) [V]"
0.5694,180,90,-45,54.736,-2.74311752851622e-18,1.09308272887535e-18,3.25132082632387e-19,-5.68965993492715e-19
"Freq [GHz]","IWavePhi [deg]","IWaveTheta [deg]","Phi [deg]","Theta [deg]","re(rEPhi) [V]","im(rEPhi) [V]","re(rETheta) [V]","im(rETheta) [V]"
0.5694,180,90,45,125.264,-3.61863490922272e-18,1.07336923885583e-18,1.28465566499183e-18,-5.35672962939826e-19
"Freq [GHz]","IWavePhi [deg]","IWaveTheta [deg]","Phi [deg]","Theta [deg]","re(rEPhi) [V]","im(rEPhi) [V]","re(rETheta) [V]","im(rETheta) [V]"
0.5694,180,90,-135,54.736,2.74367553026019e-18,-1.09408560716646e-18,3.25454714456075e-19,-5.6937262247687e-19
"Freq [GHz]","IWavePhi [deg]","IWaveTheta [deg]","Phi [deg]","Theta [deg]","re(rEPhi) [V]","im(rEPhi) [V]","re(rETheta) [V]","im(rETheta) [V]"
0.5694,180,90,-45,125.264,-3.34269686134886e-18,1.07046483372683e-18,-3.17650586946776e-18,6.75701557560896e-19
"Freq [GHz]","IWavePhi [deg]","IWaveTheta [deg]","Phi [deg]","Theta [deg]","re(rEPhi) [V]","im(rEPhi) [V]","re(rETheta) [V]","im(rETheta) [V]"
0.5694,180,90,135,125.264,3.61773261801636e-18,-1.07385323789639e-18,1.2845208259412e-18,-5.35696330838198e-19
"Freq [GHz]","IWavePhi [deg]","IWaveTheta [deg]","Phi [deg]","Theta [deg]","re(rEPhi) [V]","im(rEPhi) [V]","re(rETheta) [V]","im(rETheta) [V]"
0.5694,180,90,-135,125.264,3.34243866468535e-18,-1.07049680860443e-18,-3.17596974410439e-18,6.75667611704955e-19
"Freq [GHz]","IWavePhi [deg]","IWaveTheta [deg]","Phi [deg]","Theta [deg]","re(rEPhi) [V]","im(rEPhi) [V]","re(rETheta) [V]","im(rETheta) [V]"
0.5694,180,90,0,90,-1.43345452796151e-23,-2.92456194530081e-22,1.39367101739002e-18,-9.43736167563937e-20
"Freq [GHz]","IWavePhi [deg]","IWaveTheta [deg]","Phi [deg]","Theta [deg]","re(rEPhi) [V]","im(rEPhi) [V]","re(rETheta) [V]","im(rETheta) [V]"
0.5694,180,90,180,90,1.00515199054553e-22,3.62473725053275e-22,1.3937525846644e-18,-9.44220928391537e-20
"Freq [GHz]","IWavePhi [deg]","IWaveTheta [deg]","Phi [deg]","Theta [deg]","re(rEPhi) [V]","im(rEPhi) [V]","re(rETheta) [V]","im(rETheta) [V]"
0.5694,180,90,90,90,-2.57595398663956e-24,-2.22958181557724e-23,1.48265726515586e-18,-5.26825733826931e-20
"Freq [GHz]","IWavePhi [deg]","IWaveTheta [deg]","Phi [deg]","Theta [deg]","re(rEPhi) [V]","im(rEPhi) [V]","re(rETheta) [V]","im(rETheta) [V]"
0.5694,180,90,-90,90,-1.94912057496479e-23,2.49702189321924e-23,5.85871715274074e-19,-9.72345321007822e-20
"Freq [GHz]","IWavePhi [deg]","IWaveTheta [deg]","Phi [deg]","Theta [deg]","re(rEPhi) [V]","im(rEPhi) [V]","re(rETheta) [V]","im(rETheta) [V]"
0.5694,180,90,0,0,8.44372930807917e-19,2.61498477154565e-20,-5.70810878446908e-23,4.14952975919897e-23
"Freq [GHz]","IWavePhi [deg]","IWaveTheta [deg]","Phi [deg]","Theta [deg]","re(rEPhi) [V]","im(rEPhi) [V]","re(rETheta) [V]","im(rETheta) [V]"
0.5694,180,90,0,180,-8.44615224653583e-19,-2.65388469822617e-20,5.92590334164543e-23,-7.82497045338236e-23
"Freq [GHz]","IWavePhi [deg]","IWaveTheta [deg]","Phi [deg]","Theta [deg]","re(rEPhi) [V]","im(rEPhi) [V]","re(rETheta) [V]","im(rETheta) [V]"
0.5694,180,90,45,54.736,2.99704384059159e-19,1.1298273035131e-20,1.42564830374317e-18,-5.33796204168991e-20
"Freq [GHz]","IWavePhi [deg]","IWaveTheta [deg]","Phi [deg]","Theta [deg]","re(rEPhi) [V]","im(rEPhi) [V]","re(rETheta) [V]","im(rETheta) [V]"
0.5694,180,90,135,54.736,-2.99660694603935e-19,-1.14747932379067e-20,1.42551140642841e-18,-5.34294117298871e-20
"Freq [GHz]","IWavePhi [deg]","IWaveTheta [deg]","Phi [deg]","Theta [deg]","re(rEPhi) [V]","im(rEPhi) [V]","re(rETheta) [V]","im(rETheta) [V]"
0.5694,180,90,-45,54.736,3.79328317135049e-19,8.73370525998499e-21,5.81730621810941e-19,-8.68298803018851e-20
"Freq [GHz]","IWavePhi [deg]","IWaveTheta [deg]","Phi [deg]","Theta [deg]","re(rEPhi) [V]","im(rEPhi) [V]","re(rETheta) [V]","im(rETheta) [V]"
0.5694,180,90,45,125.264,-2.99796180012222e-19,-1.18687817884615e-20,1.42574719315605e-18,-5.30669653980382e-20
"Freq [GHz]","IWavePhi [deg]","IWaveTheta [deg]","Phi [deg]","Theta [deg]","re(rEPhi) [V]","im(rEPhi) [V]","re(rETheta) [V]","im(rETheta) [V]"
0.5694,180,90,-135,54.736,-3.79409148405889e-19,-8.77846248378421e-21,5.8199957387812e-19,-8.68820540138886e-20
"Freq [GHz]","IWavePhi [deg]","IWaveTheta [deg]","Phi [deg]","Theta [deg]","re(rEPhi) [V]","im(rEPhi) [V]","re(rETheta) [V]","im(rETheta) [V]"
0.5694,180,90,-45,125.264,-3.79598215777362e-19,-9.1489913617259e-21,5.81777546991739e-19,-8.7077050962969e-20
"Freq [GHz]","IWavePhi [deg]","IWaveTheta [deg]","Phi [deg]","Theta [deg]","re(rEPhi) [V]","im(rEPhi) [V]","re(rETheta) [V]","im(rETheta) [V]"
0.5694,180,90,135,125.264,2.99892010589532e-19,1.18476787037865e-20,1.4256901161757e-18,-5.32716939731105e-20
"Freq [GHz]","IWavePhi [deg]","IWaveTheta [deg]","Phi [deg]","Theta [deg]","re(rEPhi) [V]","im(rEPhi) [V]","re(rETheta) [V]","im(rETheta) [V]"
0.5694,180,90,-135,125.264,3.79637734156958e-19,9.10857994034523e-21,5.8161388238503e-19,-8.71370665509328e-20
"Freq [GHz]","IWavePhi [deg]","IWaveTheta [deg]","Phi [deg]","Theta [deg]","re(rEPhi) [mV]","im(rEPhi) [mV]","re(rETheta) [nV]","im(rETheta) [nV]"
0.5694,180,90,0,90,-39.8979021060533,13.7403709173597,763.311593143898,385.302704722903
"Freq [GHz]","IWavePhi [deg]","IWaveTheta [deg]","Phi [deg]","Theta [deg]","re(rEPhi) [mV]","im(rEPhi) [mV]","re(rETheta) [uv]","im(rETheta) [uv]"
0.5694,180,90,180,90,39.8993828521697,-13.7332239577526,-1.61152522770958,-2.08479313173451
"Freq [GHz]","IWavePhi [deg]","IWaveTheta [deg]","Phi [deg]","Theta [deg]","re(rEPhi) [uv]","im(rEPhi) [nV]","re(rETheta) [mV]","im(rETheta) [uv]"
0.5694,180,90,90,90,1.00760225539224,-31.6387191715467,5.25238573411007,167.182744099328
"Freq [GHz]","IWavePhi [deg]","IWaveTheta [deg]","Phi [deg]","Theta [deg]","re(rEPhi) [uv]","im(rEPhi) [nV]","re(rETheta) [mV]","im(rETheta) [uv]"
0.5694,180,90,-90,90,-1.04891855884849,916.75064454086,-5.25005691432303,-164.964367277552
"Freq [GHz]","IWavePhi [deg]","IWaveTheta [deg]","Phi [deg]","Theta [deg]","re(rEPhi) [mV]","im(rEPhi) [mV]","re(rETheta) [uv]","im(rETheta) [uv]"
0.5694,180,90,0,0,-32.98390936374,13.2538708641984,1.09826896201202,-1.20058261780227
"Freq [GHz]","IWavePhi [deg]","IWaveTheta [deg]","Phi [deg]","Theta [deg]","re(rEPhi) [mV]","im(rEPhi) [mV]","re(rETheta) [uv]","im(rETheta) [uv]"
0.5694,180,90,0,180,-42.6281920456312,12.8320259134906,1.0625679083027,-1.19495632131375
"Freq [GHz]","IWavePhi [deg]","IWaveTheta [deg]","Phi [deg]","Theta [deg]","re(rEPhi) [mV]","im(rEPhi) [mV]","re(rETheta) [mV]","im(rETheta) [mV]"
0.5694,180,90,45,54.736,-24.8810772570474,9.32312572354279,-11.6345953864613,5.44376280639605
"Freq [GHz]","IWavePhi [deg]","IWaveTheta [deg]","Phi [deg]","Theta [deg]","re(rEPhi) [mV]","im(rEPhi) [mV]","re(rETheta) [mV]","im(rETheta) [mV]"
0.5694,180,90,135,54.736,24.8817167973834,-9.3199080934233,-11.6338671050746,5.4403743572678
"Freq [GHz]","IWavePhi [deg]","IWaveTheta [deg]","Phi [deg]","Theta [deg]","re(rEPhi) [mV]","im(rEPhi) [mV]","re(rETheta) [mV]","im(rETheta) [mV]"
0.5694,180,90,-45,54.736,-24.8808631884293,9.31557303837497,11.6334122037156,-5.43960740602105
"Freq [GHz]","IWavePhi [deg]","IWaveTheta [deg]","Phi [deg]","Theta [deg]","re(rEPhi) [mV]","im(rEPhi) [mV]","re(rETheta) [mV]","im(rETheta) [mV]"
0.5694,180,90,45,125.264,-28.7502603554978,9.15449797591358,19.1560342237086,-5.18584620751307
"Freq [GHz]","IWavePhi [deg]","IWaveTheta [deg]","Phi [deg]","Theta [deg]","re(rEPhi) [mV]","im(rEPhi) [mV]","re(rETheta) [mV]","im(rETheta) [mV]"
0.5694,180,90,-135,54.736,24.884787873295,-9.3242493125989,11.6381171122123,-5.44381642832028
"Freq [GHz]","IWavePhi [deg]","IWaveTheta [deg]","Phi [deg]","Theta [deg]","re(rEPhi) [mV]","im(rEPhi) [mV]","re(rETheta) [mV]","im(rETheta) [mV]"
0.5694,180,90,-45,125.264,-28.7459405610526,9.15703261247946,-19.1561553819463,5.18757246735256
"Freq [GHz]","IWavePhi [deg]","IWaveTheta [deg]","Phi [deg]","Theta [deg]","re(rEPhi) [mV]","im(rEPhi) [mV]","re(rETheta) [mV]","im(rETheta) [mV]"
0.5694,180,90,135,125.264,28.7430992389084,-9.15853846236936,19.1549095278105,-5.18759764373247
"Freq [GHz]","IWavePhi [deg]","IWaveTheta [deg]","Phi [deg]","Theta [deg]","re(rEPhi) [mV]","im(rEPhi) [mV]","re(rETheta) [mV]","im(rETheta) [mV]"
0.5694,180,90,-135,125.264,28.7435000718463,-9.15717284826735,-19.1526327000404,5.18660478189639
"Freq [GHz]","IWavePhi [deg]","IWaveTheta [deg]","Phi [deg]","Theta [deg]","re(rEPhi) [mV]","im(rEPhi) [mV]","re(rETheta) [uv]","im(rETheta) [uv]"
0.5694,180,90,0,90,-39.8979753837245,13.7400761138475,1.10412435745537,1.04227030295079
"Freq [GHz]","IWavePhi [deg]","IWaveTheta [deg]","Phi [deg]","Theta [deg]","re(rEPhi) [mV]","im(rEPhi) [mV]","re(rETheta) [uv]","im(rETheta) [nV]"
0.5694,180,90,180,90,39.8990870421652,-13.7339179573229,-1.38497203721888,-574.184793421197
"Freq [GHz]","IWavePhi [deg]","IWaveTheta [deg]","Phi [deg]","Theta [deg]","re(rEPhi) [uv]","im(rEPhi) [nV]","re(rETheta) [mV]","im(rETheta) [uv]"
0.5694,180,90,90,90,1.03468153908261,350.908710582763,-5.24949211979,-160.249028809216
"Freq [GHz]","IWavePhi [deg]","IWaveTheta [deg]","Phi [deg]","Theta [deg]","re(rEPhi) [nV]","im(rEPhi) [nV]","re(rETheta) [mV]","im(rETheta) [uv]"
0.5694,180,90,-90,90,-729.718211127177,601.988002586647,5.25107899862997,165.318179458867
"Freq [GHz]","IWavePhi [deg]","IWaveTheta [deg]","Phi [deg]","Theta [deg]","re(rEPhi) [mV]","im(rEPhi) [mV]","re(rETheta) [uv]","im(rETheta) [uv]"
0.5694,180,90,0,0,-42.6232566432611,12.8339021218442,1.19041891614194,-1.12860244986089
"Freq [GHz]","IWavePhi [deg]","IWaveTheta [deg]","Phi [deg]","Theta [deg]","re(rEPhi) [mV]","im(rEPhi) [mV]","re(rETheta) [uv]","im(rETheta) [uv]"
0.5694,180,90,0,180,-32.987542435916,13.2508654419045,1.11425480666887,-1.0611312460234
"Freq [GHz]","IWavePhi [deg]","IWaveTheta [deg]","Phi [deg]","Theta [deg]","re(rEPhi) [mV]","im(rEPhi) [mV]","re(rETheta) [mV]","im(rETheta) [mV]"
0.5694,180,90,45,54.736,-28.7458972429641,9.15894100948603,-19.1561491935642,5.18918930835234
"Freq [GHz]","IWavePhi [deg]","IWaveTheta [deg]","Phi [deg]","Theta [deg]","re(rEPhi) [mV]","im(rEPhi) [mV]","re(rETheta) [mV]","im(rETheta) [mV]"
0.5694,180,90,135,54.736,28.7458802313246,-9.15484101049371,-19.1550109888975,5.18581875765491
"Freq [GHz]","IWavePhi [deg]","IWaveTheta [deg]","Phi [deg]","Theta [deg]","re(rEPhi) [mV]","im(rEPhi) [mV]","re(rETheta) [mV]","im(rETheta) [mV]"
0.5694,180,90,-45,54.736,-28.744798288354,9.15080582260286,19.1547845147863,-5.18349583384573
"Freq [GHz]","IWavePhi [deg]","IWaveTheta [deg]","Phi [deg]","Theta [deg]","re(rEPhi) [mV]","im(rEPhi) [mV]","re(rETheta) [mV]","im(rETheta) [mV]"
0.5694,180,90,45,125.264,-24.8853458394621,9.31943564795706,11.6338558218092,-5.44053786419856
"Freq [GHz]","IWavePhi [deg]","IWaveTheta [deg]","Phi [deg]","Theta [deg]","re(rEPhi) [mV]","im(rEPhi) [mV]","re(rETheta) [mV]","im(rETheta) [mV]"
0.5694,180,90,-135,54.736,28.7486160201807,-9.15944341470314,19.1583172332785,-5.18829219543328
"Freq [GHz]","IWavePhi [deg]","IWaveTheta [deg]","Phi [deg]","Theta [deg]","re(rEPhi) [mV]","im(rEPhi) [mV]","re(rETheta) [mV]","im(rETheta) [mV]"
0.5694,180,90,-45,125.264,-24.8813961187658,9.32222520784644,-11.6346285268296,5.44307661799681
