"Freq [GHz]","IWavePhi [deg]","IWaveTheta [deg]","Phi [deg]","Theta [deg]","re(rEPhi) [mV]","im(rEPhi) [mV]","re(rETheta) [uv]","im(rETheta) [uv]"
1.4947,180,90,0,90,27.1322333454236,67.5017015312455,-15.3217675618296,5.0071147163253
"Freq [GHz]","IWavePhi [deg]","IWaveTheta [deg]","Phi [deg]","Theta [deg]","re(rEPhi) [mV]","im(rEPhi) [mV]","re(rETheta) [uv]","im(rETheta) [uv]"
1.4947,180,90,180,90,-26.9865712721909,-67.640340800866,-36.7080918889174,36.1893203320545
"Freq [GHz]","IWavePhi [deg]","IWaveTheta [deg]","Phi [deg]","Theta [deg]","re(rEPhi) [uv]","im(rEPhi) [uv]","re(rETheta) [uv]","im(rETheta) [uv]"
1.4947,180,90,90,90,-7.89438180080521,8.19437827981726,13.4973049986409,-66.270437053019
"Freq [GHz]","IWavePhi [deg]","IWaveTheta [deg]","Phi [deg]","Theta [deg]","re(rEPhi) [uv]","im(rEPhi) [uv]","re(rETheta) [uv]","im(rETheta) [uv]"
1.4947,180,90,-90,90,-3.9516095845844,16.4297520739883,-20.2759703347185,95.8664787525193
"Freq [GHz]","IWavePhi [deg]","IWaveTheta [deg]","Phi [deg]","Theta [deg]","re(rEPhi) [mV]","im(rEPhi) [mV]","re(rETheta) [uv]","im(rETheta) [uv]"
1.4947,180,90,0,0,15.7424649121822,47.1172046127641,15.2130011005666,-7.10034561882845
"Freq [GHz]","IWavePhi [deg]","IWaveTheta [deg]","Phi [deg]","Theta [deg]","re(rEPhi) [mV]","im(rEPhi) [mV]","re(rETheta) [uv]","im(rETheta) [uv]"
1.4947,180,90,0,180,15.6186723893582,47.1601128232074,-22.361123193958,23.8033440006182
"Freq [GHz]","IWavePhi [deg]","IWaveTheta [deg]","Phi [deg]","Theta [deg]","re(rEPhi) [mV]","im(rEPhi) [mV]","re(rETheta) [mV]","im(rETheta) [mV]"
1.4947,180,90,45,54.736,14.2952020344541,34.7410021495637,7.86921721144175,19.949385930769
"Freq [GHz]","IWavePhi [deg]","IWaveTheta [deg]","Phi [deg]","Theta [deg]","re(rEPhi) [mV]","im(rEPhi) [mV]","re(rETheta) [mV]","im(rETheta) [mV]"
1.4947,180,90,135,54.736,-14.4365949913516,-34.7343791165831,7.89460757943216,19.9846584358933
"Freq [GHz]","IWavePhi [deg]","IWaveTheta [deg]","Phi [deg]","Theta [deg]","re(rEPhi) [mV]","im(rEPhi) [mV]","re(rETheta) [mV]","im(rETheta) [mV]"
1.4947,180,90,-45,54.736,14.4606033935448,34.7207520070847,-7.92658203740286,-19.9774352815422
"Freq [GHz]","IWavePhi [deg]","IWaveTheta [deg]","Phi [deg]","Theta [deg]","re(rEPhi) [mV]","im(rEPhi) [mV]","re(rETheta) [mV]","im(rETheta) [mV]"
1.4947,180,90,45,125.264,14.5314745750307,34.6616198843708,-7.92848002019333,-20.0468910195721
"Freq [GHz]","IWavePhi [deg]","IWaveTheta [deg]","Phi [deg]","Theta [deg]","re(rEPhi) [mV]","im(rEPhi) [mV]","re(rETheta) [mV]","im(rETheta) [mV]"
1.4947,180,90,-135,54.736,-14.525880215666,-34.6102919869181,-7.97448598888306,-19.9234627163313
"Freq [GHz]","IWavePhi [deg]","IWaveTheta [deg]","Phi [deg]","Theta [deg]","re(rEPhi) [mV]","im(rEPhi) [mV]","re(rETheta) [mV]","im(rETheta) [mV]"
1.4947,180,90,-45,125.264,14.3622953948785,34.5961128190786,7.83261942254889,19.9799443601884
"Freq [GHz]","IWavePhi [deg]","IWaveTheta [deg]","Phi [deg]","Theta [deg]","re(rEPhi) [mV]","im(rEPhi) [mV]","re(rETheta) [mV]","im(rETheta) [mV]"
1.4947,180,90,135,125.264,-14.3363628327572,-34.6575201118455,-7.82431466703923,-20.0120597972096
"Freq [GHz]","IWavePhi [deg]","IWaveTheta [deg]","Phi [deg]","Theta [deg]","re(rEPhi) [mV]","im(rEPhi) [mV]","re(rETheta) [mV]","im(rETheta) [mV]"
1.4947,180,90,-135,125.264,-14.3554520002028,-34.8231220641822,7.81029049855557,20.08966847337
"Freq [GHz]","IWavePhi [deg]","IWaveTheta [deg]","Phi [deg]","Theta [deg]","re(rEPhi) [mV]","im(rEPhi) [mV]","re(rETheta) [uv]","im(rETheta) [uv]"
1.4947,180,90,0,90,-27.1322333454236,-67.5017015312455,15.3217675782181,-5.0071147631548
"Freq [GHz]","IWavePhi [deg]","IWaveTheta [deg]","Phi [deg]","Theta [deg]","re(rEPhi) [mV]","im(rEPhi) [mV]","re(rETheta) [uv]","im(rETheta) [uv]"
1.4947,180,90,180,90,26.9865712721909,67.640340800866,36.7080919113962,-36.1893202912925
"Freq [GHz]","IWavePhi [deg]","IWaveTheta [deg]","Phi [deg]","Theta [deg]","re(rEPhi) [uv]","im(rEPhi) [uv]","re(rETheta) [uv]","im(rETheta) [uv]"
1.4947,180,90,90,90,7.8943818024404,-8.1943782661611,-13.4973049821465,66.2704370886865
"Freq [GHz]","IWavePhi [deg]","IWaveTheta [deg]","Phi [deg]","Theta [deg]","re(rEPhi) [uv]","im(rEPhi) [uv]","re(rETheta) [uv]","im(rETheta) [uv]"
1.4947,180,90,-90,90,3.95160958834507,-16.4297520697197,20.2759703531509,-95.8664787768494
"Freq [GHz]","IWavePhi [deg]","IWaveTheta [deg]","Phi [deg]","Theta [deg]","re(rEPhi) [mV]","im(rEPhi) [mV]","re(rETheta) [uv]","im(rETheta) [uv]"
1.4947,180,90,0,0,-15.7424649121966,-47.1172046127916,-15.2130010762781,7.10034561852938
"Freq [GHz]","IWavePhi [deg]","IWaveTheta [deg]","Phi [deg]","Theta [deg]","re(rEPhi) [mV]","im(rEPhi) [mV]","re(rETheta) [uv]","im(rETheta) [uv]"
1.4947,180,90,0,180,-15.6186723893726,-47.1601128231799,22.3611231880724,-23.8033440073142
"Freq [GHz]","IWavePhi [deg]","IWaveTheta [deg]","Phi [deg]","Theta [deg]","re(rEPhi) [mV]","im(rEPhi) [mV]","re(rETheta) [mV]","im(rETheta) [mV]"
1.4947,180,90,45,54.736,-14.2952020344665,-34.7410021495951,-7.86921721143505,-19.9493859307665
"Freq [GHz]","IWavePhi [deg]","IWaveTheta [deg]","Phi [deg]","Theta [deg]","re(rEPhi) [mV]","im(rEPhi) [mV]","re(rETheta) [mV]","im(rETheta) [mV]"
1.4947,180,90,135,54.736,14.4365949913416,34.7343791165917,-7.89460757946169,-19.9846584358536
"Freq [GHz]","IWavePhi [deg]","IWaveTheta [deg]","Phi [deg]","Theta [deg]","re(rEPhi) [mV]","im(rEPhi) [mV]","re(rETheta) [mV]","im(rETheta) [mV]"
1.4947,180,90,-45,54.736,-14.46060339353,-34.7207520070586,7.92658203738269,19.9774352815539
"Freq [GHz]","IWavePhi [deg]","IWaveTheta [deg]","Phi [deg]","Theta [deg]","re(rEPhi) [mV]","im(rEPhi) [mV]","re(rETheta) [mV]","im(rETheta) [mV]"
1.4947,180,90,45,125.264,-14.5314745750257,-34.6616198843512,7.92848002019607,20.0468910195437
"Freq [GHz]","IWavePhi [deg]","IWaveTheta [deg]","Phi [deg]","Theta [deg]","re(rEPhi) [mV]","im(rEPhi) [mV]","re(rETheta) [mV]","im(rETheta) [mV]"
1.4947,180,90,-135,54.736,14.5258802156758,34.6102919869191,7.97448598888475,19.9234627163606
"Freq [GHz]","IWavePhi [deg]","IWaveTheta [deg]","Phi [deg]","Theta [deg]","re(rEPhi) [mV]","im(rEPhi) [mV]","re(rETheta) [mV]","im(rETheta) [mV]"
1.4947,180,90,-45,125.264,-14.3622953948832,-34.5961128190894,-7.83261942256774,-19.9799443602143
"Freq [GHz]","IWavePhi [deg]","IWaveTheta [deg]","Phi [deg]","Theta [deg]","re(rEPhi) [mV]","im(rEPhi) [mV]","re(rETheta) [mV]","im(rETheta) [mV]"
1.4947,180,90,135,125.264,14.3363628327509,34.6575201118527,7.82431466702429,20.0120597972105
"Freq [GHz]","IWavePhi [deg]","IWaveTheta [deg]","Phi [deg]","Theta [deg]","re(rEPhi) [mV]","im(rEPhi) [mV]","re(rETheta) [mV]","im(rETheta) [mV]"
1.4947,180,90,-135,125.264,14.3554520002066,34.8231220641652,-7.8102904985559,-20.089668473365
"Freq [GHz]","IWavePhi [deg]","IWaveTheta [deg]","Phi [deg]","Theta [deg]","re(rEPhi) [V]","im(rEPhi) [V]","re(rETheta) [V]","im(rETheta) [V]"
1.4947,180,90,0,90,2.21000729012559e-18,4.44997260466157e-18,-2.14445242412183e-18,1.23021397530837e-18
"Freq [GHz]","IWavePhi [deg]","IWaveTheta [deg]","Phi [deg]","Theta [deg]","re(rEPhi) [V]","im(rEPhi) [V]","re(rETheta) [V]","im(rETheta) [V]"
1.4947,180,90,180,90,-2.19935137109866e-18,-4.46537039150043e-18,-2.13331745789049e-18,1.22477955988488e-18
"Freq [GHz]","IWavePhi [deg]","IWaveTheta [deg]","Phi [deg]","Theta [deg]","re(rEPhi) [V]","im(rEPhi) [V]","re(rETheta) [V]","im(rETheta) [V]"
1.4947,180,90,90,90,-6.80373236392362e-22,1.33916430280871e-21,-3.95585132310042e-18,4.13065718435635e-18
"Freq [GHz]","IWavePhi [deg]","IWaveTheta [deg]","Phi [deg]","Theta [deg]","re(rEPhi) [V]","im(rEPhi) [V]","re(rETheta) [V]","im(rETheta) [V]"
1.4947,180,90,-90,90,-1.39689044317281e-21,-1.55541468857013e-21,5.2487381207074e-18,-3.3821523626049e-18
"Freq [GHz]","IWavePhi [deg]","IWaveTheta [deg]","Phi [deg]","Theta [deg]","re(rEPhi) [V]","im(rEPhi) [V]","re(rETheta) [V]","im(rETheta) [V]"
1.4947,180,90,0,0,5.88427890502942e-18,8.5235226431084e-19,1.33919228069596e-21,3.50286167473741e-21
"Freq [GHz]","IWavePhi [deg]","IWaveTheta [deg]","Phi [deg]","Theta [deg]","re(rEPhi) [V]","im(rEPhi) [V]","re(rETheta) [V]","im(rETheta) [V]"
1.4947,180,90,0,180,-3.14335339178191e-18,5.35837818896836e-18,2.3383148844109e-21,5.29177073347793e-21
"Freq [GHz]","IWavePhi [deg]","IWaveTheta [deg]","Phi [deg]","Theta [deg]","re(rEPhi) [V]","im(rEPhi) [V]","re(rETheta) [V]","im(rETheta) [V]"
1.4947,180,90,45,54.736,-7.67407663820526e-19,4.09178380071586e-18,-4.91168293932676e-18,5.90795836714189e-18
"Freq [GHz]","IWavePhi [deg]","IWaveTheta [deg]","Phi [deg]","Theta [deg]","re(rEPhi) [V]","im(rEPhi) [V]","re(rETheta) [V]","im(rETheta) [V]"
1.4947,180,90,135,54.736,7.53601689773403e-19,-4.08092900737644e-18,-4.91484979782961e-18,5.91352768633606e-18
"Freq [GHz]","IWavePhi [deg]","IWaveTheta [deg]","Phi [deg]","Theta [deg]","re(rEPhi) [V]","im(rEPhi) [V]","re(rETheta) [V]","im(rETheta) [V]"
1.4947,180,90,-45,54.736,5.91978023056516e-18,-1.25785888209169e-18,-4.2918429302269e-19,-1.36417644833008e-18
"Freq [GHz]","IWavePhi [deg]","IWaveTheta [deg]","Phi [deg]","Theta [deg]","re(rEPhi) [V]","im(rEPhi) [V]","re(rETheta) [V]","im(rETheta) [V]"
1.4947,180,90,45,125.264,-6.79771147178482e-18,5.80066520385363e-18,-3.78116198797719e-19,1.00774346738871e-19
"Freq [GHz]","IWavePhi [deg]","IWaveTheta [deg]","Phi [deg]","Theta [deg]","re(rEPhi) [V]","im(rEPhi) [V]","re(rETheta) [V]","im(rETheta) [V]"
1.4947,180,90,-135,54.736,-5.93985396268843e-18,1.27470463457398e-18,-4.30504049985921e-19,-1.35891344999042e-18
"Freq [GHz]","IWavePhi [deg]","IWaveTheta [deg]","Phi [deg]","Theta [deg]","re(rEPhi) [V]","im(rEPhi) [V]","re(rETheta) [V]","im(rETheta) [V]"
1.4947,180,90,-45,125.264,4.54481758454775e-18,5.49661924973004e-19,5.57324965196248e-18,-1.86937244016561e-18
"Freq [GHz]","IWavePhi [deg]","IWaveTheta [deg]","Phi [deg]","Theta [deg]","re(rEPhi) [V]","im(rEPhi) [V]","re(rETheta) [V]","im(rETheta) [V]"
1.4947,180,90,135,125.264,6.80989374755505e-18,-5.79685085763647e-18,-3.77190128127927e-19,9.64135048730481e-20
"Freq [GHz]","IWavePhi [deg]","IWaveTheta [deg]","Phi [deg]","Theta [deg]","re(rEPhi) [V]","im(rEPhi) [V]","re(rETheta) [V]","im(rETheta) [V]"
1.4947,180,90,-135,125.264,-4.53443905889274e-18,-5.61872901801016e-19,5.57055526017932e-18,-1.87031727299287e-18
"Freq [GHz]","IWavePhi [deg]","IWaveTheta [deg]","Phi [deg]","Theta [deg]","re(rEPhi) [V]","im(rEPhi) [V]","re(rETheta) [V]","im(rETheta) [V]"
1.4947,180,90,0,90,-1.26403690458615e-20,2.45763868071892e-21,2.18590557702425e-18,-1.22866308650416e-18
"Freq [GHz]","IWavePhi [deg]","IWaveTheta [deg]","Phi [deg]","Theta [deg]","re(rEPhi) [V]","im(rEPhi) [V]","re(rETheta) [V]","im(rETheta) [V]"
1.4947,180,90,180,90,1.00134317627766e-20,-7.15119733713309e-21,2.19360289672934e-18,-1.22856907950232e-18
"Freq [GHz]","IWavePhi [deg]","IWaveTheta [deg]","Phi [deg]","Theta [deg]","re(rEPhi) [V]","im(rEPhi) [V]","re(rETheta) [V]","im(rETheta) [V]"
1.4947,180,90,90,90,-1.94262713460243e-21,4.17481101164217e-21,-5.25177476124432e-18,3.39249491454461e-18
"Freq [GHz]","IWavePhi [deg]","IWaveTheta [deg]","Phi [deg]","Theta [deg]","re(rEPhi) [V]","im(rEPhi) [V]","re(rETheta) [V]","im(rETheta) [V]"
1.4947,180,90,-90,90,2.93555421362545e-21,5.96466017005717e-21,3.96615303608117e-18,-4.14328164371375e-18
"Freq [GHz]","IWavePhi [deg]","IWaveTheta [deg]","Phi [deg]","Theta [deg]","re(rEPhi) [V]","im(rEPhi) [V]","re(rETheta) [V]","im(rETheta) [V]"
1.4947,180,90,0,0,4.5080813776415e-18,-2.25308099984129e-18,2.17643365858735e-21,2.75890465317615e-21
"Freq [GHz]","IWavePhi [deg]","IWaveTheta [deg]","Phi [deg]","Theta [deg]","re(rEPhi) [V]","im(rEPhi) [V]","re(rETheta) [V]","im(rETheta) [V]"
1.4947,180,90,0,180,-4.5179137595817e-18,2.24794742502163e-18,3.46513503602009e-21,-1.04994762600617e-21
"Freq [GHz]","IWavePhi [deg]","IWaveTheta [deg]","Phi [deg]","Theta [deg]","re(rEPhi) [V]","im(rEPhi) [V]","re(rETheta) [V]","im(rETheta) [V]"
1.4947,180,90,45,54.736,6.932211543479e-19,-9.12324937606588e-19,-2.54949881679562e-18,1.63123384552907e-18
"Freq [GHz]","IWavePhi [deg]","IWaveTheta [deg]","Phi [deg]","Theta [deg]","re(rEPhi) [V]","im(rEPhi) [V]","re(rETheta) [V]","im(rETheta) [V]"
1.4947,180,90,135,54.736,-6.97591249575324e-19,9.09779543373528e-19,-2.55396146415925e-18,1.6284659715723e-18
"Freq [GHz]","IWavePhi [deg]","IWaveTheta [deg]","Phi [deg]","Theta [deg]","re(rEPhi) [V]","im(rEPhi) [V]","re(rETheta) [V]","im(rETheta) [V]"
1.4947,180,90,-45,54.736,3.00905048237857e-18,-8.53768631695079e-19,2.67721552585935e-18,-3.01752931639338e-18
"Freq [GHz]","IWavePhi [deg]","IWaveTheta [deg]","Phi [deg]","Theta [deg]","re(rEPhi) [V]","im(rEPhi) [V]","re(rETheta) [V]","im(rETheta) [V]"
1.4947,180,90,45,125.264,-6.96199986509927e-19,8.99627778348946e-19,-2.55606162316764e-18,1.65043053415505e-18
"Freq [GHz]","IWavePhi [deg]","IWaveTheta [deg]","Phi [deg]","Theta [deg]","re(rEPhi) [V]","im(rEPhi) [V]","re(rETheta) [V]","im(rETheta) [V]"
1.4947,180,90,-135,54.736,-3.01233198775674e-18,8.5518005429112e-19,2.67617475155125e-18,-3.02106646052619e-18
"Freq [GHz]","IWavePhi [deg]","IWaveTheta [deg]","Phi [deg]","Theta [deg]","re(rEPhi) [V]","im(rEPhi) [V]","re(rETheta) [V]","im(rETheta) [V]"
1.4947,180,90,-45,125.264,-3.03103814723304e-18,8.8639865047901e-19,2.67020285967695e-18,-3.00683519280161e-18
"Freq [GHz]","IWavePhi [deg]","IWaveTheta [deg]","Phi [deg]","Theta [deg]","re(rEPhi) [V]","im(rEPhi) [V]","re(rETheta) [V]","im(rETheta) [V]"
1.4947,180,90,135,125.264,6.99606435717211e-19,-8.95164041927758e-19,-2.55383512619061e-18,1.64262228093062e-18
"Freq [GHz]","IWavePhi [deg]","IWaveTheta [deg]","Phi [deg]","Theta [deg]","re(rEPhi) [V]","im(rEPhi) [V]","re(rETheta) [V]","im(rETheta) [V]"
1.4947,180,90,-135,125.264,3.02785055027944e-18,-8.83695521214395e-19,2.68467131376116e-18,-3.00719097310098e-18
"Freq [GHz]","IWavePhi [deg]","IWaveTheta [deg]","Phi [deg]","Theta [deg]","re(rEPhi) [mV]","im(rEPhi) [mV]","re(rETheta) [uv]","im(rETheta) [uv]"
1.4947,180,90,0,90,15.6219872363173,46.9317402165842,-173.030230838588,16.6052113402453
"Freq [GHz]","IWavePhi [deg]","IWaveTheta [deg]","Phi [deg]","Theta [deg]","re(rEPhi) [mV]","im(rEPhi) [mV]","re(rETheta) [uv]","im(rETheta) [uv]"
1.4947,180,90,180,90,-15.4736928409251,-47.0613622734488,-202.012344648193,33.9002579035026
"Freq [GHz]","IWavePhi [deg]","IWaveTheta [deg]","Phi [deg]","Theta [deg]","re(rEPhi) [uv]","im(rEPhi) [uv]","re(rETheta) [mV]","im(rETheta) [mV]"
1.4947,180,90,90,90,-9.93486124119381,6.66726028027141,28.0588353931333,-14.2172106412236
"Freq [GHz]","IWavePhi [deg]","IWaveTheta [deg]","Phi [deg]","Theta [deg]","re(rEPhi) [uv]","im(rEPhi) [uv]","re(rETheta) [mV]","im(rETheta) [mV]"
1.4947,180,90,-90,90,-14.6924249441053,-8.66616946443404,-28.0894937758429,14.2811259215524
"Freq [GHz]","IWavePhi [deg]","IWaveTheta [deg]","Phi [deg]","Theta [deg]","re(rEPhi) [mV]","im(rEPhi) [mV]","re(rETheta) [uv]","im(rETheta) [uv]"
1.4947,180,90,0,0,28.6375393328048,53.9682944328218,-19.9391203450859,-17.3824211495071
"Freq [GHz]","IWavePhi [deg]","IWaveTheta [deg]","Phi [deg]","Theta [deg]","re(rEPhi) [uv]","im(rEPhi) [mV]","re(rETheta) [uv]","im(rETheta) [uv]"
1.4947,180,90,0,180,411.501366613408,11.9071012550778,-27.8265985783364,4.35725052790942
"Freq [GHz]","IWavePhi [deg]","IWaveTheta [deg]","Phi [deg]","Theta [deg]","re(rEPhi) [mV]","im(rEPhi) [mV]","re(rETheta) [mV]","im(rETheta) [mV]"
1.4947,180,90,45,54.736,14.2810083288682,32.3475795770658,31.7759378734895,8.23790166411825
"Freq [GHz]","IWavePhi [deg]","IWaveTheta [deg]","Phi [deg]","Theta [deg]","re(rEPhi) [mV]","im(rEPhi) [mV]","re(rETheta) [mV]","im(rETheta) [mV]"
1.4947,180,90,135,54.736,-14.3605658340207,-32.3560087390414,31.8017526501415,8.28719181118118
"Freq [GHz]","IWavePhi [deg]","IWaveTheta [deg]","Phi [deg]","Theta [deg]","re(rEPhi) [mV]","im(rEPhi) [mV]","re(rETheta) [mV]","im(rETheta) [mV]"
1.4947,180,90,-45,54.736,14.4699379225475,32.2821872322058,-31.9688200059822,-8.19171161340938
"Freq [GHz]","IWavePhi [deg]","IWaveTheta [deg]","Phi [deg]","Theta [deg]","re(rEPhi) [mV]","im(rEPhi) [mV]","re(rETheta) [mV]","im(rETheta) [mV]"
1.4947,180,90,45,125.264,4.79296658608939,16.1289225563847,18.0872045664427,-19.7605961242977
"Freq [GHz]","IWavePhi [deg]","IWaveTheta [deg]","Phi [deg]","Theta [deg]","re(rEPhi) [mV]","im(rEPhi) [mV]","re(rETheta) [mV]","im(rETheta) [mV]"
1.4947,180,90,-135,54.736,-14.4942126453716,-32.1635326322641,-31.989818800207,-8.12258524806063
"Freq [GHz]","IWavePhi [deg]","IWaveTheta [deg]","Phi [deg]","Theta [deg]","re(rEPhi) [mV]","im(rEPhi) [mV]","re(rETheta) [mV]","im(rETheta) [mV]"
1.4947,180,90,-45,125.264,4.66007305195289,15.8382832446712,-18.2715729145448,19.55264108832
"Freq [GHz]","IWavePhi [deg]","IWaveTheta [deg]","Phi [deg]","Theta [deg]","re(rEPhi) [mV]","im(rEPhi) [mV]","re(rETheta) [mV]","im(rETheta) [mV]"
1.4947,180,90,135,125.264,-4.69672308347157,-16.1119431064994,18.1633092963572,-19.6852237319064
"Freq [GHz]","IWavePhi [deg]","IWaveTheta [deg]","Phi [deg]","Theta [deg]","re(rEPhi) [mV]","im(rEPhi) [mV]","re(rETheta) [mV]","im(rETheta) [mV]"
1.4947,180,90,-135,125.264,-4.70708098854152,-16.0423145415955,-18.3042504831052,19.6459095715019
"Freq [GHz]","IWavePhi [deg]","IWaveTheta [deg]","Phi [deg]","Theta [deg]","re(rEPhi) [mV]","im(rEPhi) [mV]","re(rETheta) [uv]","im(rETheta) [uv]"
1.4947,180,90,0,90,15.6060494693046,47.0309722522786,148.231091548519,-6.79594605422821
"Freq [GHz]","IWavePhi [deg]","IWaveTheta [deg]","Phi [deg]","Theta [deg]","re(rEPhi) [mV]","im(rEPhi) [mV]","re(rETheta) [uv]","im(rETheta) [uv]"
1.4947,180,90,180,90,-15.5444782064024,-47.1004527349717,144.993792209931,27.4152664138761
"Freq [GHz]","IWavePhi [deg]","IWaveTheta [deg]","Phi [deg]","Theta [deg]","re(rEPhi) [uv]","im(rEPhi) [uv]","re(rETheta) [mV]","im(rETheta) [mV]"
1.4947,180,90,90,90,1.94642701803229,4.54911792957944,-28.0443880629565,14.1306382170457
"Freq [GHz]","IWavePhi [deg]","IWaveTheta [deg]","Phi [deg]","Theta [deg]","re(rEPhi) [uv]","im(rEPhi) [uv]","re(rETheta) [mV]","im(rETheta) [mV]"
1.4947,180,90,-90,90,6.07634349509901,28.710229828715,28.0747254288709,-14.1539507844069
"Freq [GHz]","IWavePhi [deg]","IWaveTheta [deg]","Phi [deg]","Theta [deg]","re(rEPhi) [uv]","im(rEPhi) [mV]","re(rETheta) [uv]","im(rETheta) [uv]"
1.4947,180,90,0,0,413.7401085309,11.977904175087,41.2361451979323,6.47310150017489
"Freq [GHz]","IWavePhi [deg]","IWaveTheta [deg]","Phi [deg]","Theta [deg]","re(rEPhi) [mV]","im(rEPhi) [mV]","re(rETheta) [uv]","im(rETheta) [uv]"
1.4947,180,90,0,180,28.4915526549324,54.0732725642352,-1.67852124930724,26.3148762471726
"Freq [GHz]","IWavePhi [deg]","IWaveTheta [deg]","Phi [deg]","Theta [deg]","re(rEPhi) [mV]","im(rEPhi) [mV]","re(rETheta) [mV]","im(rETheta) [mV]"
1.4947,180,90,45,54.736,4.67322895017685,16.124726965072,-18.1065468013519,19.6271188065686
"Freq [GHz]","IWavePhi [deg]","IWaveTheta [deg]","Phi [deg]","Theta [deg]","re(rEPhi) [mV]","im(rEPhi) [mV]","re(rETheta) [mV]","im(rETheta) [mV]"
1.4947,180,90,135,54.736,-4.78410054728767,-16.1111893407223,-18.094526269162,19.6326022437327
"Freq [GHz]","IWavePhi [deg]","IWaveTheta [deg]","Phi [deg]","Theta [deg]","re(rEPhi) [mV]","im(rEPhi) [mV]","re(rETheta) [mV]","im(rETheta) [mV]"
1.4947,180,90,-45,54.736,4.67281681552505,16.0849704071166,18.2376622407954,-19.6538553258507
"Freq [GHz]","IWavePhi [deg]","IWaveTheta [deg]","Phi [deg]","Theta [deg]","re(rEPhi) [mV]","im(rEPhi) [mV]","re(rETheta) [mV]","im(rETheta) [mV]"
1.4947,180,90,45,125.264,14.4895171156434,32.2211768625759,-31.8468595752732,-8.23633998625504
"Freq [GHz]","IWavePhi [deg]","IWaveTheta [deg]","Phi [deg]","Theta [deg]","re(rEPhi) [mV]","im(rEPhi) [mV]","re(rETheta) [mV]","im(rETheta) [mV]"
1.4947,180,90,-135,54.736,-4.74113510000819,-16.0534087787926,18.1950464579456,-19.651418910016
"Freq [GHz]","IWavePhi [deg]","IWaveTheta [deg]","Phi [deg]","Theta [deg]","re(rEPhi) [mV]","im(rEPhi) [mV]","re(rETheta) [mV]","im(rETheta) [mV]"
1.4947,180,90,-45,125.264,14.3495010890028,32.3690864327276,31.8748284275626,8.30897131369765
