"Freq [GHz]","IWavePhi [deg]","IWaveTheta [deg]","Phi [deg]","Theta [deg]","re(rEPhi) [mV]","im(rEPhi) [mV]","re(rETheta) [uv]","im(rETheta) [uv]"
0.8541,180,90,0,90,-8.17863203454144,98.8296984467426,-1.6292700480858,-30.7378797108543
"Freq [GHz]","IWavePhi [deg]","IWaveTheta [deg]","Phi [deg]","Theta [deg]","re(rEPhi) [mV]","im(rEPhi) [mV]","re(rETheta) [uv]","im(rETheta) [uv]"
0.8541,180,90,180,90,8.18262140786827,-98.8907836445816,7.039574155408,1.63734291808676
"Freq [GHz]","IWavePhi [deg]","IWaveTheta [deg]","Phi [deg]","Theta [deg]","re(rEPhi) [uv]","im(rEPhi) [uv]","re(rETheta) [uv]","im(rETheta) [uv]"
0.8541,180,90,90,90,7.33601868375276,-9.62617171798289,18.205514444439,-12.9438742320227
"Freq [GHz]","IWavePhi [deg]","IWaveTheta [deg]","Phi [deg]","Theta [deg]","re(rEPhi) [uv]","im(rEPhi) [uv]","re(rETheta) [uv]","im(rETheta) [uv]"
0.8541,180,90,-90,90,3.69547270525435,-14.7278769631755,-10.9985903448231,-11.3467597278185
"Freq [GHz]","IWavePhi [deg]","IWaveTheta [deg]","Phi [deg]","Theta [deg]","re(rEPhi) [mV]","im(rEPhi) [mV]","re(rETheta) [uv]","im(rETheta) [uv]"
0.8541,180,90,0,0,-7.6712145855049,87.9603578309745,2.68405746338299,4.88697541878614
"Freq [GHz]","IWavePhi [deg]","IWaveTheta [deg]","Phi [deg]","Theta [deg]","re(rEPhi) [mV]","im(rEPhi) [mV]","re(rETheta) [uv]","im(rETheta) [uv]"
0.8541,180,90,0,180,-7.7098119032586,87.975041623968,-7.54663629003864,7.57175955741189
"Freq [GHz]","IWavePhi [deg]","IWaveTheta [deg]","Phi [deg]","Theta [deg]","re(rEPhi) [mV]","im(rEPhi) [mV]","re(rETheta) [mV]","im(rETheta) [mV]"
0.8541,180,90,45,54.736,-5.18599293725903,62.9220991413594,-3.04638661821626,36.0834537533471
"Freq [GHz]","IWavePhi [deg]","IWaveTheta [deg]","Phi [deg]","Theta [deg]","re(rEPhi) [mV]","im(rEPhi) [mV]","re(rETheta) [mV]","im(rETheta) [mV]"
0.8541,180,90,135,54.736,5.19307997999107,-62.933630126536,-3.06737186650747,36.0744398292701
"Freq [GHz]","IWavePhi [deg]","IWaveTheta [deg]","Phi [deg]","Theta [deg]","re(rEPhi) [mV]","im(rEPhi) [mV]","re(rETheta) [mV]","im(rETheta) [mV]"
0.8541,180,90,-45,54.736,-5.18831974265205,62.9572214942482,3.06882021244623,-36.0901860369427
"Freq [GHz]","IWavePhi [deg]","IWaveTheta [deg]","Phi [deg]","Theta [deg]","re(rEPhi) [mV]","im(rEPhi) [mV]","re(rETheta) [mV]","im(rETheta) [mV]"
0.8541,180,90,45,125.264,-5.17905612255623,62.9567267463788,3.07547981806527,-36.1085421783456
"Freq [GHz]","IWavePhi [deg]","IWaveTheta [deg]","Phi [deg]","Theta [deg]","re(rEPhi) [mV]","im(rEPhi) [mV]","re(rETheta) [mV]","im(rETheta) [mV]"
0.8541,180,90,-135,54.736,5.18673978326312,-62.9251676411356,3.05299265426284,-36.0869644504578
"Freq [GHz]","IWavePhi [deg]","IWaveTheta [deg]","Phi [deg]","Theta [deg]","re(rEPhi) [mV]","im(rEPhi) [mV]","re(rETheta) [mV]","im(rETheta) [mV]"
0.8541,180,90,-45,125.264,-5.19630884577729,62.9463225198531,-3.05992091303847,36.0664174007175
"Freq [GHz]","IWavePhi [deg]","IWaveTheta [deg]","Phi [deg]","Theta [deg]","re(rEPhi) [mV]","im(rEPhi) [mV]","re(rETheta) [mV]","im(rETheta) [mV]"
0.8541,180,90,135,125.264,5.19710052403729,-62.9446823927877,3.07233629860995,-36.100937148313
"Freq [GHz]","IWavePhi [deg]","IWaveTheta [deg]","Phi [deg]","Theta [deg]","re(rEPhi) [mV]","im(rEPhi) [mV]","re(rETheta) [mV]","im(rETheta) [mV]"
0.8541,180,90,-135,125.264,5.18104108064419,-62.9449832034699,-3.06107980587066,36.0668528539767
"Freq [GHz]","IWavePhi [deg]","IWaveTheta [deg]","Phi [deg]","Theta [deg]","re(rEPhi) [mV]","im(rEPhi) [mV]","re(rETheta) [uv]","im(rETheta) [uv]"
0.8541,180,90,0,90,8.17863203454144,-98.8296984467426,1.62927004808842,30.7378797108861
"Freq [GHz]","IWavePhi [deg]","IWaveTheta [deg]","Phi [deg]","Theta [deg]","re(rEPhi) [mV]","im(rEPhi) [mV]","re(rETheta) [uv]","im(rETheta) [uv]"
0.8541,180,90,180,90,-8.18262140786827,98.8907836445816,-7.03957415540561,-1.63734291811873
"Freq [GHz]","IWavePhi [deg]","IWaveTheta [deg]","Phi [deg]","Theta [deg]","re(rEPhi) [uv]","im(rEPhi) [uv]","re(rETheta) [uv]","im(rETheta) [uv]"
0.8541,180,90,90,90,-7.33601868454969,9.62617171790629,-18.2055144444396,12.9438742320228
"Freq [GHz]","IWavePhi [deg]","IWaveTheta [deg]","Phi [deg]","Theta [deg]","re(rEPhi) [uv]","im(rEPhi) [uv]","re(rETheta) [uv]","im(rETheta) [uv]"
0.8541,180,90,-90,90,-3.69547270605128,14.7278769632533,10.9985903448226,11.3467597278189
"Freq [GHz]","IWavePhi [deg]","IWaveTheta [deg]","Phi [deg]","Theta [deg]","re(rEPhi) [mV]","im(rEPhi) [mV]","re(rETheta) [uv]","im(rETheta) [uv]"
0.8541,180,90,0,0,7.6712145855049,-87.9603578309745,-2.68405746414485,-4.8869754185137
"Freq [GHz]","IWavePhi [deg]","IWaveTheta [deg]","Phi [deg]","Theta [deg]","re(rEPhi) [mV]","im(rEPhi) [mV]","re(rETheta) [uv]","im(rETheta) [uv]"
0.8541,180,90,0,180,7.7098119032586,-87.975041623968,7.54663628921685,-7.57175955766008
"Freq [GHz]","IWavePhi [deg]","IWaveTheta [deg]","Phi [deg]","Theta [deg]","re(rEPhi) [mV]","im(rEPhi) [mV]","re(rETheta) [mV]","im(rETheta) [mV]"
0.8541,180,90,45,54.736,5.18599293725861,-62.9220991413591,3.04638661821652,-36.0834537533473
"Freq [GHz]","IWavePhi [deg]","IWaveTheta [deg]","Phi [deg]","Theta [deg]","re(rEPhi) [mV]","im(rEPhi) [mV]","re(rETheta) [mV]","im(rETheta) [mV]"
0.8541,180,90,135,54.736,-5.19307997999058,62.9336301265357,3.06737186650775,-36.0744398292703
"Freq [GHz]","IWavePhi [deg]","IWaveTheta [deg]","Phi [deg]","Theta [deg]","re(rEPhi) [mV]","im(rEPhi) [mV]","re(rETheta) [mV]","im(rETheta) [mV]"
0.8541,180,90,-45,54.736,5.18831974265235,-62.9572214942478,-3.06882021244607,36.0901860369429
"Freq [GHz]","IWavePhi [deg]","IWaveTheta [deg]","Phi [deg]","Theta [deg]","re(rEPhi) [mV]","im(rEPhi) [mV]","re(rETheta) [mV]","im(rETheta) [mV]"
0.8541,180,90,45,125.264,5.17905612255602,-62.9567267463783,-3.07547981806538,36.1085421783458
"Freq [GHz]","IWavePhi [deg]","IWaveTheta [deg]","Phi [deg]","Theta [deg]","re(rEPhi) [mV]","im(rEPhi) [mV]","re(rETheta) [mV]","im(rETheta) [mV]"
0.8541,180,90,-135,54.736,-5.18673978326336,62.9251676411351,-3.05299265426269,36.0869644504581
"Freq [GHz]","IWavePhi [deg]","IWaveTheta [deg]","Phi [deg]","Theta [deg]","re(rEPhi) [mV]","im(rEPhi) [mV]","re(rETheta) [mV]","im(rETheta) [mV]"
0.8541,180,90,-45,125.264,5.1963088457778,-62.9463225198528,3.05992091303817,-36.0664174007177
"Freq [GHz]","IWavePhi [deg]","IWaveTheta [deg]","Phi [deg]","Theta [deg]","re(rEPhi) [mV]","im(rEPhi) [mV]","re(rETheta) [mV]","im(rETheta) [mV]"
0.8541,180,90,135,125.264,-5.19710052403695,62.9446823927872,-3.07233629861016,36.1009371483133
"Freq [GHz]","IWavePhi [deg]","IWaveTheta [deg]","Phi [deg]","Theta [deg]","re(rEPhi) [mV]","im(rEPhi) [mV]","re(rETheta) [mV]","im(rETheta) [mV]"
0.8541,180,90,-135,125.264,-5.1810410806446,62.9449832034696,3.06107980587043,-36.0668528539769
"Freq [GHz]","IWavePhi [deg]","IWaveTheta [deg]","Phi [deg]","Theta [deg]","re(rEPhi) [V]","im(rEPhi) [V]","re(rETheta) [V]","im(rETheta) [V]"
0.8541,180,90,0,90,-7.93995691046208e-19,9.77555839180202e-18,-2.7538998292982e-18,5.79002876204145e-19
"Freq [GHz]","IWavePhi [deg]","IWaveTheta [deg]","Phi [deg]","Theta [deg]","re(rEPhi) [V]","im(rEPhi) [V]","re(rETheta) [V]","im(rETheta) [V]"
0.8541,180,90,180,90,7.94273476791843e-19,-9.78174443547034e-18,-2.75247701190973e-18,5.80832267076899e-19
"Freq [GHz]","IWavePhi [deg]","IWaveTheta [deg]","Phi [deg]","Theta [deg]","re(rEPhi) [V]","im(rEPhi) [V]","re(rETheta) [V]","im(rETheta) [V]"
0.8541,180,90,90,90,8.78348343585331e-22,-7.0161002754369e-22,-1.28612970185121e-18,4.41140806310936e-19
"Freq [GHz]","IWavePhi [deg]","IWaveTheta [deg]","Phi [deg]","Theta [deg]","re(rEPhi) [V]","im(rEPhi) [V]","re(rETheta) [V]","im(rETheta) [V]"
0.8541,180,90,-90,90,2.94190237070841e-22,-1.12463276239109e-21,-1.31288189430315e-18,2.44724762121294e-19
"Freq [GHz]","IWavePhi [deg]","IWaveTheta [deg]","Phi [deg]","Theta [deg]","re(rEPhi) [V]","im(rEPhi) [V]","re(rETheta) [V]","im(rETheta) [V]"
0.8541,180,90,0,0,1.08432568982669e-18,8.8028833176367e-18,-2.09642091285526e-22,4.89402697648026e-22
"Freq [GHz]","IWavePhi [deg]","IWaveTheta [deg]","Phi [deg]","Theta [deg]","re(rEPhi) [V]","im(rEPhi) [V]","re(rETheta) [V]","im(rETheta) [V]"
0.8541,180,90,0,180,-2.57613177493388e-18,8.59924768772626e-18,-1.14732524386708e-21,4.93585386604408e-22
"Freq [GHz]","IWavePhi [deg]","IWaveTheta [deg]","Phi [deg]","Theta [deg]","re(rEPhi) [V]","im(rEPhi) [V]","re(rETheta) [V]","im(rETheta) [V]"
0.8541,180,90,45,54.736,-1.17697943541199e-19,6.26132770952464e-18,-1.86353152364701e-18,4.04629408422136e-18
"Freq [GHz]","IWavePhi [deg]","IWaveTheta [deg]","Phi [deg]","Theta [deg]","re(rEPhi) [V]","im(rEPhi) [V]","re(rETheta) [V]","im(rETheta) [V]"
0.8541,180,90,135,54.736,1.18420178856454e-19,-6.26241715955619e-18,-1.86538416642669e-18,4.04505103958654e-18
"Freq [GHz]","IWavePhi [deg]","IWaveTheta [deg]","Phi [deg]","Theta [deg]","re(rEPhi) [V]","im(rEPhi) [V]","re(rETheta) [V]","im(rETheta) [V]"
0.8541,180,90,-45,54.736,5.19815973611729e-19,6.26950661091304e-18,-2.09363643961204e-18,-3.24541659198776e-18
"Freq [GHz]","IWavePhi [deg]","IWaveTheta [deg]","Phi [deg]","Theta [deg]","re(rEPhi) [V]","im(rEPhi) [V]","re(rETheta) [V]","im(rETheta) [V]"
0.8541,180,90,45,125.264,-1.92301325463441e-18,6.21494863227078e-18,-6.56561079676148e-19,-3.11039982069152e-18
"Freq [GHz]","IWavePhi [deg]","IWaveTheta [deg]","Phi [deg]","Theta [deg]","re(rEPhi) [V]","im(rEPhi) [V]","re(rETheta) [V]","im(rETheta) [V]"
0.8541,180,90,-135,54.736,-5.19786662809973e-19,-6.26671006341157e-18,-2.09447551602154e-18,-3.244998135325e-18
"Freq [GHz]","IWavePhi [deg]","IWaveTheta [deg]","Phi [deg]","Theta [deg]","re(rEPhi) [V]","im(rEPhi) [V]","re(rETheta) [V]","im(rETheta) [V]"
0.8541,180,90,-45,125.264,-5.65216849958952e-19,6.15891199288448e-18,-2.12065923447266e-18,3.87702544598066e-18
"Freq [GHz]","IWavePhi [deg]","IWaveTheta [deg]","Phi [deg]","Theta [deg]","re(rEPhi) [V]","im(rEPhi) [V]","re(rETheta) [V]","im(rETheta) [V]"
0.8541,180,90,135,125.264,1.92450856139797e-18,-6.21344485880031e-18,-6.56334010469339e-19,-3.10988884753232e-18
"Freq [GHz]","IWavePhi [deg]","IWaveTheta [deg]","Phi [deg]","Theta [deg]","re(rEPhi) [V]","im(rEPhi) [V]","re(rETheta) [V]","im(rETheta) [V]"
0.8541,180,90,-135,125.264,5.63898917699714e-19,-6.15921951760504e-18,-2.1205890147002e-18,3.87676603825959e-18
"Freq [GHz]","IWavePhi [deg]","IWaveTheta [deg]","Phi [deg]","Theta [deg]","re(rEPhi) [V]","im(rEPhi) [V]","re(rETheta) [V]","im(rETheta) [V]"
0.8541,180,90,0,90,-1.49856081067898e-21,1.80863491480663e-21,2.75400471596296e-18,-5.8025187363627e-19
"Freq [GHz]","IWavePhi [deg]","IWaveTheta [deg]","Phi [deg]","Theta [deg]","re(rEPhi) [V]","im(rEPhi) [V]","re(rETheta) [V]","im(rETheta) [V]"
0.8541,180,90,180,90,1.08190151893012e-21,-1.58561352745545e-21,2.75306426386279e-18,-5.78975837910024e-19
"Freq [GHz]","IWavePhi [deg]","IWaveTheta [deg]","Phi [deg]","Theta [deg]","re(rEPhi) [V]","im(rEPhi) [V]","re(rETheta) [V]","im(rETheta) [V]"
0.8541,180,90,90,90,-3.08337090895998e-22,-1.64148784071835e-22,1.31220908401539e-18,-2.44083091227722e-19
"Freq [GHz]","IWavePhi [deg]","IWaveTheta [deg]","Phi [deg]","Theta [deg]","re(rEPhi) [V]","im(rEPhi) [V]","re(rETheta) [V]","im(rETheta) [V]"
0.8541,180,90,-90,90,1.47663431483227e-22,-1.6141235213776e-24,1.28779710580022e-18,-4.41356013219339e-19
"Freq [GHz]","IWavePhi [deg]","IWaveTheta [deg]","Phi [deg]","Theta [deg]","re(rEPhi) [V]","im(rEPhi) [V]","re(rETheta) [V]","im(rETheta) [V]"
0.8541,180,90,0,0,1.82756884960627e-18,1.02962173216204e-19,4.0702364045743e-22,4.57863306525715e-25
"Freq [GHz]","IWavePhi [deg]","IWaveTheta [deg]","Phi [deg]","Theta [deg]","re(rEPhi) [V]","im(rEPhi) [V]","re(rETheta) [V]","im(rETheta) [V]"
0.8541,180,90,0,180,-1.8296786406819e-18,-9.98762944952019e-20,5.3570357249798e-22,4.62500940008074e-23
"Freq [GHz]","IWavePhi [deg]","IWaveTheta [deg]","Phi [deg]","Theta [deg]","re(rEPhi) [V]","im(rEPhi) [V]","re(rETheta) [V]","im(rETheta) [V]"
0.8541,180,90,45,54.736,5.41314094307055e-19,5.53861828832281e-20,2.10634405316074e-18,-3.14131206359377e-19
"Freq [GHz]","IWavePhi [deg]","IWaveTheta [deg]","Phi [deg]","Theta [deg]","re(rEPhi) [V]","im(rEPhi) [V]","re(rETheta) [V]","im(rETheta) [V]"
0.8541,180,90,135,54.736,-5.41596704546379e-19,-5.6033954096828e-20,2.10646818292289e-18,-3.13928654855186e-19
"Freq [GHz]","IWavePhi [deg]","IWaveTheta [deg]","Phi [deg]","Theta [deg]","re(rEPhi) [V]","im(rEPhi) [V]","re(rETheta) [V]","im(rETheta) [V]"
0.8541,180,90,-45,54.736,9.02487523701384e-19,2.60349335056654e-20,1.26223328271005e-18,-4.68570244818109e-19
"Freq [GHz]","IWavePhi [deg]","IWaveTheta [deg]","Phi [deg]","Theta [deg]","re(rEPhi) [V]","im(rEPhi) [V]","re(rETheta) [V]","im(rETheta) [V]"
0.8541,180,90,45,125.264,-5.42729970238236e-19,-5.34656883692315e-20,2.10803577952525e-18,-3.15993467542629e-19
"Freq [GHz]","IWavePhi [deg]","IWaveTheta [deg]","Phi [deg]","Theta [deg]","re(rEPhi) [V]","im(rEPhi) [V]","re(rETheta) [V]","im(rETheta) [V]"
0.8541,180,90,-135,54.736,-9.02458811022985e-19,-2.60234473949346e-20,1.26196733470762e-18,-4.69017597580905e-19
"Freq [GHz]","IWavePhi [deg]","IWaveTheta [deg]","Phi [deg]","Theta [deg]","re(rEPhi) [V]","im(rEPhi) [V]","re(rETheta) [V]","im(rETheta) [V]"
0.8541,180,90,-45,125.264,-9.03658793086542e-19,-2.33553610170445e-20,1.26183825981579e-18,-4.68427011931705e-19
"Freq [GHz]","IWavePhi [deg]","IWaveTheta [deg]","Phi [deg]","Theta [deg]","re(rEPhi) [V]","im(rEPhi) [V]","re(rETheta) [V]","im(rETheta) [V]"
0.8541,180,90,135,125.264,5.42732105790471e-19,5.29094710428992e-20,2.10738838886413e-18,-3.15415728330083e-19
"Freq [GHz]","IWavePhi [deg]","IWaveTheta [deg]","Phi [deg]","Theta [deg]","re(rEPhi) [V]","im(rEPhi) [V]","re(rETheta) [V]","im(rETheta) [V]"
0.8541,180,90,-135,125.264,9.0353922564356e-19,2.33396482227158e-20,1.26155144557911e-18,-4.67995971444685e-19
"Freq [GHz]","IWavePhi [deg]","IWaveTheta [deg]","Phi [deg]","Theta [deg]","re(rEPhi) [mV]","im(rEPhi) [mV]","re(rETheta) [uv]","im(rETheta) [uv]"
0.8541,180,90,0,90,-7.68871540916598,87.9289781101862,-1.63521291018917,-29.489945119673
"Freq [GHz]","IWavePhi [deg]","IWaveTheta [deg]","Phi [deg]","Theta [deg]","re(rEPhi) [mV]","im(rEPhi) [mV]","re(rETheta) [uv]","im(rETheta) [uv]"
0.8541,180,90,180,90,7.69156728730685,-87.9833523248172,-1.3138668194957,1.32204560755094
"Freq [GHz]","IWavePhi [deg]","IWaveTheta [deg]","Phi [deg]","Theta [deg]","re(rEPhi) [uv]","im(rEPhi) [uv]","re(rETheta) [mV]","im(rETheta) [uv]"
0.8541,180,90,90,90,6.08143877943359,-8.10002663687028,11.3992698716289,626.51442612925
"Freq [GHz]","IWavePhi [deg]","IWaveTheta [deg]","Phi [deg]","Theta [deg]","re(rEPhi) [uv]","im(rEPhi) [uv]","re(rETheta) [mV]","im(rETheta) [uv]"
0.8541,180,90,-90,90,3.79937070990765,-12.0490293783521,-11.3903565475717,-645.070349470058
"Freq [GHz]","IWavePhi [deg]","IWaveTheta [deg]","Phi [deg]","Theta [deg]","re(rEPhi) [mV]","im(rEPhi) [mV]","re(rETheta) [uv]","im(rETheta) [uv]"
0.8541,180,90,0,0,2.39079483730711,79.6022245510452,1.80497725643705,4.19254659103483
"Freq [GHz]","IWavePhi [deg]","IWaveTheta [deg]","Phi [deg]","Theta [deg]","re(rEPhi) [mV]","im(rEPhi) [mV]","re(rETheta) [uv]","im(rETheta) [uv]"
0.8541,180,90,0,180,-15.2422601288373,76.9333441306361,-5.97633363267826,6.46580723972388
"Freq [GHz]","IWavePhi [deg]","IWaveTheta [deg]","Phi [deg]","Theta [deg]","re(rEPhi) [mV]","im(rEPhi) [mV]","re(rETheta) [mV]","im(rETheta) [mV]"
0.8541,180,90,45,54.736,-1.2929968212227,56.5072469186115,5.62507340839864,32.75355868982
"Freq [GHz]","IWavePhi [deg]","IWaveTheta [deg]","Phi [deg]","Theta [deg]","re(rEPhi) [mV]","im(rEPhi) [mV]","re(rETheta) [mV]","im(rETheta) [mV]"
0.8541,180,90,135,54.736,1.29748676976283,-56.5181244180932,5.60258142884196,32.742632263696
"Freq [GHz]","IWavePhi [deg]","IWaveTheta [deg]","Phi [deg]","Theta [deg]","re(rEPhi) [mV]","im(rEPhi) [mV]","re(rETheta) [mV]","im(rETheta) [mV]"
0.8541,180,90,-45,54.736,-1.28826074033248,56.5403855412252,-5.60335569364772,-32.7625889106336
"Freq [GHz]","IWavePhi [deg]","IWaveTheta [deg]","Phi [deg]","Theta [deg]","re(rEPhi) [mV]","im(rEPhi) [mV]","re(rETheta) [mV]","im(rETheta) [mV]"
0.8541,180,90,45,125.264,-8.10538742373879,55.4887889871299,10.7399020648226,-31.4797346168586
"Freq [GHz]","IWavePhi [deg]","IWaveTheta [deg]","Phi [deg]","Theta [deg]","re(rEPhi) [mV]","im(rEPhi) [mV]","re(rETheta) [mV]","im(rETheta) [mV]"
0.8541,180,90,-135,54.736,1.28865769741277,-56.5118398278159,-5.62073807862824,-32.7631736277067
"Freq [GHz]","IWavePhi [deg]","IWaveTheta [deg]","Phi [deg]","Theta [deg]","re(rEPhi) [mV]","im(rEPhi) [mV]","re(rETheta) [mV]","im(rETheta) [mV]"
0.8541,180,90,-45,125.264,-8.1161757041094,55.4810997949088,-10.723568995695,31.4348526272446
"Freq [GHz]","IWavePhi [deg]","IWaveTheta [deg]","Phi [deg]","Theta [deg]","re(rEPhi) [mV]","im(rEPhi) [mV]","re(rETheta) [mV]","im(rETheta) [mV]"
0.8541,180,90,135,125.264,8.12047654497234,-55.4789674640278,10.7371748589707,-31.4711236637099
"Freq [GHz]","IWavePhi [deg]","IWaveTheta [deg]","Phi [deg]","Theta [deg]","re(rEPhi) [mV]","im(rEPhi) [mV]","re(rETheta) [mV]","im(rETheta) [mV]"
0.8541,180,90,-135,125.264,8.10263571839714,-55.4805608605712,-10.7261041881489,31.4356324614664
"Freq [GHz]","IWavePhi [deg]","IWaveTheta [deg]","Phi [deg]","Theta [deg]","re(rEPhi) [mV]","im(rEPhi) [mV]","re(rETheta) [nV]","im(rETheta) [uv]"
0.8541,180,90,0,90,-7.68258069736624,87.9300151101136,-899.653699695639,-25.4308840469512
"Freq [GHz]","IWavePhi [deg]","IWaveTheta [deg]","Phi [deg]","Theta [deg]","re(rEPhi) [mV]","im(rEPhi) [mV]","re(rETheta) [uv]","im(rETheta) [uv]"
0.8541,180,90,180,90,7.68633248031674,-87.9842723687187,14.3297612872876,1.22770404814102
"Freq [GHz]","IWavePhi [deg]","IWaveTheta [deg]","Phi [deg]","Theta [deg]","re(rEPhi) [uv]","im(rEPhi) [uv]","re(rETheta) [mV]","im(rETheta) [uv]"
0.8541,180,90,90,90,6.91225433608701,-9.02556391122658,-11.3655590332698,-649.504477000204
"Freq [GHz]","IWavePhi [deg]","IWaveTheta [deg]","Phi [deg]","Theta [deg]","re(rEPhi) [uv]","im(rEPhi) [uv]","re(rETheta) [mV]","im(rETheta) [uv]"
0.8541,180,90,-90,90,2.67377210650308,-14.1673358175897,11.3721730082705,624.558935614328
"Freq [GHz]","IWavePhi [deg]","IWaveTheta [deg]","Phi [deg]","Theta [deg]","re(rEPhi) [mV]","im(rEPhi) [mV]","re(rETheta) [uv]","im(rETheta) [uv]"
0.8541,180,90,0,0,-15.2037253988808,76.9213092226086,2.95361723730361,4.53655258193171
"Freq [GHz]","IWavePhi [deg]","IWaveTheta [deg]","Phi [deg]","Theta [deg]","re(rEPhi) [mV]","im(rEPhi) [mV]","re(rETheta) [uv]","im(rETheta) [uv]"
0.8541,180,90,0,180,2.36040118576234,79.6170107535232,-7.52981092712714,7.0460143284676
"Freq [GHz]","IWavePhi [deg]","IWaveTheta [deg]","Phi [deg]","Theta [deg]","re(rEPhi) [mV]","im(rEPhi) [mV]","re(rETheta) [mV]","im(rETheta) [mV]"
0.8541,180,90,45,54.736,-8.10217427028621,55.4589353335928,-10.7117494168774,31.4551313734152
"Freq [GHz]","IWavePhi [deg]","IWaveTheta [deg]","Phi [deg]","Theta [deg]","re(rEPhi) [mV]","im(rEPhi) [mV]","re(rETheta) [mV]","im(rETheta) [mV]"
0.8541,180,90,135,54.736,8.11043364491283,-55.4686287050572,-10.726631567748,31.4501304486896
"Freq [GHz]","IWavePhi [deg]","IWaveTheta [deg]","Phi [deg]","Theta [deg]","re(rEPhi) [mV]","im(rEPhi) [mV]","re(rETheta) [mV]","im(rETheta) [mV]"
0.8541,180,90,-45,54.736,-8.11191306763548,55.4874719355448,10.7315262947395,-31.4576582578943
"Freq [GHz]","IWavePhi [deg]","IWaveTheta [deg]","Phi [deg]","Theta [deg]","re(rEPhi) [mV]","im(rEPhi) [mV]","re(rETheta) [mV]","im(rETheta) [mV]"
0.8541,180,90,45,125.264,-1.27815858965785,56.5392817936312,-5.59992960918786,-32.7738874745754
"Freq [GHz]","IWavePhi [deg]","IWaveTheta [deg]","Phi [deg]","Theta [deg]","re(rEPhi) [mV]","im(rEPhi) [mV]","re(rETheta) [mV]","im(rETheta) [mV]"
0.8541,180,90,-135,54.736,8.1085694642192,-55.4588273502713,10.720844242807,-31.4513255900446
"Freq [GHz]","IWavePhi [deg]","IWaveTheta [deg]","Phi [deg]","Theta [deg]","re(rEPhi) [mV]","im(rEPhi) [mV]","re(rETheta) [mV]","im(rETheta) [mV]"
0.8541,180,90,-45,125.264,-1.29775959472116,56.5276309591152,5.61250923287645,32.7427491302971
