"Freq [GHz]","IWavePhi [deg]","IWaveTheta [deg]","Phi [deg]","Theta [deg]","re(rEPhi) [mV]","im(rEPhi) [mV]","re(rETheta) [uv]","im(rETheta) [uv]"
1.5659,180,90,0,90,26.6725721957599,67.8397609596061,-7.19839840151085,-3.5580693523874
"Freq [GHz]","IWavePhi [deg]","IWaveTheta [deg]","Phi [deg]","Theta [deg]","re(rEPhi) [mV]","im(rEPhi) [mV]","re(rETheta) [uv]","im(rETheta) [uv]"
1.5659,180,90,180,90,-26.652875109381,-67.9665480994221,-42.5472928420426,47.1888684330842
"Freq [GHz]","IWavePhi [deg]","IWaveTheta [deg]","Phi [deg]","Theta [deg]","re(rEPhi) [uv]","im(rEPhi) [uv]","re(rETheta) [uv]","im(rETheta) [uv]"
1.5659,180,90,90,90,-22.2162334337113,6.21804087426306,3.79749104903564,-54.0500452267992
"Freq [GHz]","IWavePhi [deg]","IWaveTheta [deg]","Phi [deg]","Theta [deg]","re(rEPhi) [uv]","im(rEPhi) [uv]","re(rETheta) [uv]","im(rETheta) [uv]"
1.5659,180,90,-90,90,15.2581017442621,17.5040876338821,-40.0561051807233,-16.1994140903556
"Freq [GHz]","IWavePhi [deg]","IWaveTheta [deg]","Phi [deg]","Theta [deg]","re(rEPhi) [mV]","im(rEPhi) [mV]","re(rETheta) [uv]","im(rETheta) [uv]"
1.5659,180,90,0,0,14.3400113514362,45.5551249259194,7.15646847389796,-5.00307171594037
"Freq [GHz]","IWavePhi [deg]","IWaveTheta [deg]","Phi [deg]","Theta [deg]","re(rEPhi) [mV]","im(rEPhi) [mV]","re(rETheta) [uv]","im(rETheta) [uv]"
1.5659,180,90,0,180,14.0674233954225,45.5639303347107,-19.2257614598334,28.427612504469
"Freq [GHz]","IWavePhi [deg]","IWaveTheta [deg]","Phi [deg]","Theta [deg]","re(rEPhi) [mV]","im(rEPhi) [mV]","re(rETheta) [mV]","im(rETheta) [mV]"
1.5659,180,90,45,54.736,13.765791131655,33.9938309856301,7.49829532745193,19.5855310770572
"Freq [GHz]","IWavePhi [deg]","IWaveTheta [deg]","Phi [deg]","Theta [deg]","re(rEPhi) [mV]","im(rEPhi) [mV]","re(rETheta) [mV]","im(rETheta) [mV]"
1.5659,180,90,135,54.736,-13.838535987296,-33.7995741117461,7.48333736336548,19.5483100677717
"Freq [GHz]","IWavePhi [deg]","IWaveTheta [deg]","Phi [deg]","Theta [deg]","re(rEPhi) [mV]","im(rEPhi) [mV]","re(rETheta) [mV]","im(rETheta) [mV]"
1.5659,180,90,-45,54.736,13.8490101170686,33.8406156622238,-7.516271314049,-19.5443822046618
"Freq [GHz]","IWavePhi [deg]","IWaveTheta [deg]","Phi [deg]","Theta [deg]","re(rEPhi) [mV]","im(rEPhi) [mV]","re(rETheta) [mV]","im(rETheta) [mV]"
1.5659,180,90,45,125.264,13.9262908175065,33.7777944756316,-7.62833768333604,-19.5378247419631
"Freq [GHz]","IWavePhi [deg]","IWaveTheta [deg]","Phi [deg]","Theta [deg]","re(rEPhi) [mV]","im(rEPhi) [mV]","re(rETheta) [mV]","im(rETheta) [mV]"
1.5659,180,90,-135,54.736,-13.7526318221947,-33.7320262680383,-7.49943622474418,-19.4810843124706
"Freq [GHz]","IWavePhi [deg]","IWaveTheta [deg]","Phi [deg]","Theta [deg]","re(rEPhi) [mV]","im(rEPhi) [mV]","re(rETheta) [mV]","im(rETheta) [mV]"
1.5659,180,90,-45,125.264,13.6343284670333,33.743450540985,7.47513277682469,19.495318344494
"Freq [GHz]","IWavePhi [deg]","IWaveTheta [deg]","Phi [deg]","Theta [deg]","re(rEPhi) [mV]","im(rEPhi) [mV]","re(rETheta) [mV]","im(rETheta) [mV]"
1.5659,180,90,135,125.264,-13.7441878927412,-33.8682359080477,-7.48219065879746,-19.5956588217733
"Freq [GHz]","IWavePhi [deg]","IWaveTheta [deg]","Phi [deg]","Theta [deg]","re(rEPhi) [mV]","im(rEPhi) [mV]","re(rETheta) [mV]","im(rETheta) [mV]"
1.5659,180,90,-135,125.264,-13.8646918985632,-33.9426653210117,7.55443545399572,19.5865824404346
"Freq [GHz]","IWavePhi [deg]","IWaveTheta [deg]","Phi [deg]","Theta [deg]","re(rEPhi) [mV]","im(rEPhi) [mV]","re(rETheta) [uv]","im(rETheta) [uv]"
1.5659,180,90,0,90,-26.6725721957599,-67.8397609596061,7.19839840215163,3.55806934951749
"Freq [GHz]","IWavePhi [deg]","IWaveTheta [deg]","Phi [deg]","Theta [deg]","re(rEPhi) [mV]","im(rEPhi) [mV]","re(rETheta) [uv]","im(rETheta) [uv]"
1.5659,180,90,180,90,26.652875109381,67.9665480994221,42.5472928414205,-47.1888684359578
"Freq [GHz]","IWavePhi [deg]","IWaveTheta [deg]","Phi [deg]","Theta [deg]","re(rEPhi) [uv]","im(rEPhi) [uv]","re(rETheta) [uv]","im(rETheta) [uv]"
1.5659,180,90,90,90,22.2162334337113,-6.21804087426306,-3.79749105130569,54.0500452247232
"Freq [GHz]","IWavePhi [deg]","IWaveTheta [deg]","Phi [deg]","Theta [deg]","re(rEPhi) [uv]","im(rEPhi) [uv]","re(rETheta) [uv]","im(rETheta) [uv]"
1.5659,180,90,-90,90,-15.2581017442621,-17.5040876338821,40.0561051830005,16.1994140882628
"Freq [GHz]","IWavePhi [deg]","IWaveTheta [deg]","Phi [deg]","Theta [deg]","re(rEPhi) [mV]","im(rEPhi) [mV]","re(rETheta) [uv]","im(rETheta) [uv]"
1.5659,180,90,0,0,-14.3400113514362,-45.5551249259194,-7.15646847389796,5.00307171594037
"Freq [GHz]","IWavePhi [deg]","IWaveTheta [deg]","Phi [deg]","Theta [deg]","re(rEPhi) [mV]","im(rEPhi) [mV]","re(rETheta) [uv]","im(rETheta) [uv]"
1.5659,180,90,0,180,-14.0674233954225,-45.5639303347107,19.2257614598334,-28.427612504469
"Freq [GHz]","IWavePhi [deg]","IWaveTheta [deg]","Phi [deg]","Theta [deg]","re(rEPhi) [mV]","im(rEPhi) [mV]","re(rETheta) [mV]","im(rETheta) [mV]"
1.5659,180,90,45,54.736,-13.765791131655,-33.9938309856301,-7.49829532744945,-19.5855310770571
"Freq [GHz]","IWavePhi [deg]","IWaveTheta [deg]","Phi [deg]","Theta [deg]","re(rEPhi) [mV]","im(rEPhi) [mV]","re(rETheta) [mV]","im(rETheta) [mV]"
1.5659,180,90,135,54.736,13.838535987296,33.7995741117461,-7.48333736336609,-19.548310067774
"Freq [GHz]","IWavePhi [deg]","IWaveTheta [deg]","Phi [deg]","Theta [deg]","re(rEPhi) [mV]","im(rEPhi) [mV]","re(rETheta) [mV]","im(rETheta) [mV]"
1.5659,180,90,-45,54.736,-13.8490101170686,-33.8406156622238,7.51627131404698,19.5443822046604
"Freq [GHz]","IWavePhi [deg]","IWaveTheta [deg]","Phi [deg]","Theta [deg]","re(rEPhi) [mV]","im(rEPhi) [mV]","re(rETheta) [mV]","im(rETheta) [mV]"
1.5659,180,90,45,125.264,-13.9262908175065,-33.7777944756316,7.62833768333657,19.5378247419656
"Freq [GHz]","IWavePhi [deg]","IWaveTheta [deg]","Phi [deg]","Theta [deg]","re(rEPhi) [mV]","im(rEPhi) [mV]","re(rETheta) [mV]","im(rETheta) [mV]"
1.5659,180,90,-135,54.736,13.7526318221947,33.7320262680383,7.49943622474367,19.4810843124731
"Freq [GHz]","IWavePhi [deg]","IWaveTheta [deg]","Phi [deg]","Theta [deg]","re(rEPhi) [mV]","im(rEPhi) [mV]","re(rETheta) [mV]","im(rETheta) [mV]"
1.5659,180,90,-45,125.264,-13.6343284670333,-33.743450540985,-7.47513277682409,-19.4953183444963
"Freq [GHz]","IWavePhi [deg]","IWaveTheta [deg]","Phi [deg]","Theta [deg]","re(rEPhi) [mV]","im(rEPhi) [mV]","re(rETheta) [mV]","im(rETheta) [mV]"
1.5659,180,90,135,125.264,13.7441878927412,33.8682359080477,7.48219065879949,19.5956588217719
"Freq [GHz]","IWavePhi [deg]","IWaveTheta [deg]","Phi [deg]","Theta [deg]","re(rEPhi) [mV]","im(rEPhi) [mV]","re(rETheta) [mV]","im(rETheta) [mV]"
1.5659,180,90,-135,125.264,13.8646918985632,33.9426653210117,-7.5544354539982,-19.5865824404345
"Freq [GHz]","IWavePhi [deg]","IWaveTheta [deg]","Phi [deg]","Theta [deg]","re(rEPhi) [V]","im(rEPhi) [V]","re(rETheta) [V]","im(rETheta) [V]"
1.5659,180,90,0,90,2.21752524078938e-18,4.22216167783264e-18,-1.75874720951573e-18,8.43269058221164e-19
"Freq [GHz]","IWavePhi [deg]","IWaveTheta [deg]","Phi [deg]","Theta [deg]","re(rEPhi) [V]","im(rEPhi) [V]","re(rETheta) [V]","im(rETheta) [V]"
1.5659,180,90,180,90,-2.22916380525186e-18,-4.2380960213329e-18,-1.74630333235908e-18,8.32261419667327e-19
"Freq [GHz]","IWavePhi [deg]","IWaveTheta [deg]","Phi [deg]","Theta [deg]","re(rEPhi) [V]","im(rEPhi) [V]","re(rETheta) [V]","im(rETheta) [V]"
1.5659,180,90,90,90,1.25168177467425e-21,4.18509451273928e-21,-3.6331565931964e-18,4.98885647207852e-18
"Freq [GHz]","IWavePhi [deg]","IWaveTheta [deg]","Phi [deg]","Theta [deg]","re(rEPhi) [V]","im(rEPhi) [V]","re(rETheta) [V]","im(rETheta) [V]"
1.5659,180,90,-90,90,-5.86263636453296e-21,-3.1210772826086e-21,4.92690450104227e-18,-4.2822152365826e-18
"Freq [GHz]","IWavePhi [deg]","IWaveTheta [deg]","Phi [deg]","Theta [deg]","re(rEPhi) [V]","im(rEPhi) [V]","re(rETheta) [V]","im(rETheta) [V]"
1.5659,180,90,0,0,5.44014297592206e-18,-2.54101125321829e-20,4.71741658695541e-21,3.1929622543424e-22
"Freq [GHz]","IWavePhi [deg]","IWaveTheta [deg]","Phi [deg]","Theta [deg]","re(rEPhi) [V]","im(rEPhi) [V]","re(rETheta) [V]","im(rETheta) [V]"
1.5659,180,90,0,180,-2.79778756261143e-18,5.69664819992524e-18,3.21424085446861e-21,1.84673136087255e-21
"Freq [GHz]","IWavePhi [deg]","IWaveTheta [deg]","Phi [deg]","Theta [deg]","re(rEPhi) [V]","im(rEPhi) [V]","re(rETheta) [V]","im(rETheta) [V]"
1.5659,180,90,45,54.736,-1.05654745987687e-18,4.92004486127283e-18,-4.90484985534215e-18,7.11707260110464e-18
"Freq [GHz]","IWavePhi [deg]","IWaveTheta [deg]","Phi [deg]","Theta [deg]","re(rEPhi) [V]","im(rEPhi) [V]","re(rETheta) [V]","im(rETheta) [V]"
1.5659,180,90,135,54.736,1.05596335742509e-18,-4.90538135092057e-18,-4.91323600567088e-18,7.13446386701664e-18
"Freq [GHz]","IWavePhi [deg]","IWaveTheta [deg]","Phi [deg]","Theta [deg]","re(rEPhi) [V]","im(rEPhi) [V]","re(rETheta) [V]","im(rETheta) [V]"
1.5659,180,90,-45,54.736,5.68237393664219e-18,-2.94056433249747e-18,-6.85819679442324e-20,-1.49169961943705e-18
"Freq [GHz]","IWavePhi [deg]","IWaveTheta [deg]","Phi [deg]","Theta [deg]","re(rEPhi) [V]","im(rEPhi) [V]","re(rETheta) [V]","im(rETheta) [V]"
1.5659,180,90,45,125.264,-7.30920081337487e-18,7.0867368156336e-18,9.69192359812516e-20,6.90647412771779e-20
"Freq [GHz]","IWavePhi [deg]","IWaveTheta [deg]","Phi [deg]","Theta [deg]","re(rEPhi) [V]","im(rEPhi) [V]","re(rETheta) [V]","im(rETheta) [V]"
1.5659,180,90,-135,54.736,-5.67835624506008e-18,2.97897709099464e-18,-6.75208662308703e-20,-1.47623407027791e-18
"Freq [GHz]","IWavePhi [deg]","IWaveTheta [deg]","Phi [deg]","Theta [deg]","re(rEPhi) [V]","im(rEPhi) [V]","re(rETheta) [V]","im(rETheta) [V]"
1.5659,180,90,-45,125.264,4.97032360898585e-18,-5.76125890336401e-19,6.02531905998069e-18,-3.61951760543568e-18
"Freq [GHz]","IWavePhi [deg]","IWaveTheta [deg]","Phi [deg]","Theta [deg]","re(rEPhi) [V]","im(rEPhi) [V]","re(rETheta) [V]","im(rETheta) [V]"
1.5659,180,90,135,125.264,7.32146976420952e-18,-7.0896588188158e-18,9.21152948123467e-20,5.67285602236404e-20
"Freq [GHz]","IWavePhi [deg]","IWaveTheta [deg]","Phi [deg]","Theta [deg]","re(rEPhi) [V]","im(rEPhi) [V]","re(rETheta) [V]","im(rETheta) [V]"
1.5659,180,90,-135,125.264,-4.97268355865872e-18,5.55016705423254e-19,6.01248267636962e-18,-3.61656675555743e-18
"Freq [GHz]","IWavePhi [deg]","IWaveTheta [deg]","Phi [deg]","Theta [deg]","re(rEPhi) [V]","im(rEPhi) [V]","re(rETheta) [V]","im(rETheta) [V]"
1.5659,180,90,0,90,-1.11811019850934e-20,3.46664888015372e-21,1.80416633366235e-18,-8.49991828506644e-19
"Freq [GHz]","IWavePhi [deg]","IWaveTheta [deg]","Phi [deg]","Theta [deg]","re(rEPhi) [V]","im(rEPhi) [V]","re(rETheta) [V]","im(rETheta) [V]"
1.5659,180,90,180,90,8.25743230210699e-21,-2.0790035549991e-21,1.81338647174323e-18,-8.50195610219828e-19
"Freq [GHz]","IWavePhi [deg]","IWaveTheta [deg]","Phi [deg]","Theta [deg]","re(rEPhi) [V]","im(rEPhi) [V]","re(rETheta) [V]","im(rETheta) [V]"
1.5659,180,90,90,90,-1.34187662193596e-21,1.24475681739105e-21,-4.95172559787611e-18,4.27391260332613e-18
"Freq [GHz]","IWavePhi [deg]","IWaveTheta [deg]","Phi [deg]","Theta [deg]","re(rEPhi) [V]","im(rEPhi) [V]","re(rETheta) [V]","im(rETheta) [V]"
1.5659,180,90,-90,90,5.53164970251737e-21,3.52017340424389e-21,3.64743387549325e-18,-4.99625496523363e-18
"Freq [GHz]","IWavePhi [deg]","IWaveTheta [deg]","Phi [deg]","Theta [deg]","re(rEPhi) [V]","im(rEPhi) [V]","re(rETheta) [V]","im(rETheta) [V]"
1.5659,180,90,0,0,4.1225515290116e-18,-2.86368550770888e-18,4.00813514178827e-21,1.583351753232e-21
"Freq [GHz]","IWavePhi [deg]","IWaveTheta [deg]","Phi [deg]","Theta [deg]","re(rEPhi) [V]","im(rEPhi) [V]","re(rETheta) [V]","im(rETheta) [V]"
1.5659,180,90,0,180,-4.13851114765811e-18,2.85650020859325e-18,-1.92369117123685e-22,-2.38438535036186e-21
"Freq [GHz]","IWavePhi [deg]","IWaveTheta [deg]","Phi [deg]","Theta [deg]","re(rEPhi) [V]","im(rEPhi) [V]","re(rETheta) [V]","im(rETheta) [V]"
1.5659,180,90,45,54.736,3.51419682998668e-19,-1.19544976074039e-18,-2.95602772342774e-18,2.53741273839088e-18
"Freq [GHz]","IWavePhi [deg]","IWaveTheta [deg]","Phi [deg]","Theta [deg]","re(rEPhi) [V]","im(rEPhi) [V]","re(rETheta) [V]","im(rETheta) [V]"
1.5659,180,90,135,54.736,-3.62351055917779e-19,1.19312367573236e-18,-2.9583706161609e-18,2.54337709863451e-18
"Freq [GHz]","IWavePhi [deg]","IWaveTheta [deg]","Phi [deg]","Theta [deg]","re(rEPhi) [V]","im(rEPhi) [V]","re(rETheta) [V]","im(rETheta) [V]"
1.5659,180,90,-45,54.736,3.12739584952864e-18,-1.08673669464954e-18,2.43030601812185e-18,-3.60734912116159e-18
"Freq [GHz]","IWavePhi [deg]","IWaveTheta [deg]","Phi [deg]","Theta [deg]","re(rEPhi) [V]","im(rEPhi) [V]","re(rETheta) [V]","im(rETheta) [V]"
1.5659,180,90,45,125.264,-3.60374936007613e-19,1.17818826879468e-18,-2.94851028679946e-18,2.56962747241591e-18
"Freq [GHz]","IWavePhi [deg]","IWaveTheta [deg]","Phi [deg]","Theta [deg]","re(rEPhi) [V]","im(rEPhi) [V]","re(rETheta) [V]","im(rETheta) [V]"
1.5659,180,90,-135,54.736,-3.12629951037975e-18,1.08927549211426e-18,2.42897037583529e-18,-3.6032535948036e-18
"Freq [GHz]","IWavePhi [deg]","IWaveTheta [deg]","Phi [deg]","Theta [deg]","re(rEPhi) [V]","im(rEPhi) [V]","re(rETheta) [V]","im(rETheta) [V]"
1.5659,180,90,-45,125.264,-3.12995060019631e-18,1.1089979596992e-18,2.44795581674549e-18,-3.59251819662453e-18
"Freq [GHz]","IWavePhi [deg]","IWaveTheta [deg]","Phi [deg]","Theta [deg]","re(rEPhi) [V]","im(rEPhi) [V]","re(rETheta) [V]","im(rETheta) [V]"
1.5659,180,90,135,125.264,3.65072990143587e-19,-1.17782059002706e-18,-2.95336899930798e-18,2.55422694795202e-18
"Freq [GHz]","IWavePhi [deg]","IWaveTheta [deg]","Phi [deg]","Theta [deg]","re(rEPhi) [V]","im(rEPhi) [V]","re(rETheta) [V]","im(rETheta) [V]"
1.5659,180,90,-135,125.264,3.133221369898e-18,-1.10394785856765e-18,2.44766618331063e-18,-3.60357148123838e-18
"Freq [GHz]","IWavePhi [deg]","IWaveTheta [deg]","Phi [deg]","Theta [deg]","re(rEPhi) [mV]","im(rEPhi) [mV]","re(rETheta) [uv]","im(rETheta) [uv]"
1.5659,180,90,0,90,14.0513013981176,45.4884754970824,-141.39008519971,40.5446663397595
"Freq [GHz]","IWavePhi [deg]","IWaveTheta [deg]","Phi [deg]","Theta [deg]","re(rEPhi) [mV]","im(rEPhi) [mV]","re(rETheta) [uv]","im(rETheta) [uv]"
1.5659,180,90,180,90,-14.0129760117062,-45.6564892948029,-200.350144956011,56.1001521891992
"Freq [GHz]","IWavePhi [deg]","IWaveTheta [deg]","Phi [deg]","Theta [deg]","re(rEPhi) [uv]","im(rEPhi) [uv]","re(rETheta) [mV]","im(rETheta) [mV]"
1.5659,180,90,90,90,-2.39721478137314,15.3098042835039,25.653479282046,-17.9115750518961
"Freq [GHz]","IWavePhi [deg]","IWaveTheta [deg]","Phi [deg]","Theta [deg]","re(rEPhi) [uv]","im(rEPhi) [nV]","re(rETheta) [mV]","im(rETheta) [mV]"
1.5659,180,90,-90,90,-7.30278448965155,-632.670069906387,-25.6628365530903,17.8978492623343
"Freq [GHz]","IWavePhi [deg]","IWaveTheta [deg]","Phi [deg]","Theta [deg]","re(rEPhi) [mV]","im(rEPhi) [mV]","re(rETheta) [uv]","im(rETheta) [uv]"
1.5659,180,90,0,0,30.4726391882577,55.8577498435267,-10.8115820121517,10.0830771937037
"Freq [GHz]","IWavePhi [deg]","IWaveTheta [deg]","Phi [deg]","Theta [deg]","re(rEPhi) [mV]","im(rEPhi) [mV]","re(rETheta) [uv]","im(rETheta) [uv]"
1.5659,180,90,0,180,-2.78100349123459,5.63820669697932,-21.5992140782632,18.1045775909228
"Freq [GHz]","IWavePhi [deg]","IWaveTheta [deg]","Phi [deg]","Theta [deg]","re(rEPhi) [mV]","im(rEPhi) [mV]","re(rETheta) [mV]","im(rETheta) [mV]"
1.5659,180,90,45,54.736,14.4671968707283,32.547880917935,31.7166025319439,4.70357141472993
"Freq [GHz]","IWavePhi [deg]","IWaveTheta [deg]","Phi [deg]","Theta [deg]","re(rEPhi) [mV]","im(rEPhi) [mV]","re(rETheta) [mV]","im(rETheta) [mV]"
1.5659,180,90,135,54.736,-14.5105832606625,-32.4419153915599,31.7346678551857,4.66250261607638
"Freq [GHz]","IWavePhi [deg]","IWaveTheta [deg]","Phi [deg]","Theta [deg]","re(rEPhi) [mV]","im(rEPhi) [mV]","re(rETheta) [mV]","im(rETheta) [mV]"
1.5659,180,90,-45,54.736,14.6369300824902,32.4483398657058,-31.847359344839,-4.59629854413576
"Freq [GHz]","IWavePhi [deg]","IWaveTheta [deg]","Phi [deg]","Theta [deg]","re(rEPhi) [mV]","im(rEPhi) [mV]","re(rETheta) [mV]","im(rETheta) [mV]"
1.5659,180,90,45,125.264,3.01220937131194,13.1245197399962,18.3455703956239,-21.7910801238273
"Freq [GHz]","IWavePhi [deg]","IWaveTheta [deg]","Phi [deg]","Theta [deg]","re(rEPhi) [mV]","im(rEPhi) [mV]","re(rETheta) [mV]","im(rETheta) [mV]"
1.5659,180,90,-135,54.736,-14.5223808639973,-32.3187625500758,-31.7931041464082,-4.51267741170316
"Freq [GHz]","IWavePhi [deg]","IWaveTheta [deg]","Phi [deg]","Theta [deg]","re(rEPhi) [mV]","im(rEPhi) [mV]","re(rETheta) [mV]","im(rETheta) [mV]"
1.5659,180,90,-45,125.264,2.81232000573363,12.9100724976393,-18.6091667950954,21.5752807741474
"Freq [GHz]","IWavePhi [deg]","IWaveTheta [deg]","Phi [deg]","Theta [deg]","re(rEPhi) [mV]","im(rEPhi) [mV]","re(rETheta) [mV]","im(rETheta) [mV]"
1.5659,180,90,135,125.264,-2.92551208406918,-13.1623207348479,18.452424467362,-21.7440737979131
"Freq [GHz]","IWavePhi [deg]","IWaveTheta [deg]","Phi [deg]","Theta [deg]","re(rEPhi) [mV]","im(rEPhi) [mV]","re(rETheta) [mV]","im(rETheta) [mV]"
1.5659,180,90,-135,125.264,-3.00826686558311,-13.0827778059177,-18.5689013819004,21.7109453299177
"Freq [GHz]","IWavePhi [deg]","IWaveTheta [deg]","Phi [deg]","Theta [deg]","re(rEPhi) [mV]","im(rEPhi) [mV]","re(rETheta) [uv]","im(rETheta) [uv]"
1.5659,180,90,0,90,14.0432991220623,45.6546798584527,121.140293800324,-39.8045379542535
"Freq [GHz]","IWavePhi [deg]","IWaveTheta [deg]","Phi [deg]","Theta [deg]","re(rEPhi) [mV]","im(rEPhi) [mV]","re(rETheta) [uv]","im(rETheta) [uv]"
1.5659,180,90,180,90,-14.0523979675437,-45.6661111763354,135.884346521955,20.459599448771
"Freq [GHz]","IWavePhi [deg]","IWaveTheta [deg]","Phi [deg]","Theta [deg]","re(rEPhi) [uv]","im(rEPhi) [uv]","re(rETheta) [mV]","im(rETheta) [mV]"
1.5659,180,90,90,90,-25.0605542935982,-8.67360267655036,-25.649383520195,17.8228547344944
"Freq [GHz]","IWavePhi [deg]","IWaveTheta [deg]","Phi [deg]","Theta [deg]","re(rEPhi) [uv]","im(rEPhi) [uv]","re(rETheta) [mV]","im(rETheta) [mV]"
1.5659,180,90,-90,90,23.5628361572761,21.2820736594241,25.6315458516321,-17.9074841445649
"Freq [GHz]","IWavePhi [deg]","IWaveTheta [deg]","Phi [deg]","Theta [deg]","re(rEPhi) [mV]","im(rEPhi) [mV]","re(rETheta) [uv]","im(rETheta) [uv]"
1.5659,180,90,0,0,-2.6927605563268,5.7522077849835,22.3106853472991,-17.3903589224505
"Freq [GHz]","IWavePhi [deg]","IWaveTheta [deg]","Phi [deg]","Theta [deg]","re(rEPhi) [mV]","im(rEPhi) [mV]","re(rETheta) [uv]","im(rETheta) [uv]"
1.5659,180,90,0,180,30.1773701379465,55.9967724747968,-6.97099743523081,22.1028792064193
"Freq [GHz]","IWavePhi [deg]","IWaveTheta [deg]","Phi [deg]","Theta [deg]","re(rEPhi) [mV]","im(rEPhi) [mV]","re(rETheta) [mV]","im(rETheta) [mV]"
1.5659,180,90,45,54.736,2.96233186487545,13.2102915058184,-18.4492757831391,21.6863886729032
"Freq [GHz]","IWavePhi [deg]","IWaveTheta [deg]","Phi [deg]","Theta [deg]","re(rEPhi) [mV]","im(rEPhi) [mV]","re(rETheta) [mV]","im(rETheta) [mV]"
1.5659,180,90,135,54.736,-3.00330163644028,-13.0643544010143,-18.4991570538978,21.6828101737378
"Freq [GHz]","IWavePhi [deg]","IWaveTheta [deg]","Phi [deg]","Theta [deg]","re(rEPhi) [mV]","im(rEPhi) [mV]","re(rETheta) [mV]","im(rETheta) [mV]"
1.5659,180,90,-45,54.736,2.86812198282788,13.0606021535033,18.5778842169115,-21.7009603451544
"Freq [GHz]","IWavePhi [deg]","IWaveTheta [deg]","Phi [deg]","Theta [deg]","re(rEPhi) [mV]","im(rEPhi) [mV]","re(rETheta) [mV]","im(rETheta) [mV]"
1.5659,180,90,45,125.264,14.6155840809372,32.3531063766881,-31.7985099399976,-4.56753927060157
"Freq [GHz]","IWavePhi [deg]","IWaveTheta [deg]","Phi [deg]","Theta [deg]","re(rEPhi) [mV]","im(rEPhi) [mV]","re(rETheta) [mV]","im(rETheta) [mV]"
1.5659,180,90,-135,54.736,-2.84857814950175,-13.0435167669458,18.5519321292421,-21.7059829867166
"Freq [GHz]","IWavePhi [deg]","IWaveTheta [deg]","Phi [deg]","Theta [deg]","re(rEPhi) [mV]","im(rEPhi) [mV]","re(rETheta) [mV]","im(rETheta) [mV]"
1.5659,180,90,-45,125.264,14.3954336649549,32.5000264872174,31.832051186191,4.70462699899281
