"Freq [GHz]","IWavePhi [deg]","IWaveTheta [deg]","Phi [deg]","Theta [deg]","re(rEPhi) [mV]","im(rEPhi) [mV]","re(rETheta) [uv]","im(rETheta) [uv]"
0.9965,180,90,0,90,20.4913434852094,86.3201846436248,-17.5425861426374,-19.3285988966612
"Freq [GHz]","IWavePhi [deg]","IWaveTheta [deg]","Phi [deg]","Theta [deg]","re(rEPhi) [mV]","im(rEPhi) [mV]","re(rETheta) [uv]","im(rETheta) [uv]"
0.9965,180,90,180,90,-20.5175728234119,-86.3274642961099,7.29952418150734,-26.5936382406209
"Freq [GHz]","IWavePhi [deg]","IWaveTheta [deg]","Phi [deg]","Theta [deg]","re(rEPhi) [uv]","im(rEPhi) [uv]","re(rETheta) [nV]","im(rETheta) [uv]"
0.9965,180,90,90,90,-5.10327319933891,-14.2332883756964,630.304657261238,-10.9233214014033
"Freq [GHz]","IWavePhi [deg]","IWaveTheta [deg]","Phi [deg]","Theta [deg]","re(rEPhi) [uv]","im(rEPhi) [uv]","re(rETheta) [uv]","im(rETheta) [uv]"
0.9965,180,90,-90,90,-10.1676171304455,-3.2299199456723,-16.2649806305135,7.04208407947369
"Freq [GHz]","IWavePhi [deg]","IWaveTheta [deg]","Phi [deg]","Theta [deg]","re(rEPhi) [mV]","im(rEPhi) [mV]","re(rETheta) [uv]","im(rETheta) [uv]"
0.9965,180,90,0,0,16.681338288062,73.6533378582216,6.73505972208784,-14.5942887603826
"Freq [GHz]","IWavePhi [deg]","IWaveTheta [deg]","Phi [deg]","Theta [deg]","re(rEPhi) [mV]","im(rEPhi) [mV]","re(rETheta) [uv]","im(rETheta) [uv]"
0.9965,180,90,0,180,16.7225719259683,73.7321852113737,13.4563026879183,1.53465621478556
"Freq [GHz]","IWavePhi [deg]","IWaveTheta [deg]","Phi [deg]","Theta [deg]","re(rEPhi) [mV]","im(rEPhi) [mV]","re(rETheta) [mV]","im(rETheta) [mV]"
0.9965,180,90,45,54.736,12.5447090944009,52.5844786966797,7.06553046054167,30.1193631300154
"Freq [GHz]","IWavePhi [deg]","IWaveTheta [deg]","Phi [deg]","Theta [deg]","re(rEPhi) [mV]","im(rEPhi) [mV]","re(rETheta) [mV]","im(rETheta) [mV]"
0.9965,180,90,135,54.736,-12.5541409314782,-52.5992092200179,7.03149399879223,30.130944146069
"Freq [GHz]","IWavePhi [deg]","IWaveTheta [deg]","Phi [deg]","Theta [deg]","re(rEPhi) [mV]","im(rEPhi) [mV]","re(rETheta) [mV]","im(rETheta) [mV]"
0.9965,180,90,-45,54.736,12.5850901245026,52.6150851908814,-7.04531664273491,-30.1548734261597
"Freq [GHz]","IWavePhi [deg]","IWaveTheta [deg]","Phi [deg]","Theta [deg]","re(rEPhi) [mV]","im(rEPhi) [mV]","re(rETheta) [mV]","im(rETheta) [mV]"
0.9965,180,90,45,125.264,12.5982223935669,52.6022725468331,-7.07766732051493,-30.1550510609166
"Freq [GHz]","IWavePhi [deg]","IWaveTheta [deg]","Phi [deg]","Theta [deg]","re(rEPhi) [mV]","im(rEPhi) [mV]","re(rETheta) [mV]","im(rETheta) [mV]"
0.9965,180,90,-135,54.736,-12.5738079970313,-52.6180455932794,-7.06007514717369,-30.1450014500604
"Freq [GHz]","IWavePhi [deg]","IWaveTheta [deg]","Phi [deg]","Theta [deg]","re(rEPhi) [mV]","im(rEPhi) [mV]","re(rETheta) [mV]","im(rETheta) [mV]"
0.9965,180,90,-45,125.264,12.6055731958318,52.5972625087017,7.06251872908522,30.1076038285839
"Freq [GHz]","IWavePhi [deg]","IWaveTheta [deg]","Phi [deg]","Theta [deg]","re(rEPhi) [mV]","im(rEPhi) [mV]","re(rETheta) [mV]","im(rETheta) [mV]"
0.9965,180,90,135,125.264,-12.6033707621529,-52.6178392418146,-7.07623952658856,-30.1511042826828
"Freq [GHz]","IWavePhi [deg]","IWaveTheta [deg]","Phi [deg]","Theta [deg]","re(rEPhi) [mV]","im(rEPhi) [mV]","re(rETheta) [mV]","im(rETheta) [mV]"
0.9965,180,90,-135,125.264,-12.6114157575864,-52.582979208884,7.04379156444358,30.1102217585185
"Freq [GHz]","IWavePhi [deg]","IWaveTheta [deg]","Phi [deg]","Theta [deg]","re(rEPhi) [mV]","im(rEPhi) [mV]","re(rETheta) [uv]","im(rETheta) [uv]"
0.9965,180,90,0,90,-20.4913434852094,-86.3201846436248,17.5425861426382,19.3285988966625
"Freq [GHz]","IWavePhi [deg]","IWaveTheta [deg]","Phi [deg]","Theta [deg]","re(rEPhi) [mV]","im(rEPhi) [mV]","re(rETheta) [uv]","im(rETheta) [uv]"
0.9965,180,90,180,90,20.5175728234119,86.3274642961099,-7.29952418150761,26.593638240622
"Freq [GHz]","IWavePhi [deg]","IWaveTheta [deg]","Phi [deg]","Theta [deg]","re(rEPhi) [uv]","im(rEPhi) [uv]","re(rETheta) [nV]","im(rETheta) [uv]"
0.9965,180,90,90,90,5.10327319938612,14.2332883794502,-630.30465726268,10.923321401404
"Freq [GHz]","IWavePhi [deg]","IWaveTheta [deg]","Phi [deg]","Theta [deg]","re(rEPhi) [uv]","im(rEPhi) [uv]","re(rETheta) [uv]","im(rETheta) [uv]"
0.9965,180,90,-90,90,10.167617130488,3.22991994192718,16.2649806305153,-7.04208407947225
"Freq [GHz]","IWavePhi [deg]","IWaveTheta [deg]","Phi [deg]","Theta [deg]","re(rEPhi) [mV]","im(rEPhi) [mV]","re(rETheta) [uv]","im(rETheta) [uv]"
0.9965,180,90,0,0,-16.681338288062,-73.6533378582216,-6.73505972360218,14.5942887638177
"Freq [GHz]","IWavePhi [deg]","IWaveTheta [deg]","Phi [deg]","Theta [deg]","re(rEPhi) [mV]","im(rEPhi) [mV]","re(rETheta) [uv]","im(rETheta) [uv]"
0.9965,180,90,0,180,-16.7225719259683,-73.7321852113737,-13.4563026894234,-1.53465621821678
"Freq [GHz]","IWavePhi [deg]","IWaveTheta [deg]","Phi [deg]","Theta [deg]","re(rEPhi) [mV]","im(rEPhi) [mV]","re(rETheta) [mV]","im(rETheta) [mV]"
0.9965,180,90,45,54.736,-12.5447090944001,-52.5844786966772,-7.06553046054211,-30.1193631300168
"Freq [GHz]","IWavePhi [deg]","IWaveTheta [deg]","Phi [deg]","Theta [deg]","re(rEPhi) [mV]","im(rEPhi) [mV]","re(rETheta) [mV]","im(rETheta) [mV]"
0.9965,180,90,135,54.736,12.5541409314765,52.5992092200159,-7.03149399879322,-30.1309441460702
"Freq [GHz]","IWavePhi [deg]","IWaveTheta [deg]","Phi [deg]","Theta [deg]","re(rEPhi) [mV]","im(rEPhi) [mV]","re(rETheta) [mV]","im(rETheta) [mV]"
0.9965,180,90,-45,54.736,-12.5850901245031,-52.6150851908788,7.04531664273458,30.1548734261612
"Freq [GHz]","IWavePhi [deg]","IWaveTheta [deg]","Phi [deg]","Theta [deg]","re(rEPhi) [mV]","im(rEPhi) [mV]","re(rETheta) [mV]","im(rETheta) [mV]"
0.9965,180,90,45,125.264,-12.5982223935674,-52.6022725468305,7.07766732051462,30.1550510609181
"Freq [GHz]","IWavePhi [deg]","IWaveTheta [deg]","Phi [deg]","Theta [deg]","re(rEPhi) [mV]","im(rEPhi) [mV]","re(rETheta) [mV]","im(rETheta) [mV]"
0.9965,180,90,-135,54.736,12.5738079970308,52.6180455932768,7.060075147174,30.1450014500619
"Freq [GHz]","IWavePhi [deg]","IWaveTheta [deg]","Phi [deg]","Theta [deg]","re(rEPhi) [mV]","im(rEPhi) [mV]","re(rETheta) [mV]","im(rETheta) [mV]"
0.9965,180,90,-45,125.264,-12.6055731958336,-52.5972625086997,-7.06251872908422,-30.1076038285851
"Freq [GHz]","IWavePhi [deg]","IWaveTheta [deg]","Phi [deg]","Theta [deg]","re(rEPhi) [mV]","im(rEPhi) [mV]","re(rETheta) [mV]","im(rETheta) [mV]"
0.9965,180,90,135,125.264,12.6033707621524,52.617839241812,7.07623952658888,30.1511042826843
"Freq [GHz]","IWavePhi [deg]","IWaveTheta [deg]","Phi [deg]","Theta [deg]","re(rEPhi) [mV]","im(rEPhi) [mV]","re(rETheta) [mV]","im(rETheta) [mV]"
0.9965,180,90,-135,125.264,12.6114157575871,52.5829792088815,-7.04379156444314,-30.1102217585199
"Freq [GHz]","IWavePhi [deg]","IWaveTheta [deg]","Phi [deg]","Theta [deg]","re(rEPhi) [V]","im(rEPhi) [V]","re(rETheta) [V]","im(rETheta) [V]"
0.9965,180,90,0,90,1.91961462463418e-18,7.92182870330404e-18,-3.25583605521566e-18,1.02316928284909e-18
"Freq [GHz]","IWavePhi [deg]","IWaveTheta [deg]","Phi [deg]","Theta [deg]","re(rEPhi) [V]","im(rEPhi) [V]","re(rETheta) [V]","im(rETheta) [V]"
0.9965,180,90,180,90,-1.92200099767198e-18,-7.92195933657564e-18,-3.25462688162288e-18,1.02035038210342e-18
"Freq [GHz]","IWavePhi [deg]","IWaveTheta [deg]","Phi [deg]","Theta [deg]","re(rEPhi) [V]","im(rEPhi) [V]","re(rETheta) [V]","im(rETheta) [V]"
0.9965,180,90,90,90,2.44510637956724e-23,-1.42224687209236e-21,-1.74276912281155e-18,6.92342792207445e-19
"Freq [GHz]","IWavePhi [deg]","IWaveTheta [deg]","Phi [deg]","Theta [deg]","re(rEPhi) [V]","im(rEPhi) [V]","re(rETheta) [V]","im(rETheta) [V]"
0.9965,180,90,-90,90,-8.49672950236845e-22,-4.84006727606356e-23,-3.39047179186121e-19,3.01149855630444e-19
"Freq [GHz]","IWavePhi [deg]","IWaveTheta [deg]","Phi [deg]","Theta [deg]","re(rEPhi) [V]","im(rEPhi) [V]","re(rETheta) [V]","im(rETheta) [V]"
0.9965,180,90,0,0,4.02947279267823e-18,6.86191577612061e-18,6.19738152340782e-22,-5.54190524210591e-22
"Freq [GHz]","IWavePhi [deg]","IWaveTheta [deg]","Phi [deg]","Theta [deg]","re(rEPhi) [V]","im(rEPhi) [V]","re(rETheta) [V]","im(rETheta) [V]"
0.9965,180,90,0,180,-8.89338112952053e-19,6.66248836571722e-18,7.40317688318522e-22,4.48184826951122e-22
"Freq [GHz]","IWavePhi [deg]","IWaveTheta [deg]","Phi [deg]","Theta [deg]","re(rEPhi) [V]","im(rEPhi) [V]","re(rETheta) [V]","im(rETheta) [V]"
0.9965,180,90,45,54.736,1.4737191984663e-18,4.8929788066394e-18,-1.51395033644458e-18,3.58292274237722e-18
"Freq [GHz]","IWavePhi [deg]","IWaveTheta [deg]","Phi [deg]","Theta [deg]","re(rEPhi) [V]","im(rEPhi) [V]","re(rETheta) [V]","im(rETheta) [V]"
0.9965,180,90,135,54.736,-1.47492396743843e-18,-4.89431468286164e-18,-1.51646005078104e-18,3.58368737789387e-18
"Freq [GHz]","IWavePhi [deg]","IWaveTheta [deg]","Phi [deg]","Theta [deg]","re(rEPhi) [V]","im(rEPhi) [V]","re(rETheta) [V]","im(rETheta) [V]"
0.9965,180,90,-45,54.736,2.74274577350577e-18,4.8469071228114e-18,-3.08735535295863e-18,-2.22208493677814e-18
"Freq [GHz]","IWavePhi [deg]","IWaveTheta [deg]","Phi [deg]","Theta [deg]","re(rEPhi) [V]","im(rEPhi) [V]","re(rETheta) [V]","im(rETheta) [V]"
0.9965,180,90,45,125.264,-1.08399714411689e-18,4.86871096112492e-18,-1.67287314968248e-18,-2.01591328966352e-18
"Freq [GHz]","IWavePhi [deg]","IWaveTheta [deg]","Phi [deg]","Theta [deg]","re(rEPhi) [V]","im(rEPhi) [V]","re(rETheta) [V]","im(rETheta) [V]"
0.9965,180,90,-135,54.736,-2.74236919087689e-18,-4.84725326701941e-18,-3.08964503278951e-18,-2.22114571757606e-18
"Freq [GHz]","IWavePhi [deg]","IWaveTheta [deg]","Phi [deg]","Theta [deg]","re(rEPhi) [V]","im(rEPhi) [V]","re(rETheta) [V]","im(rETheta) [V]"
0.9965,180,90,-45,125.264,1.40496583125787e-18,4.70110018760221e-18,-7.11165549880659e-19,3.240555357699e-18
"Freq [GHz]","IWavePhi [deg]","IWaveTheta [deg]","Phi [deg]","Theta [deg]","re(rEPhi) [V]","im(rEPhi) [V]","re(rETheta) [V]","im(rETheta) [V]"
0.9965,180,90,135,125.264,1.08325452733581e-18,-4.87032591071131e-18,-1.67299844726606e-18,-2.01599055072165e-18
"Freq [GHz]","IWavePhi [deg]","IWaveTheta [deg]","Phi [deg]","Theta [deg]","re(rEPhi) [V]","im(rEPhi) [V]","re(rETheta) [V]","im(rETheta) [V]"
0.9965,180,90,-135,125.264,-1.40649372413003e-18,-4.70060041583449e-18,-7.11792763447878e-19,3.24024101683657e-18
"Freq [GHz]","IWavePhi [deg]","IWaveTheta [deg]","Phi [deg]","Theta [deg]","re(rEPhi) [V]","im(rEPhi) [V]","re(rETheta) [V]","im(rETheta) [V]"
0.9965,180,90,0,90,-7.07114899884066e-22,1.40218353184653e-21,3.25592825447421e-18,-1.01704574099701e-18
"Freq [GHz]","IWavePhi [deg]","IWaveTheta [deg]","Phi [deg]","Theta [deg]","re(rEPhi) [V]","im(rEPhi) [V]","re(rETheta) [V]","im(rETheta) [V]"
0.9965,180,90,180,90,4.73773027897946e-22,-4.896764467614e-22,3.25733779002941e-18,-1.01521733409313e-18
"Freq [GHz]","IWavePhi [deg]","IWaveTheta [deg]","Phi [deg]","Theta [deg]","re(rEPhi) [V]","im(rEPhi) [V]","re(rETheta) [V]","im(rETheta) [V]"
0.9965,180,90,90,90,-2.26801205418856e-22,9.28576019415801e-22,3.37708952469957e-19,-2.90132283723948e-19
"Freq [GHz]","IWavePhi [deg]","IWaveTheta [deg]","Phi [deg]","Theta [deg]","re(rEPhi) [V]","im(rEPhi) [V]","re(rETheta) [V]","im(rETheta) [V]"
0.9965,180,90,-90,90,-4.98677106574524e-23,-6.47454823025319e-22,1.74466294138138e-18,-6.9515702299691e-19
"Freq [GHz]","IWavePhi [deg]","IWaveTheta [deg]","Phi [deg]","Theta [deg]","re(rEPhi) [V]","im(rEPhi) [V]","re(rETheta) [V]","im(rETheta) [V]"
0.9965,180,90,0,0,2.46079725680588e-18,1.02273162207627e-19,-7.58946737189981e-23,-5.05447670537548e-22
"Freq [GHz]","IWavePhi [deg]","IWaveTheta [deg]","Phi [deg]","Theta [deg]","re(rEPhi) [V]","im(rEPhi) [V]","re(rETheta) [V]","im(rETheta) [V]"
0.9965,180,90,0,180,-2.46104686362723e-18,-1.02158493562534e-19,5.07003125635062e-22,-3.60008011609435e-22
"Freq [GHz]","IWavePhi [deg]","IWaveTheta [deg]","Phi [deg]","Theta [deg]","re(rEPhi) [V]","im(rEPhi) [V]","re(rETheta) [V]","im(rETheta) [V]"
0.9965,180,90,45,54.736,6.69572730356214e-19,7.34619175897779e-20,1.90203852113592e-18,-5.00530643397951e-19
"Freq [GHz]","IWavePhi [deg]","IWaveTheta [deg]","Phi [deg]","Theta [deg]","re(rEPhi) [V]","im(rEPhi) [V]","re(rETheta) [V]","im(rETheta) [V]"
0.9965,180,90,135,54.736,-6.70506690927927e-19,-7.38215776425508e-20,1.9019855454152e-18,-5.01415733774318e-19
"Freq [GHz]","IWavePhi [deg]","IWaveTheta [deg]","Phi [deg]","Theta [deg]","re(rEPhi) [V]","im(rEPhi) [V]","re(rETheta) [V]","im(rETheta) [V]"
0.9965,180,90,-45,54.736,1.27937359806338e-18,1.35700287309827e-20,1.59577817300596e-18,-7.83529830628548e-19
"Freq [GHz]","IWavePhi [deg]","IWaveTheta [deg]","Phi [deg]","Theta [deg]","re(rEPhi) [V]","im(rEPhi) [V]","re(rETheta) [V]","im(rETheta) [V]"
0.9965,180,90,45,125.264,-6.69307241173395e-19,-7.10180711462349e-20,1.90029556913835e-18,-5.03205160024463e-19
"Freq [GHz]","IWavePhi [deg]","IWaveTheta [deg]","Phi [deg]","Theta [deg]","re(rEPhi) [V]","im(rEPhi) [V]","re(rETheta) [V]","im(rETheta) [V]"
0.9965,180,90,-135,54.736,-1.28051806072675e-18,-1.33949765461337e-20,1.59626373326519e-18,-7.84538692926591e-19
"Freq [GHz]","IWavePhi [deg]","IWaveTheta [deg]","Phi [deg]","Theta [deg]","re(rEPhi) [V]","im(rEPhi) [V]","re(rETheta) [V]","im(rETheta) [V]"
0.9965,180,90,-45,125.264,-1.28222370342431e-18,-1.12354496034744e-20,1.59405970492275e-18,-7.8247397501636e-19
"Freq [GHz]","IWavePhi [deg]","IWaveTheta [deg]","Phi [deg]","Theta [deg]","re(rEPhi) [V]","im(rEPhi) [V]","re(rETheta) [V]","im(rETheta) [V]"
0.9965,180,90,135,125.264,6.68210908627919e-19,7.07512482822688e-20,1.90057512988151e-18,-5.03277869039682e-19
"Freq [GHz]","IWavePhi [deg]","IWaveTheta [deg]","Phi [deg]","Theta [deg]","re(rEPhi) [V]","im(rEPhi) [V]","re(rETheta) [V]","im(rETheta) [V]"
0.9965,180,90,-135,125.264,1.28077645406997e-18,1.15798390346632e-20,1.59428629248513e-18,-7.81993073914425e-19
"Freq [GHz]","IWavePhi [deg]","IWaveTheta [deg]","Phi [deg]","Theta [deg]","re(rEPhi) [mV]","im(rEPhi) [mV]","re(rETheta) [uv]","im(rETheta) [uv]"
0.9965,180,90,0,90,16.7399873395666,73.598699088239,-21.037826237431,-24.5176943244155
"Freq [GHz]","IWavePhi [deg]","IWaveTheta [deg]","Phi [deg]","Theta [deg]","re(rEPhi) [mV]","im(rEPhi) [mV]","re(rETheta) [uv]","im(rETheta) [uv]"
0.9965,180,90,180,90,-16.7637759440037,-73.6010896821374,-5.70992132527847,-21.8109704537629
"Freq [GHz]","IWavePhi [deg]","IWaveTheta [deg]","Phi [deg]","Theta [deg]","re(rEPhi) [uv]","im(rEPhi) [uv]","re(rETheta) [mV]","im(rETheta) [uv]"
0.9965,180,90,90,90,-3.54889375646852,-9.77542401438896,15.315242309044,617.266906857165
"Freq [GHz]","IWavePhi [deg]","IWaveTheta [deg]","Phi [deg]","Theta [deg]","re(rEPhi) [uv]","im(rEPhi) [uv]","re(rETheta) [mV]","im(rETheta) [uv]"
0.9965,180,90,-90,90,-7.93602899648315,-3.3828118455343,-15.3248569472491,-628.424839064799
"Freq [GHz]","IWavePhi [deg]","IWaveTheta [deg]","Phi [deg]","Theta [deg]","re(rEPhi) [mV]","im(rEPhi) [mV]","re(rETheta) [uv]","im(rETheta) [uv]"
0.9965,180,90,0,0,25.2224106651529,65.4951656368366,4.35218975732864,-10.1668717171645
"Freq [GHz]","IWavePhi [deg]","IWaveTheta [deg]","Phi [deg]","Theta [deg]","re(rEPhi) [mV]","im(rEPhi) [mV]","re(rETheta) [uv]","im(rETheta) [nV]"
0.9965,180,90,0,180,4.81708812114992,60.1821410034395,12.268542103389,-470.685726914859
"Freq [GHz]","IWavePhi [deg]","IWaveTheta [deg]","Phi [deg]","Theta [deg]","re(rEPhi) [mV]","im(rEPhi) [mV]","re(rETheta) [mV]","im(rETheta) [mV]"
0.9965,180,90,45,54.736,14.4489961560086,45.907784257589,17.4642168506921,26.7017018625687
"Freq [GHz]","IWavePhi [deg]","IWaveTheta [deg]","Phi [deg]","Theta [deg]","re(rEPhi) [mV]","im(rEPhi) [mV]","re(rETheta) [mV]","im(rETheta) [mV]"
0.9965,180,90,135,54.736,-14.4583440048397,-45.9180331426119,17.4274410869036,26.7177552168466
"Freq [GHz]","IWavePhi [deg]","IWaveTheta [deg]","Phi [deg]","Theta [deg]","re(rEPhi) [mV]","im(rEPhi) [mV]","re(rETheta) [mV]","im(rETheta) [mV]"
0.9965,180,90,-45,54.736,14.4968076376476,45.9295274798773,-17.4571788891627,-26.7494370372542
"Freq [GHz]","IWavePhi [deg]","IWaveTheta [deg]","Phi [deg]","Theta [deg]","re(rEPhi) [mV]","im(rEPhi) [mV]","re(rETheta) [mV]","im(rETheta) [mV]"
0.9965,180,90,45,125.264,6.6996207697741,43.7904066713152,4.79904199086504,-24.6944350752139
"Freq [GHz]","IWavePhi [deg]","IWaveTheta [deg]","Phi [deg]","Theta [deg]","re(rEPhi) [mV]","im(rEPhi) [mV]","re(rETheta) [mV]","im(rETheta) [mV]"
0.9965,180,90,-135,54.736,-14.4895266458447,-45.9333443078033,-17.4782966009187,-26.7362431458094
"Freq [GHz]","IWavePhi [deg]","IWaveTheta [deg]","Phi [deg]","Theta [deg]","re(rEPhi) [mV]","im(rEPhi) [mV]","re(rETheta) [mV]","im(rETheta) [mV]"
0.9965,180,90,-45,125.264,6.72117539765981,43.782629341655,-4.81661828924567,24.6423908684841
"Freq [GHz]","IWavePhi [deg]","IWaveTheta [deg]","Phi [deg]","Theta [deg]","re(rEPhi) [mV]","im(rEPhi) [mV]","re(rETheta) [mV]","im(rETheta) [mV]"
0.9965,180,90,135,125.264,-6.70375154975365,-43.802392940423,4.79688574131493,-24.6917205428386
"Freq [GHz]","IWavePhi [deg]","IWaveTheta [deg]","Phi [deg]","Theta [deg]","re(rEPhi) [mV]","im(rEPhi) [mV]","re(rETheta) [mV]","im(rETheta) [mV]"
0.9965,180,90,-135,125.264,-6.72880739734722,-43.7703176825369,-4.83030719813081,24.6441634827191
"Freq [GHz]","IWavePhi [deg]","IWaveTheta [deg]","Phi [deg]","Theta [deg]","re(rEPhi) [mV]","im(rEPhi) [mV]","re(rETheta) [uv]","im(rETheta) [uv]"
0.9965,180,90,0,90,16.7210435916155,73.6025494159653,-8.56351220009979,-8.93615208284288
"Freq [GHz]","IWavePhi [deg]","IWaveTheta [deg]","Phi [deg]","Theta [deg]","re(rEPhi) [mV]","im(rEPhi) [mV]","re(rETheta) [uv]","im(rETheta) [uv]"
0.9965,180,90,180,90,-16.7421331258589,-73.6117181569902,18.5001587782339,-24.3051787935882
"Freq [GHz]","IWavePhi [deg]","IWaveTheta [deg]","Phi [deg]","Theta [deg]","re(rEPhi) [uv]","im(rEPhi) [uv]","re(rETheta) [mV]","im(rETheta) [uv]"
0.9965,180,90,90,90,-5.0278000022394,-14.5143269225944,-15.3123335949249,-635.712823467622
"Freq [GHz]","IWavePhi [deg]","IWaveTheta [deg]","Phi [deg]","Theta [deg]","re(rEPhi) [uv]","im(rEPhi) [uv]","re(rETheta) [mV]","im(rETheta) [uv]"
0.9965,180,90,-90,90,-9.52102983165237,-1.87469219531026,15.2990443321587,639.653956217494
"Freq [GHz]","IWavePhi [deg]","IWaveTheta [deg]","Phi [deg]","Theta [deg]","re(rEPhi) [mV]","im(rEPhi) [mV]","re(rETheta) [uv]","im(rETheta) [uv]"
0.9965,180,90,0,0,4.76042661042785,60.1267228434327,7.20340619416067,-14.6529757948294
"Freq [GHz]","IWavePhi [deg]","IWaveTheta [deg]","Phi [deg]","Theta [deg]","re(rEPhi) [mV]","im(rEPhi) [mV]","re(rETheta) [uv]","im(rETheta) [uv]"
0.9965,180,90,0,180,25.2359233298748,65.5747757047778,10.7026805017907,3.39024995890346
"Freq [GHz]","IWavePhi [deg]","IWaveTheta [deg]","Phi [deg]","Theta [deg]","re(rEPhi) [mV]","im(rEPhi) [mV]","re(rETheta) [mV]","im(rETheta) [mV]"
0.9965,180,90,45,54.736,6.6576596923279,43.77065141414,-4.81219309020036,24.6651755166876
"Freq [GHz]","IWavePhi [deg]","IWaveTheta [deg]","Phi [deg]","Theta [deg]","re(rEPhi) [mV]","im(rEPhi) [mV]","re(rETheta) [mV]","im(rETheta) [mV]"
0.9965,180,90,135,54.736,-6.66418770492908,-43.7857341484758,-4.83315329193596,24.6687278207178
"Freq [GHz]","IWavePhi [deg]","IWaveTheta [deg]","Phi [deg]","Theta [deg]","re(rEPhi) [mV]","im(rEPhi) [mV]","re(rETheta) [mV]","im(rETheta) [mV]"
0.9965,180,90,-45,54.736,6.67742010668776,43.7984589926896,4.84181934594385,-24.6758782374601
"Freq [GHz]","IWavePhi [deg]","IWaveTheta [deg]","Phi [deg]","Theta [deg]","re(rEPhi) [mV]","im(rEPhi) [mV]","re(rETheta) [mV]","im(rETheta) [mV]"
0.9965,180,90,45,125.264,14.4978430029304,45.9191886327623,-17.470107024781,-26.733660165456
"Freq [GHz]","IWavePhi [deg]","IWaveTheta [deg]","Phi [deg]","Theta [deg]","re(rEPhi) [mV]","im(rEPhi) [mV]","re(rETheta) [mV]","im(rETheta) [mV]"
0.9965,180,90,-135,54.736,-6.66540277369718,-43.7996392235211,4.83812718476293,-24.6726067820654
"Freq [GHz]","IWavePhi [deg]","IWaveTheta [deg]","Phi [deg]","Theta [deg]","re(rEPhi) [mV]","im(rEPhi) [mV]","re(rETheta) [mV]","im(rETheta) [mV]"
0.9965,180,90,-45,125.264,14.4886654255441,45.9147063720258,17.4633112585044,26.701853627208
