"Freq [GHz]","IWavePhi [deg]","IWaveTheta [deg]","Phi [deg]","Theta [deg]","re(rEPhi) [mV]","im(rEPhi) [mV]","re(rETheta) [uv]","im(rETheta) [uv]"
0.9253,180,90,0,90,10.3169645525888,93.5926957261114,-20.8225450016474,-17.7043306773187
"Freq [GHz]","IWavePhi [deg]","IWaveTheta [deg]","Phi [deg]","Theta [deg]","re(rEPhi) [mV]","im(rEPhi) [mV]","re(rETheta) [uv]","im(rETheta) [uv]"
0.9253,180,90,180,90,-10.3691504992172,-93.6607056549166,4.70836547533463,1.06294657005918
"Freq [GHz]","IWavePhi [deg]","IWaveTheta [deg]","Phi [deg]","Theta [deg]","re(rEPhi) [uv]","im(rEPhi) [uv]","re(rETheta) [uv]","im(rETheta) [uv]"
0.9253,180,90,90,90,8.50649653657284,-12.048769789995,15.4890302239964,-14.5675155963841
"Freq [GHz]","IWavePhi [deg]","IWaveTheta [deg]","Phi [deg]","Theta [deg]","re(rEPhi) [uv]","im(rEPhi) [uv]","re(rETheta) [uv]","im(rETheta) [uv]"
0.9253,180,90,-90,90,-1.03587274675704,-12.1684972301261,-25.1785193560198,11.0023440625927
"Freq [GHz]","IWavePhi [deg]","IWaveTheta [deg]","Phi [deg]","Theta [deg]","re(rEPhi) [mV]","im(rEPhi) [mV]","re(rETheta) [uv]","im(rETheta) [uv]"
0.9253,180,90,0,0,8.36081350595931,81.6407259477845,7.52177079365455,1.19756336133854
"Freq [GHz]","IWavePhi [deg]","IWaveTheta [deg]","Phi [deg]","Theta [deg]","re(rEPhi) [mV]","im(rEPhi) [mV]","re(rETheta) [uv]","im(rETheta) [uv]"
0.9253,180,90,0,180,8.36889549144975,81.6928553743982,4.20893061330343,9.02327567975979
"Freq [GHz]","IWavePhi [deg]","IWaveTheta [deg]","Phi [deg]","Theta [deg]","re(rEPhi) [mV]","im(rEPhi) [mV]","re(rETheta) [mV]","im(rETheta) [mV]"
0.9253,180,90,45,54.736,6.54028820487752,58.3960505374897,3.64368714797153,33.4690911146454
"Freq [GHz]","IWavePhi [deg]","IWaveTheta [deg]","Phi [deg]","Theta [deg]","re(rEPhi) [mV]","im(rEPhi) [mV]","re(rETheta) [mV]","im(rETheta) [mV]"
0.9253,180,90,135,54.736,-6.53295795551006,-58.4012115698851,3.61834483946655,33.4596673353971
"Freq [GHz]","IWavePhi [deg]","IWaveTheta [deg]","Phi [deg]","Theta [deg]","re(rEPhi) [mV]","im(rEPhi) [mV]","re(rETheta) [mV]","im(rETheta) [mV]"
0.9253,180,90,-45,54.736,6.56523232159836,58.3946108749714,-3.64309461903008,-33.4566764691813
"Freq [GHz]","IWavePhi [deg]","IWaveTheta [deg]","Phi [deg]","Theta [deg]","re(rEPhi) [mV]","im(rEPhi) [mV]","re(rETheta) [mV]","im(rETheta) [mV]"
0.9253,180,90,45,125.264,6.5846463490648,58.4170515975736,-3.64520715564607,-33.4956816369823
"Freq [GHz]","IWavePhi [deg]","IWaveTheta [deg]","Phi [deg]","Theta [deg]","re(rEPhi) [mV]","im(rEPhi) [mV]","re(rETheta) [mV]","im(rETheta) [mV]"
0.9253,180,90,-135,54.736,-6.56165819206615,-58.3699666624932,-3.65760954872946,-33.4517498455285
"Freq [GHz]","IWavePhi [deg]","IWaveTheta [deg]","Phi [deg]","Theta [deg]","re(rEPhi) [mV]","im(rEPhi) [mV]","re(rETheta) [mV]","im(rETheta) [mV]"
0.9253,180,90,-45,125.264,6.57376485688262,58.4092584830635,3.63622142458586,33.4579008704085
"Freq [GHz]","IWavePhi [deg]","IWaveTheta [deg]","Phi [deg]","Theta [deg]","re(rEPhi) [mV]","im(rEPhi) [mV]","re(rETheta) [mV]","im(rETheta) [mV]"
0.9253,180,90,135,125.264,-6.56639079559493,-58.4146643621605,-3.64533678706268,-33.4809352258543
"Freq [GHz]","IWavePhi [deg]","IWaveTheta [deg]","Phi [deg]","Theta [deg]","re(rEPhi) [mV]","im(rEPhi) [mV]","re(rETheta) [mV]","im(rETheta) [mV]"
0.9253,180,90,-135,125.264,-6.57650897744221,-58.3903700867136,3.62123746578877,33.455906461679
"Freq [GHz]","IWavePhi [deg]","IWaveTheta [deg]","Phi [deg]","Theta [deg]","re(rEPhi) [mV]","im(rEPhi) [mV]","re(rETheta) [uv]","im(rETheta) [uv]"
0.9253,180,90,0,90,-10.3169645525888,-93.5926957261114,20.8225449978904,17.7043306814584
"Freq [GHz]","IWavePhi [deg]","IWaveTheta [deg]","Phi [deg]","Theta [deg]","re(rEPhi) [mV]","im(rEPhi) [mV]","re(rETheta) [uv]","im(rETheta) [uv]"
0.9253,180,90,180,90,10.3691504992172,93.6607056549166,-4.70836547909288,-1.06294657419996
"Freq [GHz]","IWavePhi [deg]","IWaveTheta [deg]","Phi [deg]","Theta [deg]","re(rEPhi) [uv]","im(rEPhi) [uv]","re(rETheta) [uv]","im(rETheta) [uv]"
0.9253,180,90,90,90,-8.50649653657284,12.048769789995,-15.4890302224432,14.5675155910128
"Freq [GHz]","IWavePhi [deg]","IWaveTheta [deg]","Phi [deg]","Theta [deg]","re(rEPhi) [uv]","im(rEPhi) [uv]","re(rETheta) [uv]","im(rETheta) [uv]"
0.9253,180,90,-90,90,1.03587274675704,12.1684972301261,25.1785193575715,-11.0023440572218
"Freq [GHz]","IWavePhi [deg]","IWaveTheta [deg]","Phi [deg]","Theta [deg]","re(rEPhi) [mV]","im(rEPhi) [mV]","re(rETheta) [uv]","im(rETheta) [uv]"
0.9253,180,90,0,0,-8.36081350595931,-81.6407259477845,-7.52177079365455,-1.19756336133854
"Freq [GHz]","IWavePhi [deg]","IWaveTheta [deg]","Phi [deg]","Theta [deg]","re(rEPhi) [mV]","im(rEPhi) [mV]","re(rETheta) [uv]","im(rETheta) [uv]"
0.9253,180,90,0,180,-8.36889549144975,-81.6928553743982,-4.20893061330343,-9.02327567975979
"Freq [GHz]","IWavePhi [deg]","IWaveTheta [deg]","Phi [deg]","Theta [deg]","re(rEPhi) [mV]","im(rEPhi) [mV]","re(rETheta) [mV]","im(rETheta) [mV]"
0.9253,180,90,45,54.736,-6.54028820487752,-58.3960505374897,-3.64368714796812,-33.4690911146485
"Freq [GHz]","IWavePhi [deg]","IWaveTheta [deg]","Phi [deg]","Theta [deg]","re(rEPhi) [mV]","im(rEPhi) [mV]","re(rETheta) [mV]","im(rETheta) [mV]"
0.9253,180,90,135,54.736,6.53295795551006,58.4012115698851,-3.61834483946316,-33.4596673354001
"Freq [GHz]","IWavePhi [deg]","IWaveTheta [deg]","Phi [deg]","Theta [deg]","re(rEPhi) [mV]","im(rEPhi) [mV]","re(rETheta) [mV]","im(rETheta) [mV]"
0.9253,180,90,-45,54.736,-6.56523232159837,-58.3946108749714,3.64309461902568,33.45667646918
"Freq [GHz]","IWavePhi [deg]","IWaveTheta [deg]","Phi [deg]","Theta [deg]","re(rEPhi) [mV]","im(rEPhi) [mV]","re(rETheta) [mV]","im(rETheta) [mV]"
0.9253,180,90,45,125.264,-6.5846463490648,-58.4170515975736,3.64520715564167,33.4956816369835
"Freq [GHz]","IWavePhi [deg]","IWaveTheta [deg]","Phi [deg]","Theta [deg]","re(rEPhi) [mV]","im(rEPhi) [mV]","re(rETheta) [mV]","im(rETheta) [mV]"
0.9253,180,90,-135,54.736,6.56165819206615,58.3699666624932,3.65760954872506,33.4517498455273
"Freq [GHz]","IWavePhi [deg]","IWaveTheta [deg]","Phi [deg]","Theta [deg]","re(rEPhi) [mV]","im(rEPhi) [mV]","re(rETheta) [mV]","im(rETheta) [mV]"
0.9253,180,90,-45,125.264,-6.57376485688262,-58.4092584830635,-3.63622142458247,-33.4579008704055
"Freq [GHz]","IWavePhi [deg]","IWaveTheta [deg]","Phi [deg]","Theta [deg]","re(rEPhi) [mV]","im(rEPhi) [mV]","re(rETheta) [mV]","im(rETheta) [mV]"
0.9253,180,90,135,125.264,6.56639079559493,58.4146643621605,3.64533678705829,33.4809352258555
"Freq [GHz]","IWavePhi [deg]","IWaveTheta [deg]","Phi [deg]","Theta [deg]","re(rEPhi) [mV]","im(rEPhi) [mV]","re(rETheta) [mV]","im(rETheta) [mV]"
0.9253,180,90,-135,125.264,6.57650897744221,58.3903700867136,-3.62123746578536,-33.4559064616759
"Freq [GHz]","IWavePhi [deg]","IWaveTheta [deg]","Phi [deg]","Theta [deg]","re(rEPhi) [V]","im(rEPhi) [V]","re(rETheta) [V]","im(rETheta) [V]"
0.9253,180,90,0,90,1.00687112796167e-18,8.93050635249645e-18,-3.03645577706791e-18,7.85534867829881e-19
"Freq [GHz]","IWavePhi [deg]","IWaveTheta [deg]","Phi [deg]","Theta [deg]","re(rEPhi) [V]","im(rEPhi) [V]","re(rETheta) [V]","im(rETheta) [V]"
0.9253,180,90,180,90,-1.01232768334281e-18,-8.93676460258637e-18,-3.03484712797458e-18,7.85835735945261e-19
"Freq [GHz]","IWavePhi [deg]","IWaveTheta [deg]","Phi [deg]","Theta [deg]","re(rEPhi) [V]","im(rEPhi) [V]","re(rETheta) [V]","im(rETheta) [V]"
0.9253,180,90,90,90,1.11604966400709e-21,-1.15930913253394e-21,-1.49943907907278e-18,5.57024444454481e-19
"Freq [GHz]","IWavePhi [deg]","IWaveTheta [deg]","Phi [deg]","Theta [deg]","re(rEPhi) [V]","im(rEPhi) [V]","re(rETheta) [V]","im(rETheta) [V]"
0.9253,180,90,-90,90,-6.59926404366963e-23,-8.38039670669248e-22,-9.12005042564574e-19,2.86584356076088e-19
"Freq [GHz]","IWavePhi [deg]","IWaveTheta [deg]","Phi [deg]","Theta [deg]","re(rEPhi) [V]","im(rEPhi) [V]","re(rETheta) [V]","im(rETheta) [V]"
0.9253,180,90,0,0,2.95206457272883e-18,7.89932880461461e-18,2.82037054960962e-22,6.38178255763159e-22
"Freq [GHz]","IWavePhi [deg]","IWaveTheta [deg]","Phi [deg]","Theta [deg]","re(rEPhi) [V]","im(rEPhi) [V]","re(rETheta) [V]","im(rETheta) [V]"
0.9253,180,90,0,180,-1.31190888411856e-18,7.68573823961938e-18,-1.96076291116421e-22,8.17241030454762e-22
"Freq [GHz]","IWavePhi [deg]","IWaveTheta [deg]","Phi [deg]","Theta [deg]","re(rEPhi) [V]","im(rEPhi) [V]","re(rETheta) [V]","im(rETheta) [V]"
0.9253,180,90,45,54.736,9.98291315783324e-19,5.62177913545474e-18,-1.50099061323051e-18,3.8279760856879e-18
"Freq [GHz]","IWavePhi [deg]","IWaveTheta [deg]","Phi [deg]","Theta [deg]","re(rEPhi) [V]","im(rEPhi) [V]","re(rETheta) [V]","im(rETheta) [V]"
0.9253,180,90,135,54.736,-9.97483543344455e-19,-5.62252779061178e-18,-1.50303892632761e-18,3.82698929226017e-18
"Freq [GHz]","IWavePhi [deg]","IWaveTheta [deg]","Phi [deg]","Theta [deg]","re(rEPhi) [V]","im(rEPhi) [V]","re(rETheta) [V]","im(rETheta) [V]"
0.9253,180,90,-45,54.736,1.90797065410113e-18,5.61148670997706e-18,-2.81429313823457e-18,-2.76035306889887e-18
"Freq [GHz]","IWavePhi [deg]","IWaveTheta [deg]","Phi [deg]","Theta [deg]","re(rEPhi) [V]","im(rEPhi) [V]","re(rETheta) [V]","im(rETheta) [V]"
0.9253,180,90,45,125.264,-1.15854921226974e-18,5.57817502571725e-18,-1.35815899722305e-18,-2.59424106603147e-18
"Freq [GHz]","IWavePhi [deg]","IWaveTheta [deg]","Phi [deg]","Theta [deg]","re(rEPhi) [V]","im(rEPhi) [V]","re(rETheta) [V]","im(rETheta) [V]"
0.9253,180,90,-135,54.736,-1.90771645260232e-18,-5.60954451568448e-18,-2.81534944210501e-18,-2.75995316909266e-18
"Freq [GHz]","IWavePhi [deg]","IWaveTheta [deg]","Phi [deg]","Theta [deg]","re(rEPhi) [V]","im(rEPhi) [V]","re(rETheta) [V]","im(rETheta) [V]"
0.9253,180,90,-45,125.264,7.00311913393883e-19,5.47965217871541e-18,-1.32083007999966e-18,3.59105370526119e-18
"Freq [GHz]","IWavePhi [deg]","IWaveTheta [deg]","Phi [deg]","Theta [deg]","re(rEPhi) [V]","im(rEPhi) [V]","re(rETheta) [V]","im(rETheta) [V]"
0.9253,180,90,135,125.264,1.160388009825e-18,-5.57811327598486e-18,-1.35806315131045e-18,-2.59366776813198e-18
"Freq [GHz]","IWavePhi [deg]","IWaveTheta [deg]","Phi [deg]","Theta [deg]","re(rEPhi) [V]","im(rEPhi) [V]","re(rETheta) [V]","im(rETheta) [V]"
0.9253,180,90,-135,125.264,-7.00501033010807e-19,-5.47830474674101e-18,-1.32221062624753e-18,3.59014104551089e-18
"Freq [GHz]","IWavePhi [deg]","IWaveTheta [deg]","Phi [deg]","Theta [deg]","re(rEPhi) [V]","im(rEPhi) [V]","re(rETheta) [V]","im(rETheta) [V]"
0.9253,180,90,0,90,-1.96300579485353e-21,2.20461874756927e-21,3.0350819588741e-18,-7.84370291090601e-19
"Freq [GHz]","IWavePhi [deg]","IWaveTheta [deg]","Phi [deg]","Theta [deg]","re(rEPhi) [V]","im(rEPhi) [V]","re(rETheta) [V]","im(rETheta) [V]"
0.9253,180,90,180,90,9.96433160772851e-22,-1.61589612975363e-21,3.03571951009499e-18,-7.82917531377944e-19
"Freq [GHz]","IWavePhi [deg]","IWaveTheta [deg]","Phi [deg]","Theta [deg]","re(rEPhi) [V]","im(rEPhi) [V]","re(rETheta) [V]","im(rETheta) [V]"
0.9253,180,90,90,90,-6.33102532212178e-22,1.77673602228322e-22,9.09020586438696e-19,-2.81122391583531e-19
"Freq [GHz]","IWavePhi [deg]","IWaveTheta [deg]","Phi [deg]","Theta [deg]","re(rEPhi) [V]","im(rEPhi) [V]","re(rETheta) [V]","im(rETheta) [V]"
0.9253,180,90,-90,90,1.56235880123986e-22,-2.4961875012176e-22,1.50190855722212e-18,-5.5850334134495e-19
"Freq [GHz]","IWavePhi [deg]","IWaveTheta [deg]","Phi [deg]","Theta [deg]","re(rEPhi) [V]","im(rEPhi) [V]","re(rETheta) [V]","im(rETheta) [V]"
0.9253,180,90,0,0,2.13084835114767e-18,1.09501366217869e-19,3.33360893590973e-22,-3.0001260247518e-22
"Freq [GHz]","IWavePhi [deg]","IWaveTheta [deg]","Phi [deg]","Theta [deg]","re(rEPhi) [V]","im(rEPhi) [V]","re(rETheta) [V]","im(rETheta) [V]"
0.9253,180,90,0,180,-2.13329455431394e-18,-1.06482804858167e-19,5.81913435484352e-22,-2.54750381100726e-22
"Freq [GHz]","IWavePhi [deg]","IWaveTheta [deg]","Phi [deg]","Theta [deg]","re(rEPhi) [V]","im(rEPhi) [V]","re(rETheta) [V]","im(rETheta) [V]"
0.9253,180,90,45,54.736,6.02907758956269e-19,6.73012437390436e-20,2.06709526414162e-18,-4.09529996065966e-19
"Freq [GHz]","IWavePhi [deg]","IWaveTheta [deg]","Phi [deg]","Theta [deg]","re(rEPhi) [V]","im(rEPhi) [V]","re(rETheta) [V]","im(rETheta) [V]"
0.9253,180,90,135,54.736,-6.03261087982574e-19,-6.76384921044786e-20,2.06718115212683e-18,-4.09788686393525e-19
"Freq [GHz]","IWavePhi [deg]","IWaveTheta [deg]","Phi [deg]","Theta [deg]","re(rEPhi) [V]","im(rEPhi) [V]","re(rETheta) [V]","im(rETheta) [V]"
0.9253,180,90,-45,54.736,1.07993227740543e-18,2.41424856148751e-20,1.42994509414652e-18,-6.18395313892495e-19
"Freq [GHz]","IWavePhi [deg]","IWaveTheta [deg]","Phi [deg]","Theta [deg]","re(rEPhi) [V]","im(rEPhi) [V]","re(rETheta) [V]","im(rETheta) [V]"
0.9253,180,90,45,125.264,-6.04845250465299e-19,-6.52231085025132e-20,2.06789279430944e-18,-4.1262053358466e-19
"Freq [GHz]","IWavePhi [deg]","IWaveTheta [deg]","Phi [deg]","Theta [deg]","re(rEPhi) [V]","im(rEPhi) [V]","re(rETheta) [V]","im(rETheta) [V]"
0.9253,180,90,-135,54.736,-1.07993462300711e-18,-2.39532554017935e-20,1.43019114977292e-18,-6.1862703324736e-19
"Freq [GHz]","IWavePhi [deg]","IWaveTheta [deg]","Phi [deg]","Theta [deg]","re(rEPhi) [V]","im(rEPhi) [V]","re(rETheta) [V]","im(rETheta) [V]"
0.9253,180,90,-45,125.264,-1.08037094635996e-18,-2.07919246323962e-20,1.42978919057181e-18,-6.1757291581448e-19
"Freq [GHz]","IWavePhi [deg]","IWaveTheta [deg]","Phi [deg]","Theta [deg]","re(rEPhi) [V]","im(rEPhi) [V]","re(rETheta) [V]","im(rETheta) [V]"
0.9253,180,90,135,125.264,6.04566665477539e-19,6.4920255180413e-20,2.06810442080151e-18,-4.11776163905301e-19
"Freq [GHz]","IWavePhi [deg]","IWaveTheta [deg]","Phi [deg]","Theta [deg]","re(rEPhi) [V]","im(rEPhi) [V]","re(rETheta) [V]","im(rETheta) [V]"
0.9253,180,90,-135,125.264,1.08029730671167e-18,2.09734683699356e-20,1.42989823900858e-18,-6.16680691998499e-19
"Freq [GHz]","IWavePhi [deg]","IWaveTheta [deg]","Phi [deg]","Theta [deg]","re(rEPhi) [mV]","im(rEPhi) [mV]","re(rETheta) [uv]","im(rETheta) [uv]"
0.9253,180,90,0,90,8.44557060144368,81.5933149945103,-20.8563847337845,-20.5357777669734
"Freq [GHz]","IWavePhi [deg]","IWaveTheta [deg]","Phi [deg]","Theta [deg]","re(rEPhi) [mV]","im(rEPhi) [mV]","re(rETheta) [uv]","im(rETheta) [uv]"
0.9253,180,90,180,90,-8.49459835656733,-81.6508118824168,-3.87434612648566,1.25741555457489
"Freq [GHz]","IWavePhi [deg]","IWaveTheta [deg]","Phi [deg]","Theta [deg]","re(rEPhi) [uv]","im(rEPhi) [uv]","re(rETheta) [mV]","im(rETheta) [uv]"
0.9253,180,90,90,90,7.32354878235691,-9.75586470423625,13.2895505691896,658.032258598498
"Freq [GHz]","IWavePhi [deg]","IWaveTheta [deg]","Phi [deg]","Theta [deg]","re(rEPhi) [nV]","im(rEPhi) [uv]","re(rETheta) [mV]","im(rETheta) [uv]"
0.9253,180,90,-90,90,-132.646274205579,-9.55988140113819,-13.2927110724751,-659.535745211718
"Freq [GHz]","IWavePhi [deg]","IWaveTheta [deg]","Phi [deg]","Theta [deg]","re(rEPhi) [mV]","im(rEPhi) [mV]","re(rETheta) [uv]","im(rETheta) [uv]"
0.9253,180,90,0,0,17.4674605896944,73.0813833870234,5.02756692122384,1.95230894568433
"Freq [GHz]","IWavePhi [deg]","IWaveTheta [deg]","Phi [deg]","Theta [deg]","re(rEPhi) [mV]","im(rEPhi) [mV]","re(rETheta) [uv]","im(rETheta) [uv]"
0.9253,180,90,0,180,-1.71864196185301,69.3244507728139,4.69062824104998,6.76311313465462
"Freq [GHz]","IWavePhi [deg]","IWaveTheta [deg]","Phi [deg]","Theta [deg]","re(rEPhi) [mV]","im(rEPhi) [mV]","re(rETheta) [mV]","im(rETheta) [mV]"
0.9253,180,90,45,54.736,9.27891966929835,51.6665447237696,12.9760996552814,30.0172054281507
"Freq [GHz]","IWavePhi [deg]","IWaveTheta [deg]","Phi [deg]","Theta [deg]","re(rEPhi) [mV]","im(rEPhi) [mV]","re(rETheta) [mV]","im(rETheta) [mV]"
0.9253,180,90,135,54.736,-9.27380840842735,-51.6702329336052,12.9480552195381,30.0076184845506
"Freq [GHz]","IWavePhi [deg]","IWaveTheta [deg]","Phi [deg]","Theta [deg]","re(rEPhi) [mV]","im(rEPhi) [mV]","re(rETheta) [mV]","im(rETheta) [mV]"
0.9253,180,90,-45,54.736,9.31075833113486,51.6661044612564,-12.9785729959579,-30.0159157613415
"Freq [GHz]","IWavePhi [deg]","IWaveTheta [deg]","Phi [deg]","Theta [deg]","re(rEPhi) [mV]","im(rEPhi) [mV]","re(rETheta) [mV]","im(rETheta) [mV]"
0.9253,180,90,45,125.264,1.94601550587057,50.1746246154228,6.15938595753964,-28.36554585087
"Freq [GHz]","IWavePhi [deg]","IWaveTheta [deg]","Phi [deg]","Theta [deg]","re(rEPhi) [mV]","im(rEPhi) [mV]","re(rETheta) [mV]","im(rETheta) [mV]"
0.9253,180,90,-135,54.736,-9.30625502639411,-51.6438575011915,-12.9961758191521,-30.0118959640122
"Freq [GHz]","IWavePhi [deg]","IWaveTheta [deg]","Phi [deg]","Theta [deg]","re(rEPhi) [mV]","im(rEPhi) [mV]","re(rETheta) [mV]","im(rETheta) [mV]"
0.9253,180,90,-45,125.264,1.94519391730586,50.1693093526311,-6.17109767709986,28.3242921644754
"Freq [GHz]","IWavePhi [deg]","IWaveTheta [deg]","Phi [deg]","Theta [deg]","re(rEPhi) [mV]","im(rEPhi) [mV]","re(rETheta) [mV]","im(rETheta) [mV]"
0.9253,180,90,135,125.264,-1.93015696757416,-50.172284728099,6.16032959778213,-28.3535133159547
"Freq [GHz]","IWavePhi [deg]","IWaveTheta [deg]","Phi [deg]","Theta [deg]","re(rEPhi) [mV]","im(rEPhi) [mV]","re(rETheta) [mV]","im(rETheta) [mV]"
0.9253,180,90,-135,125.264,-1.94746732818516,-50.1516088613886,-6.18430668111352,28.3211859780216
"Freq [GHz]","IWavePhi [deg]","IWaveTheta [deg]","Phi [deg]","Theta [deg]","re(rEPhi) [mV]","im(rEPhi) [mV]","re(rETheta) [uv]","im(rETheta) [uv]"
0.9253,180,90,0,90,8.42814269045584,81.5839684746173,-15.3901957591787,-10.4370871308206
"Freq [GHz]","IWavePhi [deg]","IWaveTheta [deg]","Phi [deg]","Theta [deg]","re(rEPhi) [mV]","im(rEPhi) [mV]","re(rETheta) [uv]","im(rETheta) [nV]"
0.9253,180,90,180,90,-8.47027867126933,-81.6448195454937,12.1195924842565,325.531350969312
"Freq [GHz]","IWavePhi [deg]","IWaveTheta [deg]","Phi [deg]","Theta [deg]","re(rEPhi) [uv]","im(rEPhi) [uv]","re(rETheta) [mV]","im(rETheta) [uv]"
0.9253,180,90,90,90,7.52038918740268,-11.1717360477807,-13.2615562952332,-684.135537725018
"Freq [GHz]","IWavePhi [deg]","IWaveTheta [deg]","Phi [deg]","Theta [deg]","re(rEPhi) [uv]","im(rEPhi) [uv]","re(rETheta) [mV]","im(rETheta) [uv]"
0.9253,180,90,-90,90,-1.83848274955979,-11.4776427680432,13.2498046546945,679.227071371902
"Freq [GHz]","IWavePhi [deg]","IWaveTheta [deg]","Phi [deg]","Theta [deg]","re(rEPhi) [mV]","im(rEPhi) [mV]","re(rETheta) [uv]","im(rETheta) [nV]"
0.9253,180,90,0,0,-1.74416081943715,69.2700137216919,8.13242799709458,191.682318508491
"Freq [GHz]","IWavePhi [deg]","IWaveTheta [deg]","Phi [deg]","Theta [deg]","re(rEPhi) [mV]","im(rEPhi) [mV]","re(rETheta) [uv]","im(rETheta) [uv]"
0.9253,180,90,0,180,17.4554698407488,73.1207364961919,2.60684748232144,9.12017646262892
"Freq [GHz]","IWavePhi [deg]","IWaveTheta [deg]","Phi [deg]","Theta [deg]","re(rEPhi) [mV]","im(rEPhi) [mV]","re(rETheta) [mV]","im(rETheta) [mV]"
0.9253,180,90,45,54.736,1.90231475016014,50.1490590531867,-6.16959028398783,28.3372823273745
"Freq [GHz]","IWavePhi [deg]","IWaveTheta [deg]","Phi [deg]","Theta [deg]","re(rEPhi) [mV]","im(rEPhi) [mV]","re(rETheta) [mV]","im(rETheta) [mV]"
0.9253,180,90,135,54.736,-1.89434662511727,-50.1545441219498,-6.18566892629276,28.3305924760016
"Freq [GHz]","IWavePhi [deg]","IWaveTheta [deg]","Phi [deg]","Theta [deg]","re(rEPhi) [mV]","im(rEPhi) [mV]","re(rETheta) [mV]","im(rETheta) [mV]"
0.9253,180,90,-45,54.736,1.91350977173293,50.1459261785387,6.17381930345293,-28.3159264218153
"Freq [GHz]","IWavePhi [deg]","IWaveTheta [deg]","Phi [deg]","Theta [deg]","re(rEPhi) [mV]","im(rEPhi) [mV]","re(rETheta) [mV]","im(rETheta) [mV]"
0.9253,180,90,45,125.264,9.31199284373547,51.6789959234442,-12.9676887469044,-30.0371012028303
"Freq [GHz]","IWavePhi [deg]","IWaveTheta [deg]","Phi [deg]","Theta [deg]","re(rEPhi) [mV]","im(rEPhi) [mV]","re(rETheta) [mV]","im(rETheta) [mV]"
0.9253,180,90,-135,54.736,-1.91165980174588,-50.1250123340369,6.16638963073764,-28.3113661148291
"Freq [GHz]","IWavePhi [deg]","IWaveTheta [deg]","Phi [deg]","Theta [deg]","re(rEPhi) [mV]","im(rEPhi) [mV]","re(rETheta) [mV]","im(rETheta) [mV]"
0.9253,180,90,-45,125.264,9.29392718859757,51.6691399003457,12.964119871615,30.0112188296612
