"Freq [GHz]","IWavePhi [deg]","IWaveTheta [deg]","Phi [deg]","Theta [deg]","re(rEPhi) [mV]","im(rEPhi) [mV]","re(rETheta) [uv]","im(rETheta) [uv]"
1.4235,180,90,0,90,27.687154906587,67.366756010175,-29.1118275120993,10.7201774849459
"Freq [GHz]","IWavePhi [deg]","IWaveTheta [deg]","Phi [deg]","Theta [deg]","re(rEPhi) [mV]","im(rEPhi) [mV]","re(rETheta) [uv]","im(rETheta) [uv]"
1.4235,180,90,180,90,-27.5808509681361,-67.3385528118774,-33.8196958109511,1.83010846056676
"Freq [GHz]","IWavePhi [deg]","IWaveTheta [deg]","Phi [deg]","Theta [deg]","re(rEPhi) [uv]","im(rEPhi) [uv]","re(rETheta) [uv]","im(rETheta) [uv]"
1.4235,180,90,90,90,-25.1278660300864,-29.2520291893502,64.9520280446927,-64.7130453148345
"Freq [GHz]","IWavePhi [deg]","IWaveTheta [deg]","Phi [deg]","Theta [deg]","re(rEPhi) [uv]","im(rEPhi) [uv]","re(rETheta) [uv]","im(rETheta) [uv]"
1.4235,180,90,-90,90,-7.3707537548881,-25.9924494287182,-43.5845307900629,51.345596223524
"Freq [GHz]","IWavePhi [deg]","IWaveTheta [deg]","Phi [deg]","Theta [deg]","re(rEPhi) [mV]","im(rEPhi) [mV]","re(rETheta) [nV]","im(rETheta) [uv]"
1.4235,180,90,0,0,17.236082886854,48.6408319290637,264.760769596471,11.4335846570818
"Freq [GHz]","IWavePhi [deg]","IWaveTheta [deg]","Phi [deg]","Theta [deg]","re(rEPhi) [mV]","im(rEPhi) [mV]","re(rETheta) [uv]","im(rETheta) [uv]"
1.4235,180,90,0,180,17.1237709360411,48.6207941249491,-38.6577690855602,25.6714633274672
"Freq [GHz]","IWavePhi [deg]","IWaveTheta [deg]","Phi [deg]","Theta [deg]","re(rEPhi) [mV]","im(rEPhi) [mV]","re(rETheta) [mV]","im(rETheta) [mV]"
1.4235,180,90,45,54.736,15.0027602570326,35.6767661580428,8.27263680128076,20.4899149961543
"Freq [GHz]","IWavePhi [deg]","IWaveTheta [deg]","Phi [deg]","Theta [deg]","re(rEPhi) [mV]","im(rEPhi) [mV]","re(rETheta) [mV]","im(rETheta) [mV]"
1.4235,180,90,135,54.736,-15.0664480190474,-35.7953975814857,8.27936410849309,20.5480403907587
"Freq [GHz]","IWavePhi [deg]","IWaveTheta [deg]","Phi [deg]","Theta [deg]","re(rEPhi) [mV]","im(rEPhi) [mV]","re(rETheta) [mV]","im(rETheta) [mV]"
1.4235,180,90,-45,54.736,15.136110837926,35.753843706961,-8.31462413271946,-20.5497945000032
"Freq [GHz]","IWavePhi [deg]","IWaveTheta [deg]","Phi [deg]","Theta [deg]","re(rEPhi) [mV]","im(rEPhi) [mV]","re(rETheta) [mV]","im(rETheta) [mV]"
1.4235,180,90,45,125.264,15.1384822566935,35.7507937257224,-8.30594491835649,-20.59410070494
"Freq [GHz]","IWavePhi [deg]","IWaveTheta [deg]","Phi [deg]","Theta [deg]","re(rEPhi) [mV]","im(rEPhi) [mV]","re(rETheta) [mV]","im(rETheta) [mV]"
1.4235,180,90,-135,54.736,-15.1477021468491,-35.7243836506883,-8.35996976886476,-20.5384375076722
"Freq [GHz]","IWavePhi [deg]","IWaveTheta [deg]","Phi [deg]","Theta [deg]","re(rEPhi) [mV]","im(rEPhi) [mV]","re(rETheta) [mV]","im(rETheta) [mV]"
1.4235,180,90,-45,125.264,15.0388447199885,35.6515841313337,8.22950943185813,20.551452940742
"Freq [GHz]","IWavePhi [deg]","IWaveTheta [deg]","Phi [deg]","Theta [deg]","re(rEPhi) [mV]","im(rEPhi) [mV]","re(rETheta) [mV]","im(rETheta) [mV]"
1.4235,180,90,135,125.264,-15.0298838905383,-35.7182230293308,-8.24110874227124,-20.5639826979811
"Freq [GHz]","IWavePhi [deg]","IWaveTheta [deg]","Phi [deg]","Theta [deg]","re(rEPhi) [mV]","im(rEPhi) [mV]","re(rETheta) [mV]","im(rETheta) [mV]"
1.4235,180,90,-135,125.264,-14.9520323744377,-35.8444721991109,8.16156217291865,20.6414208902123
"Freq [GHz]","IWavePhi [deg]","IWaveTheta [deg]","Phi [deg]","Theta [deg]","re(rEPhi) [mV]","im(rEPhi) [mV]","re(rETheta) [uv]","im(rETheta) [uv]"
1.4235,180,90,0,90,-27.687154906587,-67.366756010175,29.1118275120222,-10.7201774848141
"Freq [GHz]","IWavePhi [deg]","IWaveTheta [deg]","Phi [deg]","Theta [deg]","re(rEPhi) [mV]","im(rEPhi) [mV]","re(rETheta) [uv]","im(rETheta) [uv]"
1.4235,180,90,180,90,27.5808509681361,67.3385528118774,33.819695810874,-1.83010846069843
"Freq [GHz]","IWavePhi [deg]","IWaveTheta [deg]","Phi [deg]","Theta [deg]","re(rEPhi) [uv]","im(rEPhi) [uv]","re(rETheta) [uv]","im(rETheta) [uv]"
1.4235,180,90,90,90,25.1278660300499,29.2520291893595,-64.9520280446752,64.7130453149861
"Freq [GHz]","IWavePhi [deg]","IWaveTheta [deg]","Phi [deg]","Theta [deg]","re(rEPhi) [uv]","im(rEPhi) [uv]","re(rETheta) [uv]","im(rETheta) [uv]"
1.4235,180,90,-90,90,7.37075375492054,25.9924494287296,43.5845307900804,-51.3455962236756
"Freq [GHz]","IWavePhi [deg]","IWaveTheta [deg]","Phi [deg]","Theta [deg]","re(rEPhi) [mV]","im(rEPhi) [mV]","re(rETheta) [nV]","im(rETheta) [uv]"
1.4235,180,90,0,0,-17.236082886854,-48.6408319290637,-264.760769615905,-11.4335846570314
"Freq [GHz]","IWavePhi [deg]","IWaveTheta [deg]","Phi [deg]","Theta [deg]","re(rEPhi) [mV]","im(rEPhi) [mV]","re(rETheta) [uv]","im(rETheta) [uv]"
1.4235,180,90,0,180,-17.1237709360411,-48.6207941249491,38.6577690855749,-25.6714633274201
"Freq [GHz]","IWavePhi [deg]","IWaveTheta [deg]","Phi [deg]","Theta [deg]","re(rEPhi) [mV]","im(rEPhi) [mV]","re(rETheta) [mV]","im(rETheta) [mV]"
1.4235,180,90,45,54.736,-15.0027602570326,-35.6767661580428,-8.27263680128068,-20.4899149961542
"Freq [GHz]","IWavePhi [deg]","IWaveTheta [deg]","Phi [deg]","Theta [deg]","re(rEPhi) [mV]","im(rEPhi) [mV]","re(rETheta) [mV]","im(rETheta) [mV]"
1.4235,180,90,135,54.736,15.0664480190474,35.7953975814857,-8.27936410849319,-20.5480403907587
"Freq [GHz]","IWavePhi [deg]","IWaveTheta [deg]","Phi [deg]","Theta [deg]","re(rEPhi) [mV]","im(rEPhi) [mV]","re(rETheta) [mV]","im(rETheta) [mV]"
1.4235,180,90,-45,54.736,-15.136110837926,-35.753843706961,8.3146241327196,20.5497945000032
"Freq [GHz]","IWavePhi [deg]","IWaveTheta [deg]","Phi [deg]","Theta [deg]","re(rEPhi) [mV]","im(rEPhi) [mV]","re(rETheta) [mV]","im(rETheta) [mV]"
1.4235,180,90,45,125.264,-15.1384822566935,-35.7507937257224,8.30594491835636,20.5941007049399
"Freq [GHz]","IWavePhi [deg]","IWaveTheta [deg]","Phi [deg]","Theta [deg]","re(rEPhi) [mV]","im(rEPhi) [mV]","re(rETheta) [mV]","im(rETheta) [mV]"
1.4235,180,90,-135,54.736,15.1477021468491,35.7243836506883,8.35996976886463,20.5384375076722
"Freq [GHz]","IWavePhi [deg]","IWaveTheta [deg]","Phi [deg]","Theta [deg]","re(rEPhi) [mV]","im(rEPhi) [mV]","re(rETheta) [mV]","im(rETheta) [mV]"
1.4235,180,90,-45,125.264,-15.0388447199885,-35.6515841313337,-8.22950943185823,-20.5514529407419
"Freq [GHz]","IWavePhi [deg]","IWaveTheta [deg]","Phi [deg]","Theta [deg]","re(rEPhi) [mV]","im(rEPhi) [mV]","re(rETheta) [mV]","im(rETheta) [mV]"
1.4235,180,90,135,125.264,15.0298838905383,35.7182230293308,8.24110874227138,20.5639826979811
"Freq [GHz]","IWavePhi [deg]","IWaveTheta [deg]","Phi [deg]","Theta [deg]","re(rEPhi) [mV]","im(rEPhi) [mV]","re(rETheta) [mV]","im(rETheta) [mV]"
1.4235,180,90,-135,125.264,14.9520323744377,35.8444721991109,-8.16156217291857,-20.6414208902123
"Freq [GHz]","IWavePhi [deg]","IWaveTheta [deg]","Phi [deg]","Theta [deg]","re(rEPhi) [V]","im(rEPhi) [V]","re(rETheta) [V]","im(rETheta) [V]"
1.4235,180,90,0,90,2.23414439935329e-18,4.67984235785983e-18,-2.48983684296549e-18,1.49470847027163e-18
"Freq [GHz]","IWavePhi [deg]","IWaveTheta [deg]","Phi [deg]","Theta [deg]","re(rEPhi) [V]","im(rEPhi) [V]","re(rETheta) [V]","im(rETheta) [V]"
1.4235,180,90,180,90,-2.22245970700313e-18,-4.68452308992407e-18,-2.48249137596374e-18,1.49874745945686e-18
"Freq [GHz]","IWavePhi [deg]","IWaveTheta [deg]","Phi [deg]","Theta [deg]","re(rEPhi) [V]","im(rEPhi) [V]","re(rETheta) [V]","im(rETheta) [V]"
1.4235,180,90,90,90,-2.54502433480904e-21,-2.2249552206672e-21,-3.97471507997743e-18,3.18712765422615e-18
"Freq [GHz]","IWavePhi [deg]","IWaveTheta [deg]","Phi [deg]","Theta [deg]","re(rEPhi) [V]","im(rEPhi) [V]","re(rETheta) [V]","im(rETheta) [V]"
1.4235,180,90,-90,90,-1.73335318864517e-21,-4.52372104981455e-21,5.03113104645211e-18,-2.35595212819303e-18
"Freq [GHz]","IWavePhi [deg]","IWaveTheta [deg]","Phi [deg]","Theta [deg]","re(rEPhi) [V]","im(rEPhi) [V]","re(rETheta) [V]","im(rETheta) [V]"
1.4235,180,90,0,0,6.07084569869794e-18,1.80479027188899e-18,-2.35984122140788e-21,4.93221444309374e-21
"Freq [GHz]","IWavePhi [deg]","IWaveTheta [deg]","Phi [deg]","Theta [deg]","re(rEPhi) [V]","im(rEPhi) [V]","re(rETheta) [V]","im(rETheta) [V]"
1.4235,180,90,0,180,-3.17379833414991e-18,4.95235054132914e-18,-4.04856495152626e-21,5.36590310085248e-21
"Freq [GHz]","IWavePhi [deg]","IWaveTheta [deg]","Phi [deg]","Theta [deg]","re(rEPhi) [V]","im(rEPhi) [V]","re(rETheta) [V]","im(rETheta) [V]"
1.4235,180,90,45,54.736,-2.53351008926323e-19,3.55794083324139e-18,-4.51587633845017e-18,4.88204467107725e-18
"Freq [GHz]","IWavePhi [deg]","IWaveTheta [deg]","Phi [deg]","Theta [deg]","re(rEPhi) [V]","im(rEPhi) [V]","re(rETheta) [V]","im(rETheta) [V]"
1.4235,180,90,135,54.736,2.46843453316969e-19,-3.56360596852875e-18,-4.51964989508695e-18,4.88757870131066e-18
"Freq [GHz]","IWavePhi [deg]","IWaveTheta [deg]","Phi [deg]","Theta [deg]","re(rEPhi) [V]","im(rEPhi) [V]","re(rETheta) [V]","im(rETheta) [V]"
1.4235,180,90,-45,54.736,5.7207795228181e-18,1.74226140992228e-19,-8.6737560510153e-19,-1.20731945793176e-18
"Freq [GHz]","IWavePhi [deg]","IWaveTheta [deg]","Phi [deg]","Theta [deg]","re(rEPhi) [V]","im(rEPhi) [V]","re(rETheta) [V]","im(rETheta) [V]"
1.4235,180,90,45,125.264,-5.91391087876735e-18,4.7978256460297e-18,-7.95753939633816e-19,-1.43739976118299e-20
"Freq [GHz]","IWavePhi [deg]","IWaveTheta [deg]","Phi [deg]","Theta [deg]","re(rEPhi) [V]","im(rEPhi) [V]","re(rETheta) [V]","im(rETheta) [V]"
1.4235,180,90,-135,54.736,-5.72857287397761e-18,-1.77718190639785e-19,-8.71195658994401e-19,-1.20291342060014e-18
"Freq [GHz]","IWavePhi [deg]","IWaveTheta [deg]","Phi [deg]","Theta [deg]","re(rEPhi) [V]","im(rEPhi) [V]","re(rETheta) [V]","im(rETheta) [V]"
1.4235,180,90,-45,125.264,3.95520617461891e-18,1.40782333841368e-18,4.69474147742432e-18,-3.71619037858466e-19
"Freq [GHz]","IWavePhi [deg]","IWaveTheta [deg]","Phi [deg]","Theta [deg]","re(rEPhi) [V]","im(rEPhi) [V]","re(rETheta) [V]","im(rETheta) [V]"
1.4235,180,90,135,125.264,5.91867069947254e-18,-4.79511037190173e-18,-7.89635375621889e-19,-1.48595112256758e-20
"Freq [GHz]","IWavePhi [deg]","IWaveTheta [deg]","Phi [deg]","Theta [deg]","re(rEPhi) [V]","im(rEPhi) [V]","re(rETheta) [V]","im(rETheta) [V]"
1.4235,180,90,-135,125.264,-3.94393533696551e-18,-1.40997031898189e-18,4.68271353195417e-18,-3.68492946444568e-19
"Freq [GHz]","IWavePhi [deg]","IWaveTheta [deg]","Phi [deg]","Theta [deg]","re(rEPhi) [V]","im(rEPhi) [V]","re(rETheta) [V]","im(rETheta) [V]"
1.4235,180,90,0,90,-8.61192575545265e-21,-1.76374875134765e-21,2.53211067853253e-18,-1.48787722415547e-18
"Freq [GHz]","IWavePhi [deg]","IWaveTheta [deg]","Phi [deg]","Theta [deg]","re(rEPhi) [V]","im(rEPhi) [V]","re(rETheta) [V]","im(rETheta) [V]"
1.4235,180,90,180,90,1.13764357172539e-20,-1.98800073158138e-21,2.53305318765803e-18,-1.47792944560722e-18
"Freq [GHz]","IWavePhi [deg]","IWaveTheta [deg]","Phi [deg]","Theta [deg]","re(rEPhi) [V]","im(rEPhi) [V]","re(rETheta) [V]","im(rETheta) [V]"
1.4235,180,90,90,90,-2.67021460980444e-21,2.51983872480792e-21,-5.03372040649483e-18,2.37922766670422e-18
"Freq [GHz]","IWavePhi [deg]","IWaveTheta [deg]","Phi [deg]","Theta [deg]","re(rEPhi) [V]","im(rEPhi) [V]","re(rETheta) [V]","im(rETheta) [V]"
1.4235,180,90,-90,90,-1.0795817700548e-21,3.27058313662518e-21,3.98101535338112e-18,-3.19530566214155e-18
"Freq [GHz]","IWavePhi [deg]","IWaveTheta [deg]","Phi [deg]","Theta [deg]","re(rEPhi) [V]","im(rEPhi) [V]","re(rETheta) [V]","im(rETheta) [V]"
1.4235,180,90,0,0,4.61121930818117e-18,-1.57363184533504e-18,5.51923196242535e-22,1.64496567981543e-21
"Freq [GHz]","IWavePhi [deg]","IWaveTheta [deg]","Phi [deg]","Theta [deg]","re(rEPhi) [V]","im(rEPhi) [V]","re(rETheta) [V]","im(rETheta) [V]"
1.4235,180,90,0,180,-4.61568696256148e-18,1.564139498642e-18,1.2835963196107e-21,8.10141118201219e-22
"Freq [GHz]","IWavePhi [deg]","IWaveTheta [deg]","Phi [deg]","Theta [deg]","re(rEPhi) [V]","im(rEPhi) [V]","re(rETheta) [V]","im(rETheta) [V]"
1.4235,180,90,45,54.736,8.8329748103571e-19,-6.16151036783062e-19,-1.89893324340652e-18,8.06130175950196e-19
"Freq [GHz]","IWavePhi [deg]","IWaveTheta [deg]","Phi [deg]","Theta [deg]","re(rEPhi) [V]","im(rEPhi) [V]","re(rETheta) [V]","im(rETheta) [V]"
1.4235,180,90,135,54.736,-8.81654072018754e-19,6.0972188610779e-19,-1.89423819441947e-18,8.02884251013598e-19
"Freq [GHz]","IWavePhi [deg]","IWaveTheta [deg]","Phi [deg]","Theta [deg]","re(rEPhi) [V]","im(rEPhi) [V]","re(rETheta) [V]","im(rETheta) [V]"
1.4235,180,90,-45,54.736,2.82715575673136e-18,-6.20123907661531e-19,2.68045637000483e-18,-2.44106748158543e-18
"Freq [GHz]","IWavePhi [deg]","IWaveTheta [deg]","Phi [deg]","Theta [deg]","re(rEPhi) [V]","im(rEPhi) [V]","re(rETheta) [V]","im(rETheta) [V]"
1.4235,180,90,45,125.264,-8.82414062152296e-19,6.08257342532496e-19,-1.90271557817947e-18,8.12130413412222e-19
"Freq [GHz]","IWavePhi [deg]","IWaveTheta [deg]","Phi [deg]","Theta [deg]","re(rEPhi) [V]","im(rEPhi) [V]","re(rETheta) [V]","im(rETheta) [V]"
1.4235,180,90,-135,54.736,-2.82871479730447e-18,6.17852977880622e-19,2.67909543840261e-18,-2.43648315322724e-18
"Freq [GHz]","IWavePhi [deg]","IWaveTheta [deg]","Phi [deg]","Theta [deg]","re(rEPhi) [V]","im(rEPhi) [V]","re(rETheta) [V]","im(rETheta) [V]"
1.4235,180,90,-45,125.264,-2.8421586768664e-18,6.33309435893524e-19,2.6727022131599e-18,-2.43689164863574e-18
"Freq [GHz]","IWavePhi [deg]","IWaveTheta [deg]","Phi [deg]","Theta [deg]","re(rEPhi) [V]","im(rEPhi) [V]","re(rETheta) [V]","im(rETheta) [V]"
1.4235,180,90,135,125.264,8.8137560734383e-19,-6.04978933794853e-19,-1.89617192343246e-18,8.11110218736596e-19
"Freq [GHz]","IWavePhi [deg]","IWaveTheta [deg]","Phi [deg]","Theta [deg]","re(rEPhi) [V]","im(rEPhi) [V]","re(rETheta) [V]","im(rETheta) [V]"
1.4235,180,90,-135,125.264,2.84135855106852e-18,-6.28880235485562e-19,2.67876068409304e-18,-2.42951607114078e-18
"Freq [GHz]","IWavePhi [deg]","IWaveTheta [deg]","Phi [deg]","Theta [deg]","re(rEPhi) [mV]","im(rEPhi) [mV]","re(rETheta) [uv]","im(rETheta) [uv]"
1.4235,180,90,0,90,17.2232505867894,48.5005315706129,-149.459127386656,-8.33986536468783
"Freq [GHz]","IWavePhi [deg]","IWaveTheta [deg]","Phi [deg]","Theta [deg]","re(rEPhi) [mV]","im(rEPhi) [mV]","re(rETheta) [uv]","im(rETheta) [uv]"
1.4235,180,90,180,90,-17.1020022740034,-48.4873075281273,-134.324113697925,-44.8817888162087
"Freq [GHz]","IWavePhi [deg]","IWaveTheta [deg]","Phi [deg]","Theta [deg]","re(rEPhi) [uv]","im(rEPhi) [uv]","re(rETheta) [mV]","im(rETheta) [mV]"
1.4235,180,90,90,90,-22.5781916988184,-18.0151751182174,28.7978480337079,-10.0012932377132
"Freq [GHz]","IWavePhi [deg]","IWaveTheta [deg]","Phi [deg]","Theta [deg]","re(rEPhi) [uv]","im(rEPhi) [uv]","re(rETheta) [mV]","im(rETheta) [mV]"
1.4235,180,90,-90,90,-6.55174117670589,-33.1302862946989,-28.7874659088332,10.0021445086663
"Freq [GHz]","IWavePhi [deg]","IWaveTheta [deg]","Phi [deg]","Theta [deg]","re(rEPhi) [mV]","im(rEPhi) [mV]","re(rETheta) [uv]","im(rETheta) [uv]"
1.4235,180,90,0,0,27.8687015601868,51.959326905858,1.51899601486654,-2.36279817523771
"Freq [GHz]","IWavePhi [deg]","IWaveTheta [deg]","Phi [deg]","Theta [deg]","re(rEPhi) [mV]","im(rEPhi) [mV]","re(rETheta) [uv]","im(rETheta) [uv]"
1.4235,180,90,0,180,2.83856237945633,18.302576558185,-28.4621136672929,-4.37967364764606
"Freq [GHz]","IWavePhi [deg]","IWaveTheta [deg]","Phi [deg]","Theta [deg]","re(rEPhi) [mV]","im(rEPhi) [mV]","re(rETheta) [mV]","im(rETheta) [mV]"
1.4235,180,90,45,54.736,14.6632151798935,32.1999517535767,30.8437559325095,11.7052230344546
"Freq [GHz]","IWavePhi [deg]","IWaveTheta [deg]","Phi [deg]","Theta [deg]","re(rEPhi) [mV]","im(rEPhi) [mV]","re(rETheta) [mV]","im(rETheta) [mV]"
1.4235,180,90,135,54.736,-14.6875633274651,-32.2701527828098,30.80879403973,11.7397002703875
"Freq [GHz]","IWavePhi [deg]","IWaveTheta [deg]","Phi [deg]","Theta [deg]","re(rEPhi) [mV]","im(rEPhi) [mV]","re(rETheta) [mV]","im(rETheta) [mV]"
1.4235,180,90,-45,54.736,14.7878108281846,32.2643678868643,-30.9684702554081,-11.7393426606851
"Freq [GHz]","IWavePhi [deg]","IWaveTheta [deg]","Phi [deg]","Theta [deg]","re(rEPhi) [mV]","im(rEPhi) [mV]","re(rETheta) [mV]","im(rETheta) [mV]"
1.4235,180,90,45,125.264,6.19685597093677,19.3382601496743,16.602668338641,-17.9593489075612
"Freq [GHz]","IWavePhi [deg]","IWaveTheta [deg]","Phi [deg]","Theta [deg]","re(rEPhi) [mV]","im(rEPhi) [mV]","re(rETheta) [mV]","im(rETheta) [mV]"
1.4235,180,90,-135,54.736,-14.7934991863142,-32.2146036225368,-30.9830379232154,-11.716156796528
"Freq [GHz]","IWavePhi [deg]","IWaveTheta [deg]","Phi [deg]","Theta [deg]","re(rEPhi) [mV]","im(rEPhi) [mV]","re(rETheta) [mV]","im(rETheta) [mV]"
1.4235,180,90,-45,125.264,6.12216497114464,19.1332834432495,-16.748393106087,17.866778843509
"Freq [GHz]","IWavePhi [deg]","IWaveTheta [deg]","Phi [deg]","Theta [deg]","re(rEPhi) [mV]","im(rEPhi) [mV]","re(rETheta) [mV]","im(rETheta) [mV]"
1.4235,180,90,135,125.264,-6.14330068197321,-19.3192486008342,16.6239947109215,-17.9205859797551
"Freq [GHz]","IWavePhi [deg]","IWaveTheta [deg]","Phi [deg]","Theta [deg]","re(rEPhi) [mV]","im(rEPhi) [mV]","re(rETheta) [mV]","im(rETheta) [mV]"
1.4235,180,90,-135,125.264,-6.06501142322431,-19.3233478433137,-16.7924207502269,17.9166673672215
"Freq [GHz]","IWavePhi [deg]","IWaveTheta [deg]","Phi [deg]","Theta [deg]","re(rEPhi) [mV]","im(rEPhi) [mV]","re(rETheta) [uv]","im(rETheta) [uv]"
1.4235,180,90,0,90,17.1942399735817,48.5595795178777,104.576086473187,28.7107525125167
"Freq [GHz]","IWavePhi [deg]","IWaveTheta [deg]","Phi [deg]","Theta [deg]","re(rEPhi) [mV]","im(rEPhi) [mV]","re(rETheta) [uv]","im(rETheta) [uv]"
1.4235,180,90,180,90,-17.1555156799252,-48.5343315456186,79.204929081549,56.9830207006211
"Freq [GHz]","IWavePhi [deg]","IWaveTheta [deg]","Phi [deg]","Theta [deg]","re(rEPhi) [uv]","im(rEPhi) [uv]","re(rETheta) [mV]","im(rETheta) [mV]"
1.4235,180,90,90,90,-13.0000197567056,-22.0318657753441,-28.7103911185601,9.89855653893146
"Freq [GHz]","IWavePhi [deg]","IWaveTheta [deg]","Phi [deg]","Theta [deg]","re(rEPhi) [uv]","im(rEPhi) [uv]","re(rETheta) [mV]","im(rETheta) [mV]"
1.4235,180,90,-90,90,-4.56015836541269,-6.31648885785149,28.7360271856001,-9.91932562764449
"Freq [GHz]","IWavePhi [deg]","IWaveTheta [deg]","Phi [deg]","Theta [deg]","re(rEPhi) [mV]","im(rEPhi) [mV]","re(rETheta) [uv]","im(rETheta) [uv]"
1.4235,180,90,0,0,2.88736531846119,18.356156006688,1.67630135372163,18.8588365388019
"Freq [GHz]","IWavePhi [deg]","IWaveTheta [deg]","Phi [deg]","Theta [deg]","re(rEPhi) [mV]","im(rEPhi) [mV]","re(rETheta) [uv]","im(rETheta) [uv]"
1.4235,180,90,0,180,27.7715255448818,51.9755554882794,-24.9762937804933,41.6096195845528
"Freq [GHz]","IWavePhi [deg]","IWaveTheta [deg]","Phi [deg]","Theta [deg]","re(rEPhi) [mV]","im(rEPhi) [mV]","re(rETheta) [mV]","im(rETheta) [mV]"
1.4235,180,90,45,54.736,6.11288672038743,19.2795500982435,-16.652135966917,17.8737047815483
"Freq [GHz]","IWavePhi [deg]","IWaveTheta [deg]","Phi [deg]","Theta [deg]","re(rEPhi) [mV]","im(rEPhi) [mV]","re(rETheta) [mV]","im(rETheta) [mV]"
1.4235,180,90,135,54.736,-6.1724797334189,-19.3789994077626,-16.6097459297526,17.9243222762932
"Freq [GHz]","IWavePhi [deg]","IWaveTheta [deg]","Phi [deg]","Theta [deg]","re(rEPhi) [mV]","im(rEPhi) [mV]","re(rETheta) [mV]","im(rETheta) [mV]"
1.4235,180,90,-45,54.736,6.16171024754844,19.2720979705884,16.7215010776388,-17.8869090132079
"Freq [GHz]","IWavePhi [deg]","IWaveTheta [deg]","Phi [deg]","Theta [deg]","re(rEPhi) [mV]","im(rEPhi) [mV]","re(rETheta) [mV]","im(rETheta) [mV]"
1.4235,180,90,45,125.264,14.7717090073376,32.2411522204546,-30.8503808097096,-11.7765320943415
"Freq [GHz]","IWavePhi [deg]","IWaveTheta [deg]","Phi [deg]","Theta [deg]","re(rEPhi) [mV]","im(rEPhi) [mV]","re(rETheta) [mV]","im(rETheta) [mV]"
1.4235,180,90,-135,54.736,-6.17091806274666,-19.281528220385,16.6750305394134,-17.8935607667244
"Freq [GHz]","IWavePhi [deg]","IWaveTheta [deg]","Phi [deg]","Theta [deg]","re(rEPhi) [mV]","im(rEPhi) [mV]","re(rETheta) [mV]","im(rETheta) [mV]"
1.4235,180,90,-45,125.264,14.6808245457888,32.2669967872725,30.8703549863952,11.7878902324482
