"Freq [GHz]","IWavePhi [deg]","IWaveTheta [deg]","Phi [deg]","Theta [deg]","re(rEPhi) [mV]","im(rEPhi) [mV]","re(rETheta) [uv]","im(rETheta) [uv]"
1.2812,180,90,0,90,29.0239829493733,68.8451235077385,-43.3401690131232,-16.040789310624
"Freq [GHz]","IWavePhi [deg]","IWaveTheta [deg]","Phi [deg]","Theta [deg]","re(rEPhi) [mV]","im(rEPhi) [mV]","re(rETheta) [uv]","im(rETheta) [uv]"
1.2812,180,90,180,90,-29.0211113646851,-68.8066511277616,-33.1747196695354,-21.2869533548728
"Freq [GHz]","IWavePhi [deg]","IWaveTheta [deg]","Phi [deg]","Theta [deg]","re(rEPhi) [uv]","im(rEPhi) [uv]","re(rETheta) [uv]","im(rETheta) [uv]"
1.2812,180,90,90,90,-3.0627926445876,7.89176269873319,23.4630224971829,-22.0821155296107
"Freq [GHz]","IWavePhi [deg]","IWaveTheta [deg]","Phi [deg]","Theta [deg]","re(rEPhi) [uv]","im(rEPhi) [uv]","re(rETheta) [uv]","im(rETheta) [uv]"
1.2812,180,90,-90,90,22.6427938047126,-6.44860175189743,-26.9545948682278,25.4849697345159
"Freq [GHz]","IWavePhi [deg]","IWaveTheta [deg]","Phi [deg]","Theta [deg]","re(rEPhi) [mV]","im(rEPhi) [mV]","re(rETheta) [uv]","im(rETheta) [uv]"
1.2812,180,90,0,0,20.4647593000369,52.8818156218556,-2.08885711850234,13.270007266433
"Freq [GHz]","IWavePhi [deg]","IWaveTheta [deg]","Phi [deg]","Theta [deg]","re(rEPhi) [mV]","im(rEPhi) [mV]","re(rETheta) [uv]","im(rETheta) [uv]"
1.2812,180,90,0,180,20.4169298350584,52.7554892789319,-23.7905748958491,-16.1236076851718
"Freq [GHz]","IWavePhi [deg]","IWaveTheta [deg]","Phi [deg]","Theta [deg]","re(rEPhi) [mV]","im(rEPhi) [mV]","re(rETheta) [mV]","im(rETheta) [mV]"
1.2812,180,90,45,54.736,16.1799950461066,38.7060254715438,8.97882236669806,22.1593835086028
"Freq [GHz]","IWavePhi [deg]","IWaveTheta [deg]","Phi [deg]","Theta [deg]","re(rEPhi) [mV]","im(rEPhi) [mV]","re(rETheta) [mV]","im(rETheta) [mV]"
1.2812,180,90,135,54.736,-16.1333020507662,-38.7840817708349,8.96694189582829,22.2497358475003
"Freq [GHz]","IWavePhi [deg]","IWaveTheta [deg]","Phi [deg]","Theta [deg]","re(rEPhi) [mV]","im(rEPhi) [mV]","re(rETheta) [mV]","im(rETheta) [mV]"
1.2812,180,90,-45,54.736,16.2038857855389,38.7452777155347,-9.00473213451212,-22.2284250260293
"Freq [GHz]","IWavePhi [deg]","IWaveTheta [deg]","Phi [deg]","Theta [deg]","re(rEPhi) [mV]","im(rEPhi) [mV]","re(rETheta) [mV]","im(rETheta) [mV]"
1.2812,180,90,45,125.264,16.1171056748695,38.7462061848009,-8.93636173440586,-22.240720114609
"Freq [GHz]","IWavePhi [deg]","IWaveTheta [deg]","Phi [deg]","Theta [deg]","re(rEPhi) [mV]","im(rEPhi) [mV]","re(rETheta) [mV]","im(rETheta) [mV]"
1.2812,180,90,-135,54.736,-16.2361700528954,-38.7622581815165,-9.03046402663847,-22.2283996755229
"Freq [GHz]","IWavePhi [deg]","IWaveTheta [deg]","Phi [deg]","Theta [deg]","re(rEPhi) [mV]","im(rEPhi) [mV]","re(rETheta) [mV]","im(rETheta) [mV]"
1.2812,180,90,-45,125.264,16.2330149090257,38.6945501610493,8.96177728662689,22.1875187836722
"Freq [GHz]","IWavePhi [deg]","IWaveTheta [deg]","Phi [deg]","Theta [deg]","re(rEPhi) [mV]","im(rEPhi) [mV]","re(rETheta) [mV]","im(rETheta) [mV]"
1.2812,180,90,135,125.264,-16.1179891908499,-38.6576903840399,-8.93380495844026,-22.2006370152311
"Freq [GHz]","IWavePhi [deg]","IWaveTheta [deg]","Phi [deg]","Theta [deg]","re(rEPhi) [mV]","im(rEPhi) [mV]","re(rETheta) [mV]","im(rETheta) [mV]"
1.2812,180,90,-135,125.264,-16.0616934712246,-38.6319940276388,8.86703442144361,22.1863621332872
"Freq [GHz]","IWavePhi [deg]","IWaveTheta [deg]","Phi [deg]","Theta [deg]","re(rEPhi) [mV]","im(rEPhi) [mV]","re(rETheta) [uv]","im(rETheta) [uv]"
1.2812,180,90,0,90,-29.0239829493733,-68.8451235077385,43.340169013263,16.0407893121438
"Freq [GHz]","IWavePhi [deg]","IWaveTheta [deg]","Phi [deg]","Theta [deg]","re(rEPhi) [mV]","im(rEPhi) [mV]","re(rETheta) [uv]","im(rETheta) [uv]"
1.2812,180,90,180,90,29.0211113646851,68.8066511277616,33.174719669917,21.2869533532761
"Freq [GHz]","IWavePhi [deg]","IWaveTheta [deg]","Phi [deg]","Theta [deg]","re(rEPhi) [uv]","im(rEPhi) [uv]","re(rETheta) [uv]","im(rETheta) [uv]"
1.2812,180,90,90,90,3.06279264418495,-7.89176270084605,-23.4630224972149,22.0821155294944
"Freq [GHz]","IWavePhi [deg]","IWaveTheta [deg]","Phi [deg]","Theta [deg]","re(rEPhi) [uv]","im(rEPhi) [uv]","re(rETheta) [uv]","im(rETheta) [uv]"
1.2812,180,90,-90,90,-22.6427938043234,6.44860174979847,26.9545948682635,-25.4849697346338
"Freq [GHz]","IWavePhi [deg]","IWaveTheta [deg]","Phi [deg]","Theta [deg]","re(rEPhi) [mV]","im(rEPhi) [mV]","re(rETheta) [uv]","im(rETheta) [uv]"
1.2812,180,90,0,0,-20.4647593000369,-52.8818156218556,2.08885711941536,-13.2700072693706
"Freq [GHz]","IWavePhi [deg]","IWaveTheta [deg]","Phi [deg]","Theta [deg]","re(rEPhi) [mV]","im(rEPhi) [mV]","re(rETheta) [uv]","im(rETheta) [uv]"
1.2812,180,90,0,180,-20.4169298350584,-52.7554892789319,23.7905748949543,16.1236076822286
"Freq [GHz]","IWavePhi [deg]","IWaveTheta [deg]","Phi [deg]","Theta [deg]","re(rEPhi) [mV]","im(rEPhi) [mV]","re(rETheta) [mV]","im(rETheta) [mV]"
1.2812,180,90,45,54.736,-16.1799950461076,-38.7060254715426,-8.97882236669697,-22.159383508603
"Freq [GHz]","IWavePhi [deg]","IWaveTheta [deg]","Phi [deg]","Theta [deg]","re(rEPhi) [mV]","im(rEPhi) [mV]","re(rETheta) [mV]","im(rETheta) [mV]"
1.2812,180,90,135,54.736,16.1333020507676,38.784081770835,-8.96694189582746,-22.2497358474994
"Freq [GHz]","IWavePhi [deg]","IWaveTheta [deg]","Phi [deg]","Theta [deg]","re(rEPhi) [mV]","im(rEPhi) [mV]","re(rETheta) [mV]","im(rETheta) [mV]"
1.2812,180,90,-45,54.736,-16.2038857855369,-38.7452777155348,9.00473213451389,22.2284250260299
"Freq [GHz]","IWavePhi [deg]","IWaveTheta [deg]","Phi [deg]","Theta [deg]","re(rEPhi) [mV]","im(rEPhi) [mV]","re(rETheta) [mV]","im(rETheta) [mV]"
1.2812,180,90,45,125.264,-16.1171056748682,-38.7462061848023,8.9363617344067,22.2407201146075
"Freq [GHz]","IWavePhi [deg]","IWaveTheta [deg]","Phi [deg]","Theta [deg]","re(rEPhi) [mV]","im(rEPhi) [mV]","re(rETheta) [mV]","im(rETheta) [mV]"
1.2812,180,90,-135,54.736,16.2361700528941,38.7622581815151,9.03046402663917,22.2283996755245
"Freq [GHz]","IWavePhi [deg]","IWaveTheta [deg]","Phi [deg]","Theta [deg]","re(rEPhi) [mV]","im(rEPhi) [mV]","re(rETheta) [mV]","im(rETheta) [mV]"
1.2812,180,90,-45,125.264,-16.233014909027,-38.6945501610492,-8.96177728662614,-22.1875187836729
"Freq [GHz]","IWavePhi [deg]","IWaveTheta [deg]","Phi [deg]","Theta [deg]","re(rEPhi) [mV]","im(rEPhi) [mV]","re(rETheta) [mV]","im(rETheta) [mV]"
1.2812,180,90,135,125.264,16.1179891908479,38.6576903840398,8.93380495844183,22.2006370152305
"Freq [GHz]","IWavePhi [deg]","IWaveTheta [deg]","Phi [deg]","Theta [deg]","re(rEPhi) [mV]","im(rEPhi) [mV]","re(rETheta) [mV]","im(rETheta) [mV]"
1.2812,180,90,-135,125.264,16.0616934712257,38.63199402764,-8.86703442144258,-22.1863621332872
"Freq [GHz]","IWavePhi [deg]","IWaveTheta [deg]","Phi [deg]","Theta [deg]","re(rEPhi) [V]","im(rEPhi) [V]","re(rETheta) [V]","im(rETheta) [V]"
1.2812,180,90,0,90,2.4044234320532e-18,5.28987550898513e-18,-3.07041520684518e-18,1.6982906728574e-18
"Freq [GHz]","IWavePhi [deg]","IWaveTheta [deg]","Phi [deg]","Theta [deg]","re(rEPhi) [V]","im(rEPhi) [V]","re(rETheta) [V]","im(rETheta) [V]"
1.2812,180,90,180,90,-2.4005584283247e-18,-5.28211198409569e-18,-3.07039022971695e-18,1.69643690119372e-18
"Freq [GHz]","IWavePhi [deg]","IWaveTheta [deg]","Phi [deg]","Theta [deg]","re(rEPhi) [V]","im(rEPhi) [V]","re(rETheta) [V]","im(rETheta) [V]"
1.2812,180,90,90,90,-1.68370693300214e-22,-7.08578308576243e-22,-3.2141394678479e-18,1.67494117484364e-18
"Freq [GHz]","IWavePhi [deg]","IWaveTheta [deg]","Phi [deg]","Theta [deg]","re(rEPhi) [V]","im(rEPhi) [V]","re(rETheta) [V]","im(rETheta) [V]"
1.2812,180,90,-90,90,2.57197801368283e-21,3.86503125174804e-22,3.38327356654439e-18,-6.52427142393927e-19
"Freq [GHz]","IWavePhi [deg]","IWaveTheta [deg]","Phi [deg]","Theta [deg]","re(rEPhi) [V]","im(rEPhi) [V]","re(rETheta) [V]","im(rETheta) [V]"
1.2812,180,90,0,0,5.80051414443884e-18,3.60231737556335e-18,-2.58582127667706e-21,2.29530468639136e-21
"Freq [GHz]","IWavePhi [deg]","IWaveTheta [deg]","Phi [deg]","Theta [deg]","re(rEPhi) [V]","im(rEPhi) [V]","re(rETheta) [V]","im(rETheta) [V]"
1.2812,180,90,0,180,-2.36386584974094e-18,4.51129978944075e-18,-4.89312811946993e-21,-5.34482478628538e-22
"Freq [GHz]","IWavePhi [deg]","IWaveTheta [deg]","Phi [deg]","Theta [deg]","re(rEPhi) [V]","im(rEPhi) [V]","re(rETheta) [V]","im(rETheta) [V]"
1.2812,180,90,45,54.736,7.92000094023365e-19,3.34391309106135e-18,-3.23416974963004e-18,3.67782523003126e-18
"Freq [GHz]","IWavePhi [deg]","IWaveTheta [deg]","Phi [deg]","Theta [deg]","re(rEPhi) [V]","im(rEPhi) [V]","re(rETheta) [V]","im(rETheta) [V]"
1.2812,180,90,135,54.736,-7.91314421817196e-19,-3.34949527538386e-18,-3.23541215268881e-18,3.68691231229947e-18
"Freq [GHz]","IWavePhi [deg]","IWaveTheta [deg]","Phi [deg]","Theta [deg]","re(rEPhi) [V]","im(rEPhi) [V]","re(rETheta) [V]","im(rETheta) [V]"
1.2812,180,90,-45,54.736,4.7525014183791e-18,2.20743652022309e-18,-1.94088331989952e-18,-1.06965478693031e-18
"Freq [GHz]","IWavePhi [deg]","IWaveTheta [deg]","Phi [deg]","Theta [deg]","re(rEPhi) [V]","im(rEPhi) [V]","re(rETheta) [V]","im(rETheta) [V]"
1.2812,180,90,45,125.264,-3.80879351025707e-18,3.81564551524002e-18,-1.34837389395477e-18,-4.73526197260796e-19
"Freq [GHz]","IWavePhi [deg]","IWaveTheta [deg]","Phi [deg]","Theta [deg]","re(rEPhi) [V]","im(rEPhi) [V]","re(rETheta) [V]","im(rETheta) [V]"
1.2812,180,90,-135,54.736,-4.75262356306712e-18,-2.20985917063033e-18,-1.94276603734501e-18,-1.06636713624488e-18
"Freq [GHz]","IWavePhi [deg]","IWaveTheta [deg]","Phi [deg]","Theta [deg]","re(rEPhi) [V]","im(rEPhi) [V]","re(rETheta) [V]","im(rETheta) [V]"
1.2812,180,90,-45,125.264,2.89012768756231e-18,2.53400564810646e-18,2.45120778259316e-18,1.61588927671603e-18
"Freq [GHz]","IWavePhi [deg]","IWaveTheta [deg]","Phi [deg]","Theta [deg]","re(rEPhi) [V]","im(rEPhi) [V]","re(rETheta) [V]","im(rETheta) [V]"
1.2812,180,90,135,125.264,3.8088602672018e-18,-3.80429611476648e-18,-1.34825296040831e-18,-4.69487416196107e-19
"Freq [GHz]","IWavePhi [deg]","IWaveTheta [deg]","Phi [deg]","Theta [deg]","re(rEPhi) [V]","im(rEPhi) [V]","re(rETheta) [V]","im(rETheta) [V]"
1.2812,180,90,-135,125.264,-2.87850350409924e-18,-2.52295746974922e-18,2.44836389604343e-18,1.61160190909014e-18
"Freq [GHz]","IWavePhi [deg]","IWaveTheta [deg]","Phi [deg]","Theta [deg]","re(rEPhi) [V]","im(rEPhi) [V]","re(rETheta) [V]","im(rETheta) [V]"
1.2812,180,90,0,90,-2.2692371930951e-21,-2.40842326135866e-23,3.08609532826041e-18,-1.67249175303677e-18
"Freq [GHz]","IWavePhi [deg]","IWaveTheta [deg]","Phi [deg]","Theta [deg]","re(rEPhi) [V]","im(rEPhi) [V]","re(rETheta) [V]","im(rETheta) [V]"
1.2812,180,90,180,90,4.71847353946145e-21,1.31377269231045e-21,3.0826647609103e-18,-1.67719527301735e-18
"Freq [GHz]","IWavePhi [deg]","IWaveTheta [deg]","Phi [deg]","Theta [deg]","re(rEPhi) [V]","im(rEPhi) [V]","re(rETheta) [V]","im(rETheta) [V]"
1.2812,180,90,90,90,-5.361404956457e-22,-1.8934048195651e-21,-3.38580370435671e-18,6.50835608944102e-19
"Freq [GHz]","IWavePhi [deg]","IWaveTheta [deg]","Phi [deg]","Theta [deg]","re(rEPhi) [V]","im(rEPhi) [V]","re(rETheta) [V]","im(rETheta) [V]"
1.2812,180,90,-90,90,-1.94500746229857e-21,4.83628984550619e-22,3.21756426784952e-18,-1.68458901157595e-18
"Freq [GHz]","IWavePhi [deg]","IWaveTheta [deg]","Phi [deg]","Theta [deg]","re(rEPhi) [V]","im(rEPhi) [V]","re(rETheta) [V]","im(rETheta) [V]"
1.2812,180,90,0,0,4.0749940625856e-18,-4.56379709908822e-19,1.45973682498424e-21,1.81665474286203e-22
"Freq [GHz]","IWavePhi [deg]","IWaveTheta [deg]","Phi [deg]","Theta [deg]","re(rEPhi) [V]","im(rEPhi) [V]","re(rETheta) [V]","im(rETheta) [V]"
1.2812,180,90,0,180,-4.08114208811044e-18,4.57537953403702e-19,1.75921060867065e-21,-1.53715778476246e-21
"Freq [GHz]","IWavePhi [deg]","IWaveTheta [deg]","Phi [deg]","Theta [deg]","re(rEPhi) [V]","im(rEPhi) [V]","re(rETheta) [V]","im(rETheta) [V]"
1.2812,180,90,45,54.736,9.33323147899148e-19,-1.58163903033407e-19,-2.51499073123366e-19,-2.66049394477457e-19
"Freq [GHz]","IWavePhi [deg]","IWaveTheta [deg]","Phi [deg]","Theta [deg]","re(rEPhi) [V]","im(rEPhi) [V]","re(rETheta) [V]","im(rETheta) [V]"
1.2812,180,90,135,54.736,-9.33893587332178e-19,1.60679685959944e-19,-2.46972913934989e-19,-2.6340841837954e-19
"Freq [GHz]","IWavePhi [deg]","IWaveTheta [deg]","Phi [deg]","Theta [deg]","re(rEPhi) [V]","im(rEPhi) [V]","re(rETheta) [V]","im(rETheta) [V]"
1.2812,180,90,-45,54.736,2.29534782248917e-18,-2.31679979720057e-19,2.30655662243898e-18,-1.60290533212572e-18
"Freq [GHz]","IWavePhi [deg]","IWaveTheta [deg]","Phi [deg]","Theta [deg]","re(rEPhi) [V]","im(rEPhi) [V]","re(rETheta) [V]","im(rETheta) [V]"
1.2812,180,90,45,125.264,-9.32786924238783e-19,1.59814814007642e-19,-2.47600997525431e-19,-2.64319994026625e-19
"Freq [GHz]","IWavePhi [deg]","IWaveTheta [deg]","Phi [deg]","Theta [deg]","re(rEPhi) [V]","im(rEPhi) [V]","re(rETheta) [V]","im(rETheta) [V]"
1.2812,180,90,-135,54.736,-2.29556202776797e-18,2.32868667641601e-19,2.30387139714677e-18,-1.60312565023395e-18
"Freq [GHz]","IWavePhi [deg]","IWaveTheta [deg]","Phi [deg]","Theta [deg]","re(rEPhi) [V]","im(rEPhi) [V]","re(rETheta) [V]","im(rETheta) [V]"
1.2812,180,90,-45,125.264,-2.30570245771277e-18,2.37374617848344e-19,2.30292270440354e-18,-1.6059738946452e-18
"Freq [GHz]","IWavePhi [deg]","IWaveTheta [deg]","Phi [deg]","Theta [deg]","re(rEPhi) [V]","im(rEPhi) [V]","re(rETheta) [V]","im(rETheta) [V]"
1.2812,180,90,135,125.264,9.31544490176407e-19,-1.55189848124142e-19,-2.50086266247113e-19,-2.60901668625204e-19
"Freq [GHz]","IWavePhi [deg]","IWaveTheta [deg]","Phi [deg]","Theta [deg]","re(rEPhi) [V]","im(rEPhi) [V]","re(rETheta) [V]","im(rETheta) [V]"
1.2812,180,90,-135,125.264,2.30596412675849e-18,-2.3597955011726e-19,2.30074813344454e-18,-1.59163072965684e-18
"Freq [GHz]","IWavePhi [deg]","IWaveTheta [deg]","Phi [deg]","Theta [deg]","re(rEPhi) [mV]","im(rEPhi) [mV]","re(rETheta) [uv]","im(rETheta) [uv]"
1.2812,180,90,0,90,20.4282785187577,52.8474577856947,-75.5718600440445,-68.1524487072271
"Freq [GHz]","IWavePhi [deg]","IWaveTheta [deg]","Phi [deg]","Theta [deg]","re(rEPhi) [mV]","im(rEPhi) [mV]","re(rETheta) [uv]","im(rETheta) [uv]"
1.2812,180,90,180,90,-20.4142083080111,-52.8059565467243,-48.374065461881,-35.8489236721833
"Freq [GHz]","IWavePhi [deg]","IWaveTheta [deg]","Phi [deg]","Theta [deg]","re(rEPhi) [uv]","im(rEPhi) [uv]","re(rETheta) [mV]","im(rETheta) [mV]"
1.2812,180,90,90,90,2.80162224870958,11.3694673776959,25.4760121151784,-2.84645564157539
"Freq [GHz]","IWavePhi [deg]","IWaveTheta [deg]","Phi [deg]","Theta [deg]","re(rEPhi) [uv]","im(rEPhi) [uv]","re(rETheta) [mV]","im(rETheta) [mV]"
1.2812,180,90,-90,90,21.821248472517,-3.65879903045201,-25.4773512402257,2.91195024789626
"Freq [GHz]","IWavePhi [deg]","IWaveTheta [deg]","Phi [deg]","Theta [deg]","re(rEPhi) [mV]","im(rEPhi) [mV]","re(rETheta) [nV]","im(rETheta) [uv]"
1.2812,180,90,0,0,29.0969939829864,50.3363084860541,496.691597602083,6.77794890643762
"Freq [GHz]","IWavePhi [deg]","IWaveTheta [deg]","Phi [deg]","Theta [deg]","re(rEPhi) [mV]","im(rEPhi) [mV]","re(rETheta) [uv]","im(rETheta) [uv]"
1.2812,180,90,0,180,6.2696534748359,30.778640925325,-16.8246179028149,-11.52430623167
"Freq [GHz]","IWavePhi [deg]","IWaveTheta [deg]","Phi [deg]","Theta [deg]","re(rEPhi) [mV]","im(rEPhi) [mV]","re(rETheta) [mV]","im(rETheta) [mV]"
1.2812,180,90,45,54.736,16.1583145480757,33.4425284600467,26.9942249662946,17.2879621198919
"Freq [GHz]","IWavePhi [deg]","IWaveTheta [deg]","Phi [deg]","Theta [deg]","re(rEPhi) [mV]","im(rEPhi) [mV]","re(rETheta) [mV]","im(rETheta) [mV]"
1.2812,180,90,135,54.736,-16.1292702223251,-33.501847114641,26.9832348727824,17.3202390282637
"Freq [GHz]","IWavePhi [deg]","IWaveTheta [deg]","Phi [deg]","Theta [deg]","re(rEPhi) [mV]","im(rEPhi) [mV]","re(rETheta) [mV]","im(rETheta) [mV]"
1.2812,180,90,-45,54.736,16.1952215391165,33.4691542165932,-27.0747616363625,-17.3273526912502
"Freq [GHz]","IWavePhi [deg]","IWaveTheta [deg]","Phi [deg]","Theta [deg]","re(rEPhi) [mV]","im(rEPhi) [mV]","re(rETheta) [mV]","im(rETheta) [mV]"
1.2812,180,90,45,125.264,7.9868901808713,26.0449573851909,11.6775999930167,-16.8454632182776
"Freq [GHz]","IWavePhi [deg]","IWaveTheta [deg]","Phi [deg]","Theta [deg]","re(rEPhi) [mV]","im(rEPhi) [mV]","re(rETheta) [mV]","im(rETheta) [mV]"
1.2812,180,90,-135,54.736,-16.2261919772057,-33.4624347503751,-27.0783535408975,-17.301036460813
"Freq [GHz]","IWavePhi [deg]","IWaveTheta [deg]","Phi [deg]","Theta [deg]","re(rEPhi) [mV]","im(rEPhi) [mV]","re(rETheta) [mV]","im(rETheta) [mV]"
1.2812,180,90,-45,125.264,8.10361476481115,25.9507303815424,-11.7117980892802,16.7842626311706
"Freq [GHz]","IWavePhi [deg]","IWaveTheta [deg]","Phi [deg]","Theta [deg]","re(rEPhi) [mV]","im(rEPhi) [mV]","re(rETheta) [mV]","im(rETheta) [mV]"
1.2812,180,90,135,125.264,-7.99296196426496,-25.9783198412291,11.6787151700845,-16.7914422000369
"Freq [GHz]","IWavePhi [deg]","IWaveTheta [deg]","Phi [deg]","Theta [deg]","re(rEPhi) [mV]","im(rEPhi) [mV]","re(rETheta) [mV]","im(rETheta) [mV]"
1.2812,180,90,-135,125.264,-7.95619089156899,-25.9174151690814,-11.7878310605831,16.7424195312893
"Freq [GHz]","IWavePhi [deg]","IWaveTheta [deg]","Phi [deg]","Theta [deg]","re(rEPhi) [mV]","im(rEPhi) [mV]","re(rETheta) [uv]","im(rETheta) [uv]"
1.2812,180,90,0,90,20.3869004744714,52.883301896344,6.69181343298682,46.8935554566755
"Freq [GHz]","IWavePhi [deg]","IWaveTheta [deg]","Phi [deg]","Theta [deg]","re(rEPhi) [mV]","im(rEPhi) [mV]","re(rETheta) [uv]","im(rETheta) [uv]"
1.2812,180,90,180,90,-20.3956021006197,-52.8645751438747,-7.43717178436132,6.11002924722931
"Freq [GHz]","IWavePhi [deg]","IWaveTheta [deg]","Phi [deg]","Theta [deg]","re(rEPhi) [uv]","im(rEPhi) [nV]","re(rETheta) [mV]","im(rETheta) [mV]"
1.2812,180,90,90,90,-8.66560863364479,710.012499567483,-25.4404236016343,2.81523417910739
"Freq [GHz]","IWavePhi [deg]","IWaveTheta [deg]","Phi [deg]","Theta [deg]","re(rEPhi) [uv]","im(rEPhi) [uv]","re(rETheta) [mV]","im(rETheta) [mV]"
1.2812,180,90,-90,90,13.5658154065487,-6.38309209178062,25.4394877103537,-2.8723057669292
"Freq [GHz]","IWavePhi [deg]","IWaveTheta [deg]","Phi [deg]","Theta [deg]","re(rEPhi) [mV]","im(rEPhi) [mV]","re(rETheta) [uv]","im(rETheta) [uv]"
1.2812,180,90,0,0,6.30564433661104,30.9217271905612,-4.24327998105576,15.0229449780053
"Freq [GHz]","IWavePhi [deg]","IWaveTheta [deg]","Phi [deg]","Theta [deg]","re(rEPhi) [mV]","im(rEPhi) [mV]","re(rETheta) [uv]","im(rETheta) [uv]"
1.2812,180,90,0,180,29.0660344515148,50.283030353589,-18.8175500714529,-12.8926021410347
"Freq [GHz]","IWavePhi [deg]","IWaveTheta [deg]","Phi [deg]","Theta [deg]","re(rEPhi) [mV]","im(rEPhi) [mV]","re(rETheta) [mV]","im(rETheta) [mV]"
1.2812,180,90,45,54.736,8.04831345087376,26.0169181348864,-11.6670431853925,16.7625522715832
"Freq [GHz]","IWavePhi [deg]","IWaveTheta [deg]","Phi [deg]","Theta [deg]","re(rEPhi) [mV]","im(rEPhi) [mV]","re(rETheta) [mV]","im(rETheta) [mV]"
1.2812,180,90,135,54.736,-8.00587899830783,-26.0761942286007,-11.6771578873479,16.8689947674912
"Freq [GHz]","IWavePhi [deg]","IWaveTheta [deg]","Phi [deg]","Theta [deg]","re(rEPhi) [mV]","im(rEPhi) [mV]","re(rETheta) [mV]","im(rETheta) [mV]"
1.2812,180,90,-45,54.736,8.0498658827804,26.0357231320687,11.7083277383938,-16.8174540414055
"Freq [GHz]","IWavePhi [deg]","IWaveTheta [deg]","Phi [deg]","Theta [deg]","re(rEPhi) [mV]","im(rEPhi) [mV]","re(rETheta) [mV]","im(rETheta) [mV]"
1.2812,180,90,45,125.264,16.1275297509816,33.4698496374806,-26.9425372972262,-17.3246576988978
"Freq [GHz]","IWavePhi [deg]","IWaveTheta [deg]","Phi [deg]","Theta [deg]","re(rEPhi) [mV]","im(rEPhi) [mV]","re(rETheta) [mV]","im(rETheta) [mV]"
1.2812,180,90,-135,54.736,-8.06680433178003,-26.068008438286,11.6731237670432,-16.8430813064018
"Freq [GHz]","IWavePhi [deg]","IWaveTheta [deg]","Phi [deg]","Theta [deg]","re(rEPhi) [mV]","im(rEPhi) [mV]","re(rETheta) [mV]","im(rETheta) [mV]"
1.2812,180,90,-45,125.264,16.1807109391337,33.4756296576358,27.0095884611063,17.2971100893745
