"Freq [GHz]","IWavePhi [deg]","IWaveTheta [deg]","Phi [deg]","Theta [deg]","re(rEPhi) [mV]","im(rEPhi) [mV]","re(rETheta) [uv]","im(rETheta) [uv]"
0.7829,180,90,0,90,-33.3104389249319,94.1508880199962,8.80112779422674,-16.3742160531271
"Freq [GHz]","IWavePhi [deg]","IWaveTheta [deg]","Phi [deg]","Theta [deg]","re(rEPhi) [mV]","im(rEPhi) [mV]","re(rETheta) [uv]","im(rETheta) [nV]"
0.7829,180,90,180,90,33.3183687926962,-94.2062106729976,-1.67031421644691,554.231464078461
"Freq [GHz]","IWavePhi [deg]","IWaveTheta [deg]","Phi [deg]","Theta [deg]","re(rEPhi) [uv]","im(rEPhi) [uv]","re(rETheta) [uv]","im(rETheta) [uv]"
0.7829,180,90,90,90,1.08017279038447,7.40831366596228,35.4689032111926,2.39460467704003
"Freq [GHz]","IWavePhi [deg]","IWaveTheta [deg]","Phi [deg]","Theta [deg]","re(rEPhi) [uv]","im(rEPhi) [uv]","re(rETheta) [uv]","im(rETheta) [uv]"
0.7829,180,90,-90,90,6.56467183723309,-2.6489547179963,-18.0582717221689,-40.7106871924608
"Freq [GHz]","IWavePhi [deg]","IWaveTheta [deg]","Phi [deg]","Theta [deg]","re(rEPhi) [mV]","im(rEPhi) [mV]","re(rETheta) [uv]","im(rETheta) [uv]"
0.7829,180,90,0,0,-30.4901137499788,85.262352649298,-4.98690037525887,4.16104949416285
"Freq [GHz]","IWavePhi [deg]","IWaveTheta [deg]","Phi [deg]","Theta [deg]","re(rEPhi) [mV]","im(rEPhi) [mV]","re(rETheta) [uv]","im(rETheta) [uv]"
0.7829,180,90,0,180,-30.4686579139563,85.2796070961619,-17.382930312701,1.68869677771257
"Freq [GHz]","IWavePhi [deg]","IWaveTheta [deg]","Phi [deg]","Theta [deg]","re(rEPhi) [mV]","im(rEPhi) [mV]","re(rETheta) [mV]","im(rETheta) [mV]"
0.7829,180,90,45,54.736,-21.7012096234939,60.8349830678115,-12.5027057620968,34.9389108866567
"Freq [GHz]","IWavePhi [deg]","IWaveTheta [deg]","Phi [deg]","Theta [deg]","re(rEPhi) [mV]","im(rEPhi) [mV]","re(rETheta) [mV]","im(rETheta) [mV]"
0.7829,180,90,135,54.736,21.7015299402333,-60.833461062368,-12.5011336148141,34.9287202571017
"Freq [GHz]","IWavePhi [deg]","IWaveTheta [deg]","Phi [deg]","Theta [deg]","re(rEPhi) [mV]","im(rEPhi) [mV]","re(rETheta) [mV]","im(rETheta) [mV]"
0.7829,180,90,-45,54.736,-21.6747756385657,60.8510590724754,12.4923976688385,-34.9390130064472
"Freq [GHz]","IWavePhi [deg]","IWaveTheta [deg]","Phi [deg]","Theta [deg]","re(rEPhi) [mV]","im(rEPhi) [mV]","re(rETheta) [mV]","im(rETheta) [mV]"
0.7829,180,90,45,125.264,-21.6449739586857,60.8604499801192,12.5156573230045,-34.9352998233787
"Freq [GHz]","IWavePhi [deg]","IWaveTheta [deg]","Phi [deg]","Theta [deg]","re(rEPhi) [mV]","im(rEPhi) [mV]","re(rETheta) [mV]","im(rETheta) [mV]"
0.7829,180,90,-135,54.736,21.646180780456,-60.8443235402823,12.4742009580499,-34.952309915276
"Freq [GHz]","IWavePhi [deg]","IWaveTheta [deg]","Phi [deg]","Theta [deg]","re(rEPhi) [mV]","im(rEPhi) [mV]","re(rETheta) [mV]","im(rETheta) [mV]"
0.7829,180,90,-45,125.264,-21.6069503524445,60.8290709790473,-12.4662247277204,34.9099691400095
"Freq [GHz]","IWavePhi [deg]","IWaveTheta [deg]","Phi [deg]","Theta [deg]","re(rEPhi) [mV]","im(rEPhi) [mV]","re(rETheta) [mV]","im(rETheta) [mV]"
0.7829,180,90,135,125.264,21.6611231054709,-60.8400215196843,12.5166265197393,-34.9308165766255
"Freq [GHz]","IWavePhi [deg]","IWaveTheta [deg]","Phi [deg]","Theta [deg]","re(rEPhi) [mV]","im(rEPhi) [mV]","re(rETheta) [mV]","im(rETheta) [mV]"
0.7829,180,90,-135,125.264,21.6133718692371,-60.8285392007323,-12.4737585750201,34.9061983362055
"Freq [GHz]","IWavePhi [deg]","IWaveTheta [deg]","Phi [deg]","Theta [deg]","re(rEPhi) [mV]","im(rEPhi) [mV]","re(rETheta) [uv]","im(rETheta) [uv]"
0.7829,180,90,0,90,33.3104389249319,-94.1508880199962,-8.80112779438331,16.3742160534868
"Freq [GHz]","IWavePhi [deg]","IWaveTheta [deg]","Phi [deg]","Theta [deg]","re(rEPhi) [mV]","im(rEPhi) [mV]","re(rETheta) [uv]","im(rETheta) [nV]"
0.7829,180,90,180,90,-33.3183687926962,94.2062106729976,1.67031421652364,-554.231464463455
"Freq [GHz]","IWavePhi [deg]","IWaveTheta [deg]","Phi [deg]","Theta [deg]","re(rEPhi) [uv]","im(rEPhi) [uv]","re(rETheta) [uv]","im(rETheta) [uv]"
0.7829,180,90,90,90,-1.08017278584749,-7.40831366726697,-35.4689032113139,-2.39460467744534
"Freq [GHz]","IWavePhi [deg]","IWaveTheta [deg]","Phi [deg]","Theta [deg]","re(rEPhi) [uv]","im(rEPhi) [uv]","re(rETheta) [uv]","im(rETheta) [uv]"
0.7829,180,90,-90,90,-6.56467183269724,2.64895471930043,18.0582717218572,40.7106871927112
"Freq [GHz]","IWavePhi [deg]","IWaveTheta [deg]","Phi [deg]","Theta [deg]","re(rEPhi) [mV]","im(rEPhi) [mV]","re(rETheta) [uv]","im(rETheta) [uv]"
0.7829,180,90,0,0,30.4901137499788,-85.262352649298,4.9869003799544,-4.16104949368393
"Freq [GHz]","IWavePhi [deg]","IWaveTheta [deg]","Phi [deg]","Theta [deg]","re(rEPhi) [mV]","im(rEPhi) [mV]","re(rETheta) [uv]","im(rETheta) [uv]"
0.7829,180,90,0,180,30.4686579139563,-85.2796070961619,17.3829303173966,-1.68869677819135
"Freq [GHz]","IWavePhi [deg]","IWaveTheta [deg]","Phi [deg]","Theta [deg]","re(rEPhi) [mV]","im(rEPhi) [mV]","re(rETheta) [mV]","im(rETheta) [mV]"
0.7829,180,90,45,54.736,21.7012096234923,-60.8349830678085,12.5027057620976,-34.938910886658
"Freq [GHz]","IWavePhi [deg]","IWaveTheta [deg]","Phi [deg]","Theta [deg]","re(rEPhi) [mV]","im(rEPhi) [mV]","re(rETheta) [mV]","im(rETheta) [mV]"
0.7829,180,90,135,54.736,-21.70152994023,60.8334610623677,12.5011336148162,-34.9287202571016
"Freq [GHz]","IWavePhi [deg]","IWaveTheta [deg]","Phi [deg]","Theta [deg]","re(rEPhi) [mV]","im(rEPhi) [mV]","re(rETheta) [mV]","im(rETheta) [mV]"
0.7829,180,90,-45,54.736,21.6747756385674,-60.8510590724725,-12.492397668838,34.9390130064488
"Freq [GHz]","IWavePhi [deg]","IWaveTheta [deg]","Phi [deg]","Theta [deg]","re(rEPhi) [mV]","im(rEPhi) [mV]","re(rETheta) [mV]","im(rETheta) [mV]"
0.7829,180,90,45,125.264,21.6449739586872,-60.8604499801163,-12.5156573230038,34.9352998233803
"Freq [GHz]","IWavePhi [deg]","IWaveTheta [deg]","Phi [deg]","Theta [deg]","re(rEPhi) [mV]","im(rEPhi) [mV]","re(rETheta) [mV]","im(rETheta) [mV]"
0.7829,180,90,-135,54.736,-21.6461807804545,60.8443235402793,-12.474200958051,34.952309915278
"Freq [GHz]","IWavePhi [deg]","IWaveTheta [deg]","Phi [deg]","Theta [deg]","re(rEPhi) [mV]","im(rEPhi) [mV]","re(rETheta) [mV]","im(rETheta) [mV]"
0.7829,180,90,-45,125.264,21.6069503524478,-60.829070979047,12.4662247277186,-34.9099691400099
"Freq [GHz]","IWavePhi [deg]","IWaveTheta [deg]","Phi [deg]","Theta [deg]","re(rEPhi) [mV]","im(rEPhi) [mV]","re(rETheta) [mV]","im(rETheta) [mV]"
0.7829,180,90,135,125.264,-21.6611231054693,60.8400215196814,-12.5166265197405,34.9308165766273
"Freq [GHz]","IWavePhi [deg]","IWaveTheta [deg]","Phi [deg]","Theta [deg]","re(rEPhi) [mV]","im(rEPhi) [mV]","re(rETheta) [mV]","im(rETheta) [mV]"
0.7829,180,90,-135,125.264,-21.6133718692386,60.8285392007294,12.4737585750191,-34.9061983362074
"Freq [GHz]","IWavePhi [deg]","IWaveTheta [deg]","Phi [deg]","Theta [deg]","re(rEPhi) [V]","im(rEPhi) [V]","re(rETheta) [V]","im(rETheta) [V]"
0.7829,180,90,0,90,-3.38964477979653e-18,9.60928551244895e-18,-2.48645914003244e-18,4.28881587635247e-19
"Freq [GHz]","IWavePhi [deg]","IWaveTheta [deg]","Phi [deg]","Theta [deg]","re(rEPhi) [V]","im(rEPhi) [V]","re(rETheta) [V]","im(rETheta) [V]"
0.7829,180,90,180,90,3.39032333993896e-18,-9.6151538609396e-18,-2.48717887247823e-18,4.31244468190482e-19
"Freq [GHz]","IWavePhi [deg]","IWaveTheta [deg]","Phi [deg]","Theta [deg]","re(rEPhi) [V]","im(rEPhi) [V]","re(rETheta) [V]","im(rETheta) [V]"
0.7829,180,90,90,90,2.20859545196102e-22,9.89431349258823e-22,-1.1418907555113e-18,3.51482842172092e-19
"Freq [GHz]","IWavePhi [deg]","IWaveTheta [deg]","Phi [deg]","Theta [deg]","re(rEPhi) [V]","im(rEPhi) [V]","re(rETheta) [V]","im(rETheta) [V]"
0.7829,180,90,-90,90,4.3498150551906e-22,-1.42616864778436e-22,-1.55672505761352e-18,2.00479896579102e-19
"Freq [GHz]","IWavePhi [deg]","IWaveTheta [deg]","Phi [deg]","Theta [deg]","re(rEPhi) [V]","im(rEPhi) [V]","re(rETheta) [V]","im(rETheta) [V]"
0.7829,180,90,0,0,-1.52581568301837e-18,8.78945875148469e-18,-6.75564937252589e-22,6.07978590473428e-23
"Freq [GHz]","IWavePhi [deg]","IWaveTheta [deg]","Phi [deg]","Theta [deg]","re(rEPhi) [V]","im(rEPhi) [V]","re(rETheta) [V]","im(rETheta) [V]"
0.7829,180,90,0,180,-4.67603700849108e-18,8.61744535766584e-18,-1.94780662137509e-21,-2.25122095545614e-23
"Freq [GHz]","IWavePhi [deg]","IWaveTheta [deg]","Phi [deg]","Theta [deg]","re(rEPhi) [V]","im(rEPhi) [V]","re(rETheta) [V]","im(rETheta) [V]"
0.7829,180,90,45,54.736,-1.82235037505316e-18,6.23786370396307e-18,-2.62119227943257e-18,3.92192275259636e-18
"Freq [GHz]","IWavePhi [deg]","IWaveTheta [deg]","Phi [deg]","Theta [deg]","re(rEPhi) [V]","im(rEPhi) [V]","re(rETheta) [V]","im(rETheta) [V]"
0.7829,180,90,135,54.736,1.82245739747991e-18,-6.23807025768245e-18,-2.6206202037311e-18,3.92108717432296e-18
"Freq [GHz]","IWavePhi [deg]","IWaveTheta [deg]","Phi [deg]","Theta [deg]","re(rEPhi) [V]","im(rEPhi) [V]","re(rETheta) [V]","im(rETheta) [V]"
0.7829,180,90,-45,54.736,-1.36354498586121e-18,6.2469771506387e-18,-1.00410653433539e-18,-3.32339475591481e-18
"Freq [GHz]","IWavePhi [deg]","IWaveTheta [deg]","Phi [deg]","Theta [deg]","re(rEPhi) [V]","im(rEPhi) [V]","re(rETheta) [V]","im(rETheta) [V]"
0.7829,180,90,45,125.264,-3.33553736978495e-18,6.1943945660624e-18,3.65781072768733e-19,-3.2152579238726e-18
"Freq [GHz]","IWavePhi [deg]","IWaveTheta [deg]","Phi [deg]","Theta [deg]","re(rEPhi) [V]","im(rEPhi) [V]","re(rETheta) [V]","im(rETheta) [V]"
0.7829,180,90,-135,54.736,1.36106705680179e-18,-6.24622382089996e-18,-1.0058431673373e-18,-3.32448795003442e-18
"Freq [GHz]","IWavePhi [deg]","IWaveTheta [deg]","Phi [deg]","Theta [deg]","re(rEPhi) [V]","im(rEPhi) [V]","re(rETheta) [V]","im(rETheta) [V]"
0.7829,180,90,-45,125.264,-2.3392121754968e-18,6.16065600635508e-18,-3.13024074779688e-18,3.79975973517073e-18
"Freq [GHz]","IWavePhi [deg]","IWaveTheta [deg]","Phi [deg]","Theta [deg]","re(rEPhi) [V]","im(rEPhi) [V]","re(rETheta) [V]","im(rETheta) [V]"
0.7829,180,90,135,125.264,3.33667282705469e-18,-6.19245526975512e-18,3.659434824225e-19,-3.21497670404721e-18
"Freq [GHz]","IWavePhi [deg]","IWaveTheta [deg]","Phi [deg]","Theta [deg]","re(rEPhi) [V]","im(rEPhi) [V]","re(rETheta) [V]","im(rETheta) [V]"
0.7829,180,90,-135,125.264,2.34035745402496e-18,-6.16055329533353e-18,-3.13075010914174e-18,3.79913892346458e-18
"Freq [GHz]","IWavePhi [deg]","IWaveTheta [deg]","Phi [deg]","Theta [deg]","re(rEPhi) [V]","im(rEPhi) [V]","re(rETheta) [V]","im(rETheta) [V]"
0.7829,180,90,0,90,-5.0401989182557e-21,5.01967999723687e-22,2.48868754604132e-18,-4.27472798856212e-19
"Freq [GHz]","IWavePhi [deg]","IWaveTheta [deg]","Phi [deg]","Theta [deg]","re(rEPhi) [V]","im(rEPhi) [V]","re(rETheta) [V]","im(rETheta) [V]"
0.7829,180,90,180,90,5.01078627807458e-21,-4.04370533444586e-22,2.48754988662261e-18,-4.27874483005072e-19
"Freq [GHz]","IWavePhi [deg]","IWaveTheta [deg]","Phi [deg]","Theta [deg]","re(rEPhi) [V]","im(rEPhi) [V]","re(rETheta) [V]","im(rETheta) [V]"
0.7829,180,90,90,90,-2.41562084739596e-22,-1.41216119983132e-22,1.55688525971213e-18,-2.00493179467155e-19
"Freq [GHz]","IWavePhi [deg]","IWaveTheta [deg]","Phi [deg]","Theta [deg]","re(rEPhi) [V]","im(rEPhi) [V]","re(rETheta) [V]","im(rETheta) [V]"
0.7829,180,90,-90,90,9.88151585817246e-23,-1.13598018653253e-22,1.14431031570306e-18,-3.50178598016383e-19
"Freq [GHz]","IWavePhi [deg]","IWaveTheta [deg]","Phi [deg]","Theta [deg]","re(rEPhi) [V]","im(rEPhi) [V]","re(rETheta) [V]","im(rETheta) [V]"
0.7829,180,90,0,0,1.5717041997842e-18,8.82141670384117e-20,-1.34261818952767e-22,3.90030737827517e-22
"Freq [GHz]","IWavePhi [deg]","IWaveTheta [deg]","Phi [deg]","Theta [deg]","re(rEPhi) [V]","im(rEPhi) [V]","re(rETheta) [V]","im(rETheta) [V]"
0.7829,180,90,0,180,-1.58096957418243e-18,-8.59224878093047e-20,1.83454105069373e-22,1.29529419161102e-22
"Freq [GHz]","IWavePhi [deg]","IWaveTheta [deg]","Phi [deg]","Theta [deg]","re(rEPhi) [V]","im(rEPhi) [V]","re(rETheta) [V]","im(rETheta) [V]"
0.7829,180,90,45,54.736,4.87382453820356e-19,4.25440463515703e-20,2.06706470967824e-18,-2.3438603750303e-19
"Freq [GHz]","IWavePhi [deg]","IWaveTheta [deg]","Phi [deg]","Theta [deg]","re(rEPhi) [V]","im(rEPhi) [V]","re(rETheta) [V]","im(rETheta) [V]"
0.7829,180,90,135,54.736,-4.87339863017692e-19,-4.33110251203909e-20,2.06688736362615e-18,-2.3432708111182e-19
"Freq [GHz]","IWavePhi [deg]","IWaveTheta [deg]","Phi [deg]","Theta [deg]","re(rEPhi) [V]","im(rEPhi) [V]","re(rETheta) [V]","im(rETheta) [V]"
0.7829,180,90,-45,54.736,7.56011219074099e-19,2.42404159160633e-20,1.13055855158664e-18,-3.51796349816646e-19
"Freq [GHz]","IWavePhi [deg]","IWaveTheta [deg]","Phi [deg]","Theta [deg]","re(rEPhi) [V]","im(rEPhi) [V]","re(rETheta) [V]","im(rETheta) [V]"
0.7829,180,90,45,125.264,-4.95592996112986e-19,-4.2093679467042e-20,2.07247046230795e-18,-2.36344692009267e-19
"Freq [GHz]","IWavePhi [deg]","IWaveTheta [deg]","Phi [deg]","Theta [deg]","re(rEPhi) [V]","im(rEPhi) [V]","re(rETheta) [V]","im(rETheta) [V]"
0.7829,180,90,-135,54.736,-7.56477306403616e-19,-2.42258166158356e-20,1.13061465622783e-18,-3.52248927085589e-19
"Freq [GHz]","IWavePhi [deg]","IWaveTheta [deg]","Phi [deg]","Theta [deg]","re(rEPhi) [V]","im(rEPhi) [V]","re(rETheta) [V]","im(rETheta) [V]"
0.7829,180,90,-45,125.264,-7.62199834082035e-19,-2.2200821182653e-20,1.12676087463832e-18,-3.53005835111345e-19
"Freq [GHz]","IWavePhi [deg]","IWaveTheta [deg]","Phi [deg]","Theta [deg]","re(rEPhi) [V]","im(rEPhi) [V]","re(rETheta) [V]","im(rETheta) [V]"
0.7829,180,90,135,125.264,4.95629534154522e-19,4.14771014858066e-20,2.07170980545698e-18,-2.36254927310904e-19
"Freq [GHz]","IWavePhi [deg]","IWaveTheta [deg]","Phi [deg]","Theta [deg]","re(rEPhi) [V]","im(rEPhi) [V]","re(rETheta) [V]","im(rETheta) [V]"
0.7829,180,90,-135,125.264,7.61705158892719e-19,2.2386133777735e-20,1.12656402140937e-18,-3.52986545262758e-19
"Freq [GHz]","IWavePhi [deg]","IWaveTheta [deg]","Phi [deg]","Theta [deg]","re(rEPhi) [mV]","im(rEPhi) [mV]","re(rETheta) [uv]","im(rETheta) [uv]"
0.7829,180,90,0,90,-30.4326676540086,85.2600676418202,7.10305587352394,-18.2471397189123
"Freq [GHz]","IWavePhi [deg]","IWaveTheta [deg]","Phi [deg]","Theta [deg]","re(rEPhi) [mV]","im(rEPhi) [mV]","re(rETheta) [uv]","im(rETheta) [uv]"
0.7829,180,90,180,90,30.4388643571813,-85.3108302974619,-5.48692173394037,-1.87449772197583
"Freq [GHz]","IWavePhi [deg]","IWaveTheta [deg]","Phi [deg]","Theta [deg]","re(rEPhi) [nV]","im(rEPhi) [uv]","re(rETheta) [mV]","im(rETheta) [uv]"
0.7829,180,90,90,90,638.660155443667,6.38458588621717,9.83946336142496,551.569021979713
"Freq [GHz]","IWavePhi [deg]","IWaveTheta [deg]","Phi [deg]","Theta [deg]","re(rEPhi) [uv]","im(rEPhi) [uv]","re(rETheta) [mV]","im(rETheta) [uv]"
0.7829,180,90,-90,90,6.40413700661201,-1.15989918880746,-9.82591562803802,-578.945309416046
"Freq [GHz]","IWavePhi [deg]","IWaveTheta [deg]","Phi [deg]","Theta [deg]","re(rEPhi) [mV]","im(rEPhi) [mV]","re(rETheta) [uv]","im(rETheta) [uv]"
0.7829,180,90,0,0,-19.3628067953881,78.1662731036022,-5.07440586115923,3.86034125006707
"Freq [GHz]","IWavePhi [deg]","IWaveTheta [deg]","Phi [deg]","Theta [deg]","re(rEPhi) [mV]","im(rEPhi) [mV]","re(rETheta) [uv]","im(rETheta) [uv]"
0.7829,180,90,0,180,-35.1727703351821,76.2767084971923,-15.7068025827738,1.73294560984597
"Freq [GHz]","IWavePhi [deg]","IWaveTheta [deg]","Phi [deg]","Theta [deg]","re(rEPhi) [mV]","im(rEPhi) [mV]","re(rETheta) [mV]","im(rETheta) [mV]"
0.7829,180,90,45,54.736,-16.5963069508693,55.4564175807488,-4.17306082392833,32.1291123382906
"Freq [GHz]","IWavePhi [deg]","IWaveTheta [deg]","Phi [deg]","Theta [deg]","re(rEPhi) [mV]","im(rEPhi) [mV]","re(rETheta) [mV]","im(rETheta) [mV]"
0.7829,180,90,135,54.736,16.595107711739,-55.4579075160784,-4.17095918439832,32.1179722092241
"Freq [GHz]","IWavePhi [deg]","IWaveTheta [deg]","Phi [deg]","Theta [deg]","re(rEPhi) [mV]","im(rEPhi) [mV]","re(rETheta) [mV]","im(rETheta) [mV]"
0.7829,180,90,-45,54.736,-16.5717952489206,55.4734226694961,4.16436131635645,-32.1272585766659
"Freq [GHz]","IWavePhi [deg]","IWaveTheta [deg]","Phi [deg]","Theta [deg]","re(rEPhi) [mV]","im(rEPhi) [mV]","re(rETheta) [mV]","im(rETheta) [mV]"
0.7829,180,90,45,125.264,-22.7458538116474,54.7467980401435,18.2185836551248,-31.1519787359397
"Freq [GHz]","IWavePhi [deg]","IWaveTheta [deg]","Phi [deg]","Theta [deg]","re(rEPhi) [mV]","im(rEPhi) [mV]","re(rETheta) [mV]","im(rETheta) [mV]"
0.7829,180,90,-135,54.736,16.5464877487143,-55.4664479961677,4.14815645069087,-32.1421980418496
"Freq [GHz]","IWavePhi [deg]","IWaveTheta [deg]","Phi [deg]","Theta [deg]","re(rEPhi) [mV]","im(rEPhi) [mV]","re(rETheta) [mV]","im(rETheta) [mV]"
0.7829,180,90,-45,125.264,-22.7102737190428,54.7218808044651,-18.1725818587341,31.1288287747993
"Freq [GHz]","IWavePhi [deg]","IWaveTheta [deg]","Phi [deg]","Theta [deg]","re(rEPhi) [mV]","im(rEPhi) [mV]","re(rETheta) [mV]","im(rETheta) [mV]"
0.7829,180,90,135,125.264,22.759041024498,-54.7311404559075,18.2168762645492,-31.1482813772342
"Freq [GHz]","IWavePhi [deg]","IWaveTheta [deg]","Phi [deg]","Theta [deg]","re(rEPhi) [mV]","im(rEPhi) [mV]","re(rETheta) [mV]","im(rETheta) [mV]"
0.7829,180,90,-135,125.264,22.7151592595053,-54.7212622960836,-18.1788239647015,31.1238209143659
"Freq [GHz]","IWavePhi [deg]","IWaveTheta [deg]","Phi [deg]","Theta [deg]","re(rEPhi) [mV]","im(rEPhi) [mV]","re(rETheta) [uv]","im(rETheta) [uv]"
0.7829,180,90,0,90,-30.4935924430256,85.2554263579706,8.47663198205272,-11.4725942827566
"Freq [GHz]","IWavePhi [deg]","IWaveTheta [deg]","Phi [deg]","Theta [deg]","re(rEPhi) [mV]","im(rEPhi) [mV]","re(rETheta) [uv]","im(rETheta) [uv]"
0.7829,180,90,180,90,30.5016057796649,-85.3049383990292,2.22858214669439,2.68941504189489
"Freq [GHz]","IWavePhi [deg]","IWaveTheta [deg]","Phi [deg]","Theta [deg]","re(rEPhi) [uv]","im(rEPhi) [uv]","re(rETheta) [mV]","im(rETheta) [uv]"
0.7829,180,90,90,90,1.27272661858155,6.98740224251639,-9.77345591338774,-552.246902764331
"Freq [GHz]","IWavePhi [deg]","IWaveTheta [deg]","Phi [deg]","Theta [deg]","re(rEPhi) [uv]","im(rEPhi) [uv]","re(rETheta) [mV]","im(rETheta) [uv]"
0.7829,180,90,-90,90,5.4310338606305,-3.69460276116766,9.79459968014928,510.18171774588
"Freq [GHz]","IWavePhi [deg]","IWaveTheta [deg]","Phi [deg]","Theta [deg]","re(rEPhi) [mV]","im(rEPhi) [mV]","re(rETheta) [uv]","im(rETheta) [uv]"
0.7829,180,90,0,0,-35.2473230588891,76.2512822868678,-3.98099995761295,3.68558749029139
"Freq [GHz]","IWavePhi [deg]","IWaveTheta [deg]","Phi [deg]","Theta [deg]","re(rEPhi) [mV]","im(rEPhi) [mV]","re(rETheta) [uv]","im(rETheta) [uv]"
0.7829,180,90,0,180,-19.3992509155551,78.1751146493818,-15.8197228486196,1.30765059602696
"Freq [GHz]","IWavePhi [deg]","IWaveTheta [deg]","Phi [deg]","Theta [deg]","re(rEPhi) [mV]","im(rEPhi) [mV]","re(rETheta) [mV]","im(rETheta) [mV]"
0.7829,180,90,45,54.736,-22.8315006397346,54.720923398432,-18.2260439268475,31.1461861537028
"Freq [GHz]","IWavePhi [deg]","IWaveTheta [deg]","Phi [deg]","Theta [deg]","re(rEPhi) [mV]","im(rEPhi) [mV]","re(rETheta) [mV]","im(rETheta) [mV]"
0.7829,180,90,135,54.736,22.8333225957977,-54.7165748456938,-18.2253082887925,31.1387580008222
"Freq [GHz]","IWavePhi [deg]","IWaveTheta [deg]","Phi [deg]","Theta [deg]","re(rEPhi) [mV]","im(rEPhi) [mV]","re(rETheta) [mV]","im(rETheta) [mV]"
0.7829,180,90,-45,54.736,-22.8089391278256,54.7325768386438,18.217043740606,-31.1477946377118
"Freq [GHz]","IWavePhi [deg]","IWaveTheta [deg]","Phi [deg]","Theta [deg]","re(rEPhi) [mV]","im(rEPhi) [mV]","re(rETheta) [mV]","im(rETheta) [mV]"
0.7829,180,90,45,125.264,-16.5811172956116,55.4781493816997,4.20525419784583,-32.1227759441533
"Freq [GHz]","IWavePhi [deg]","IWaveTheta [deg]","Phi [deg]","Theta [deg]","re(rEPhi) [mV]","im(rEPhi) [mV]","re(rETheta) [mV]","im(rETheta) [mV]"
0.7829,180,90,-135,54.736,22.7823977666525,-54.7272779239424,18.2003502863438,-31.1569097926446
"Freq [GHz]","IWavePhi [deg]","IWaveTheta [deg]","Phi [deg]","Theta [deg]","re(rEPhi) [mV]","im(rEPhi) [mV]","re(rETheta) [mV]","im(rETheta) [mV]"
0.7829,180,90,-45,125.264,-16.54726725756,55.4457803601533,-4.16092158847039,32.0992339218841
