"Freq [GHz]","IWavePhi [deg]","IWaveTheta [deg]","Phi [deg]","Theta [deg]","re(rEPhi) [mV]","im(rEPhi) [mV]","re(rETheta) [uv]","im(rETheta) [uv]"
1.1388,180,90,0,90,28.4058854451187,74.8695496053252,-49.9712370406234,-48.684523087684
"Freq [GHz]","IWavePhi [deg]","IWaveTheta [deg]","Phi [deg]","Theta [deg]","re(rEPhi) [mV]","im(rEPhi) [mV]","re(rETheta) [uv]","im(rETheta) [uv]"
1.1388,180,90,180,90,-28.3933964084473,-74.8783442449866,-45.0924453090897,-56.6513778691209
"Freq [GHz]","IWavePhi [deg]","IWaveTheta [deg]","Phi [deg]","Theta [deg]","re(rEPhi) [uv]","im(rEPhi) [uv]","re(rETheta) [uv]","im(rETheta) [uv]"
1.1388,180,90,90,90,-1.68668576243261,-4.38166462298989,4.55438446074295,-34.2162669008174
"Freq [GHz]","IWavePhi [deg]","IWaveTheta [deg]","Phi [deg]","Theta [deg]","re(rEPhi) [uv]","im(rEPhi) [uv]","re(rETheta) [uv]","im(rETheta) [uv]"
1.1388,180,90,-90,90,11.2244351743911,9.60515806679367,-49.8508360400541,1.68561336570155
"Freq [GHz]","IWavePhi [deg]","IWaveTheta [deg]","Phi [deg]","Theta [deg]","re(rEPhi) [mV]","im(rEPhi) [mV]","re(rETheta) [uv]","im(rETheta) [uv]"
1.1388,180,90,0,0,21.8876859276896,60.9434171400011,-2.32125249930221,-6.10676604337363
"Freq [GHz]","IWavePhi [deg]","IWaveTheta [deg]","Phi [deg]","Theta [deg]","re(rEPhi) [mV]","im(rEPhi) [mV]","re(rETheta) [uv]","im(rETheta) [uv]"
1.1388,180,90,0,180,21.9258730926572,60.8766193474955,-5.81242078645012,-20.4543502489359
"Freq [GHz]","IWavePhi [deg]","IWaveTheta [deg]","Phi [deg]","Theta [deg]","re(rEPhi) [mV]","im(rEPhi) [mV]","re(rETheta) [mV]","im(rETheta) [mV]"
1.1388,180,90,45,54.736,16.3113544576903,43.8505899181475,9.12949940535601,25.0733382436803
"Freq [GHz]","IWavePhi [deg]","IWaveTheta [deg]","Phi [deg]","Theta [deg]","re(rEPhi) [mV]","im(rEPhi) [mV]","re(rETheta) [mV]","im(rETheta) [mV]"
1.1388,180,90,135,54.736,-16.2958186369019,-43.8308298017645,9.09528398503117,25.1013226871833
"Freq [GHz]","IWavePhi [deg]","IWaveTheta [deg]","Phi [deg]","Theta [deg]","re(rEPhi) [mV]","im(rEPhi) [mV]","re(rETheta) [mV]","im(rETheta) [mV]"
1.1388,180,90,-45,54.736,16.2962298341004,43.8643177299197,-9.14519593049378,-25.1492307697214
"Freq [GHz]","IWavePhi [deg]","IWaveTheta [deg]","Phi [deg]","Theta [deg]","re(rEPhi) [mV]","im(rEPhi) [mV]","re(rETheta) [mV]","im(rETheta) [mV]"
1.1388,180,90,45,125.264,16.3160779053416,43.8031139368241,-9.13381639084783,-25.1058958412528
"Freq [GHz]","IWavePhi [deg]","IWaveTheta [deg]","Phi [deg]","Theta [deg]","re(rEPhi) [mV]","im(rEPhi) [mV]","re(rETheta) [mV]","im(rETheta) [mV]"
1.1388,180,90,-135,54.736,-16.3070644708351,-43.8706029668983,-9.15649878276427,-25.1444190322318
"Freq [GHz]","IWavePhi [deg]","IWaveTheta [deg]","Phi [deg]","Theta [deg]","re(rEPhi) [mV]","im(rEPhi) [mV]","re(rETheta) [mV]","im(rETheta) [mV]"
1.1388,180,90,-45,125.264,16.3386581311385,43.830212602168,9.07673015180343,25.0873808604464
"Freq [GHz]","IWavePhi [deg]","IWaveTheta [deg]","Phi [deg]","Theta [deg]","re(rEPhi) [mV]","im(rEPhi) [mV]","re(rETheta) [mV]","im(rETheta) [mV]"
1.1388,180,90,135,125.264,-16.3875250554396,-43.7997963399847,-9.16355858106082,-25.1232427013682
"Freq [GHz]","IWavePhi [deg]","IWaveTheta [deg]","Phi [deg]","Theta [deg]","re(rEPhi) [mV]","im(rEPhi) [mV]","re(rETheta) [mV]","im(rETheta) [mV]"
1.1388,180,90,-135,125.264,-16.3121948200361,-43.7989354848759,9.06130523526357,25.0965952728238
"Freq [GHz]","IWavePhi [deg]","IWaveTheta [deg]","Phi [deg]","Theta [deg]","re(rEPhi) [mV]","im(rEPhi) [mV]","re(rETheta) [uv]","im(rETheta) [uv]"
1.1388,180,90,0,90,-28.4058854451187,-74.8695496053252,49.9712370438907,48.684523086998
"Freq [GHz]","IWavePhi [deg]","IWaveTheta [deg]","Phi [deg]","Theta [deg]","re(rEPhi) [mV]","im(rEPhi) [mV]","re(rETheta) [uv]","im(rETheta) [uv]"
1.1388,180,90,180,90,28.3933964084473,74.8783442449866,45.092445311789,56.6513778710674
"Freq [GHz]","IWavePhi [deg]","IWaveTheta [deg]","Phi [deg]","Theta [deg]","re(rEPhi) [uv]","im(rEPhi) [uv]","re(rETheta) [uv]","im(rETheta) [uv]"
1.1388,180,90,90,90,1.68668576243343,4.38166462298989,-4.55438445966061,34.2162668984258
"Freq [GHz]","IWavePhi [deg]","IWaveTheta [deg]","Phi [deg]","Theta [deg]","re(rEPhi) [uv]","im(rEPhi) [uv]","re(rETheta) [uv]","im(rETheta) [uv]"
1.1388,180,90,-90,90,-11.2244351743911,-9.60515806679367,49.8508360408362,-1.68561336196119
"Freq [GHz]","IWavePhi [deg]","IWaveTheta [deg]","Phi [deg]","Theta [deg]","re(rEPhi) [mV]","im(rEPhi) [mV]","re(rETheta) [uv]","im(rETheta) [uv]"
1.1388,180,90,0,0,-21.8876859276896,-60.9434171400011,2.32125249930252,6.10676604337384
"Freq [GHz]","IWavePhi [deg]","IWaveTheta [deg]","Phi [deg]","Theta [deg]","re(rEPhi) [mV]","im(rEPhi) [mV]","re(rETheta) [uv]","im(rETheta) [uv]"
1.1388,180,90,0,180,-21.9258730926572,-60.8766193474955,5.81242078644971,20.4543502489361
"Freq [GHz]","IWavePhi [deg]","IWaveTheta [deg]","Phi [deg]","Theta [deg]","re(rEPhi) [mV]","im(rEPhi) [mV]","re(rETheta) [mV]","im(rETheta) [mV]"
1.1388,180,90,45,54.736,-16.3113544576903,-43.8505899181475,-9.12949940535336,-25.0733382436785
"Freq [GHz]","IWavePhi [deg]","IWaveTheta [deg]","Phi [deg]","Theta [deg]","re(rEPhi) [mV]","im(rEPhi) [mV]","re(rETheta) [mV]","im(rETheta) [mV]"
1.1388,180,90,135,54.736,16.2958186369019,43.8308298017645,-9.09528398503272,-25.1013226871805
"Freq [GHz]","IWavePhi [deg]","IWaveTheta [deg]","Phi [deg]","Theta [deg]","re(rEPhi) [mV]","im(rEPhi) [mV]","re(rETheta) [mV]","im(rETheta) [mV]"
1.1388,180,90,-45,54.736,-16.2962298341004,-43.8643177299197,9.14519593049282,25.1492307697241
"Freq [GHz]","IWavePhi [deg]","IWaveTheta [deg]","Phi [deg]","Theta [deg]","re(rEPhi) [mV]","im(rEPhi) [mV]","re(rETheta) [mV]","im(rETheta) [mV]"
1.1388,180,90,45,125.264,-16.3160779053416,-43.8031139368241,9.13381639084577,25.1058958412543
"Freq [GHz]","IWavePhi [deg]","IWaveTheta [deg]","Phi [deg]","Theta [deg]","re(rEPhi) [mV]","im(rEPhi) [mV]","re(rETheta) [mV]","im(rETheta) [mV]"
1.1388,180,90,-135,54.736,16.3070644708351,43.8706029668983,9.15649878276141,25.1444190322312
"Freq [GHz]","IWavePhi [deg]","IWaveTheta [deg]","Phi [deg]","Theta [deg]","re(rEPhi) [mV]","im(rEPhi) [mV]","re(rETheta) [mV]","im(rETheta) [mV]"
1.1388,180,90,-45,125.264,-16.3386581311385,-43.830212602168,-9.0767301518044,-25.0873808604482
"Freq [GHz]","IWavePhi [deg]","IWaveTheta [deg]","Phi [deg]","Theta [deg]","re(rEPhi) [mV]","im(rEPhi) [mV]","re(rETheta) [mV]","im(rETheta) [mV]"
1.1388,180,90,135,125.264,16.3875250554396,43.7997963399847,9.16355858105915,25.1232427013663
"Freq [GHz]","IWavePhi [deg]","IWaveTheta [deg]","Phi [deg]","Theta [deg]","re(rEPhi) [mV]","im(rEPhi) [mV]","re(rETheta) [mV]","im(rETheta) [mV]"
1.1388,180,90,-135,125.264,16.3121948200361,43.7989354848759,-9.06130523526182,-25.0965952728249
"Freq [GHz]","IWavePhi [deg]","IWaveTheta [deg]","Phi [deg]","Theta [deg]","re(rEPhi) [V]","im(rEPhi) [V]","re(rETheta) [V]","im(rETheta) [V]"
1.1388,180,90,0,90,2.47621448786648e-18,6.31644630740489e-18,-3.37906397212032e-18,1.48248826935797e-18
"Freq [GHz]","IWavePhi [deg]","IWaveTheta [deg]","Phi [deg]","Theta [deg]","re(rEPhi) [V]","im(rEPhi) [V]","re(rETheta) [V]","im(rETheta) [V]"
1.1388,180,90,180,90,-2.47438938008336e-18,-6.31623854774443e-18,-3.38059315833716e-18,1.47947865333787e-18
"Freq [GHz]","IWavePhi [deg]","IWaveTheta [deg]","Phi [deg]","Theta [deg]","re(rEPhi) [V]","im(rEPhi) [V]","re(rETheta) [V]","im(rETheta) [V]"
1.1388,180,90,90,90,4.94135326228516e-22,-1.38530380679899e-21,-2.33734293652407e-18,1.02629213939022e-18
"Freq [GHz]","IWavePhi [deg]","IWaveTheta [deg]","Phi [deg]","Theta [deg]","re(rEPhi) [V]","im(rEPhi) [V]","re(rETheta) [V]","im(rETheta) [V]"
1.1388,180,90,-90,90,1.52834655856685e-22,8.76600544971168e-22,1.29692242246787e-18,1.26303273880684e-19
"Freq [GHz]","IWavePhi [deg]","IWaveTheta [deg]","Phi [deg]","Theta [deg]","re(rEPhi) [V]","im(rEPhi) [V]","re(rETheta) [V]","im(rETheta) [V]"
1.1388,180,90,0,0,5.13250295006988e-18,5.14367392392385e-18,-1.36540217063187e-22,-1.00678066583167e-21
"Freq [GHz]","IWavePhi [deg]","IWaveTheta [deg]","Phi [deg]","Theta [deg]","re(rEPhi) [V]","im(rEPhi) [V]","re(rETheta) [V]","im(rETheta) [V]"
1.1388,180,90,0,180,-1.29502613973667e-18,5.13219888672034e-18,-9.6746970998482e-22,-1.66693869310249e-21
"Freq [GHz]","IWavePhi [deg]","IWaveTheta [deg]","Phi [deg]","Theta [deg]","re(rEPhi) [V]","im(rEPhi) [V]","re(rETheta) [V]","im(rETheta) [V]"
1.1388,180,90,45,54.736,1.44512681850159e-18,3.84226960298792e-18,-2.14208904365024e-18,3.37898386267244e-18
"Freq [GHz]","IWavePhi [deg]","IWaveTheta [deg]","Phi [deg]","Theta [deg]","re(rEPhi) [V]","im(rEPhi) [V]","re(rETheta) [V]","im(rETheta) [V]"
1.1388,180,90,135,54.736,-1.44628646971255e-18,-3.84058214400684e-18,-2.14332169247551e-18,3.37879513773492e-18
"Freq [GHz]","IWavePhi [deg]","IWaveTheta [deg]","Phi [deg]","Theta [deg]","re(rEPhi) [V]","im(rEPhi) [V]","re(rETheta) [V]","im(rETheta) [V]"
1.1388,180,90,-45,54.736,3.7686091336577e-18,3.5426710846266e-18,-2.82242998661609e-18,-1.4202845347293e-18
"Freq [GHz]","IWavePhi [deg]","IWaveTheta [deg]","Phi [deg]","Theta [deg]","re(rEPhi) [V]","im(rEPhi) [V]","re(rETheta) [V]","im(rETheta) [V]"
1.1388,180,90,45,125.264,-2.05264842546333e-18,3.94145082598148e-18,-1.68495732087005e-18,-1.09387498717803e-18
"Freq [GHz]","IWavePhi [deg]","IWaveTheta [deg]","Phi [deg]","Theta [deg]","re(rEPhi) [V]","im(rEPhi) [V]","re(rETheta) [V]","im(rETheta) [V]"
1.1388,180,90,-135,54.736,-3.77005290163686e-18,-3.54246477503415e-18,-2.82534733559988e-18,-1.41832919752588e-18
"Freq [GHz]","IWavePhi [deg]","IWaveTheta [deg]","Phi [deg]","Theta [deg]","re(rEPhi) [V]","im(rEPhi) [V]","re(rETheta) [V]","im(rETheta) [V]"
1.1388,180,90,-45,125.264,2.15094189423825e-18,3.47235585351464e-18,5.76498547771772e-19,2.58141804952112e-18
"Freq [GHz]","IWavePhi [deg]","IWaveTheta [deg]","Phi [deg]","Theta [deg]","re(rEPhi) [V]","im(rEPhi) [V]","re(rETheta) [V]","im(rETheta) [V]"
1.1388,180,90,135,125.264,2.0445277705948e-18,-3.94023561370639e-18,-1.68906959002138e-18,-1.09630277671339e-18
"Freq [GHz]","IWavePhi [deg]","IWaveTheta [deg]","Phi [deg]","Theta [deg]","re(rEPhi) [V]","im(rEPhi) [V]","re(rETheta) [V]","im(rETheta) [V]"
1.1388,180,90,-135,125.264,-2.15038784856208e-18,-3.469821426819e-18,5.74612867774411e-19,2.5825770391051e-18
"Freq [GHz]","IWavePhi [deg]","IWaveTheta [deg]","Phi [deg]","Theta [deg]","re(rEPhi) [V]","im(rEPhi) [V]","re(rETheta) [V]","im(rETheta) [V]"
1.1388,180,90,0,90,-1.74438218711912e-21,5.10396728899179e-21,3.37772544294507e-18,-1.4807705259226e-18
"Freq [GHz]","IWavePhi [deg]","IWaveTheta [deg]","Phi [deg]","Theta [deg]","re(rEPhi) [V]","im(rEPhi) [V]","re(rETheta) [V]","im(rETheta) [V]"
1.1388,180,90,180,90,1.91375602785208e-21,-4.10122482973688e-21,3.37885566531437e-18,-1.48221943780912e-18
"Freq [GHz]","IWavePhi [deg]","IWaveTheta [deg]","Phi [deg]","Theta [deg]","re(rEPhi) [V]","im(rEPhi) [V]","re(rETheta) [V]","im(rETheta) [V]"
1.1388,180,90,90,90,1.43707992837233e-21,4.23740347650327e-22,-1.29954086013996e-18,-1.1840497795845e-19
"Freq [GHz]","IWavePhi [deg]","IWaveTheta [deg]","Phi [deg]","Theta [deg]","re(rEPhi) [V]","im(rEPhi) [V]","re(rETheta) [V]","im(rETheta) [V]"
1.1388,180,90,-90,90,-9.1189436709183e-22,-2.59807976147357e-22,2.3379777791207e-18,-1.03044612950549e-18
"Freq [GHz]","IWavePhi [deg]","IWaveTheta [deg]","Phi [deg]","Theta [deg]","re(rEPhi) [V]","im(rEPhi) [V]","re(rETheta) [V]","im(rETheta) [V]"
1.1388,180,90,0,0,3.21357002281167e-18,3.44991445051528e-21,1.85111946875681e-22,2.93306335011295e-22
"Freq [GHz]","IWavePhi [deg]","IWaveTheta [deg]","Phi [deg]","Theta [deg]","re(rEPhi) [V]","im(rEPhi) [V]","re(rETheta) [V]","im(rETheta) [V]"
1.1388,180,90,0,180,-3.22003829513912e-18,1.46799153575768e-21,3.69191789270496e-22,4.86368055300467e-22
"Freq [GHz]","IWavePhi [deg]","IWaveTheta [deg]","Phi [deg]","Theta [deg]","re(rEPhi) [V]","im(rEPhi) [V]","re(rETheta) [V]","im(rETheta) [V]"
1.1388,180,90,45,54.736,8.08859955458201e-19,3.65647772270138e-20,1.12160654952422e-18,-5.80426236245029e-19
"Freq [GHz]","IWavePhi [deg]","IWaveTheta [deg]","Phi [deg]","Theta [deg]","re(rEPhi) [V]","im(rEPhi) [V]","re(rETheta) [V]","im(rETheta) [V]"
1.1388,180,90,135,54.736,-8.12449496739198e-19,-3.60850544250569e-20,1.12111654759493e-18,-5.80131581393142e-19
"Freq [GHz]","IWavePhi [deg]","IWaveTheta [deg]","Phi [deg]","Theta [deg]","re(rEPhi) [V]","im(rEPhi) [V]","re(rETheta) [V]","im(rETheta) [V]"
1.1388,180,90,-45,54.736,1.74747516543926e-18,-4.57785940424158e-20,1.91655348338241e-18,-1.1442621844988e-18
"Freq [GHz]","IWavePhi [deg]","IWaveTheta [deg]","Phi [deg]","Theta [deg]","re(rEPhi) [V]","im(rEPhi) [V]","re(rETheta) [V]","im(rETheta) [V]"
1.1388,180,90,45,125.264,-8.111822791926e-19,-3.12645612550268e-20,1.12347560800151e-18,-5.78910722822648e-19
"Freq [GHz]","IWavePhi [deg]","IWaveTheta [deg]","Phi [deg]","Theta [deg]","re(rEPhi) [V]","im(rEPhi) [V]","re(rETheta) [V]","im(rETheta) [V]"
1.1388,180,90,-135,54.736,-1.7479402793238e-18,4.65536310561203e-20,1.9167224480623e-18,-1.14773733694686e-18
"Freq [GHz]","IWavePhi [deg]","IWaveTheta [deg]","Phi [deg]","Theta [deg]","re(rEPhi) [V]","im(rEPhi) [V]","re(rETheta) [V]","im(rETheta) [V]"
1.1388,180,90,-45,125.264,-1.75122869356519e-18,5.58187321342264e-20,1.91529292412543e-18,-1.1406688857808e-18
"Freq [GHz]","IWavePhi [deg]","IWaveTheta [deg]","Phi [deg]","Theta [deg]","re(rEPhi) [V]","im(rEPhi) [V]","re(rETheta) [V]","im(rETheta) [V]"
1.1388,180,90,135,125.264,8.08831643144316e-19,3.28720456921412e-20,1.12189478516608e-18,-5.79040061566929e-19
"Freq [GHz]","IWavePhi [deg]","IWaveTheta [deg]","Phi [deg]","Theta [deg]","re(rEPhi) [V]","im(rEPhi) [V]","re(rETheta) [V]","im(rETheta) [V]"
1.1388,180,90,-135,125.264,1.75102132082589e-18,-5.43270986297739e-20,1.91382434545649e-18,-1.1402324226512e-18
"Freq [GHz]","IWavePhi [deg]","IWaveTheta [deg]","Phi [deg]","Theta [deg]","re(rEPhi) [mV]","im(rEPhi) [mV]","re(rETheta) [uv]","im(rETheta) [uv]"
1.1388,180,90,0,90,21.8540405879372,60.7802688283673,-46.9235079899441,-60.7679152924472
"Freq [GHz]","IWavePhi [deg]","IWaveTheta [deg]","Phi [deg]","Theta [deg]","re(rEPhi) [mV]","im(rEPhi) [mV]","re(rETheta) [uv]","im(rETheta) [uv]"
1.1388,180,90,180,90,-21.8432698429301,-60.7807805726172,-47.9064343507528,-40.5593744810632
"Freq [GHz]","IWavePhi [deg]","IWaveTheta [deg]","Phi [deg]","Theta [deg]","re(rEPhi) [uv]","im(rEPhi) [nV]","re(rETheta) [mV]","im(rETheta) [uv]"
1.1388,180,90,90,90,1.11739167490241,276.422563547895,20.0071072469894,-2.61816366003689
"Freq [GHz]","IWavePhi [deg]","IWaveTheta [deg]","Phi [deg]","Theta [deg]","re(rEPhi) [uv]","im(rEPhi) [uv]","re(rETheta) [mV]","im(rETheta) [uv]"
1.1388,180,90,-90,90,9.34466182827322,8.04648983610289,-20.0431942427611,-44.4087960494431
"Freq [GHz]","IWavePhi [deg]","IWaveTheta [deg]","Phi [deg]","Theta [deg]","re(rEPhi) [mV]","im(rEPhi) [mV]","re(rETheta) [uv]","im(rETheta) [uv]"
1.1388,180,90,0,0,30.0464741545471,54.7441866023995,1.38775871650939,-1.48534153601429
"Freq [GHz]","IWavePhi [deg]","IWaveTheta [deg]","Phi [deg]","Theta [deg]","re(rEPhi) [mV]","im(rEPhi) [mV]","re(rETheta) [uv]","im(rETheta) [uv]"
1.1388,180,90,0,180,8.11216181532933,44.1439815529166,-6.89481979654819,-18.3984409128595
"Freq [GHz]","IWavePhi [deg]","IWaveTheta [deg]","Phi [deg]","Theta [deg]","re(rEPhi) [mV]","im(rEPhi) [mV]","re(rETheta) [mV]","im(rETheta) [mV]"
1.1388,180,90,45,54.736,17.1062157985092,37.6372078752096,22.7351048579669,21.5163635757918
"Freq [GHz]","IWavePhi [deg]","IWaveTheta [deg]","Phi [deg]","Theta [deg]","re(rEPhi) [mV]","im(rEPhi) [mV]","re(rETheta) [mV]","im(rETheta) [mV]"
1.1388,180,90,135,54.736,-17.1045472589786,-37.623523602466,22.7186712238169,21.5554955918962
"Freq [GHz]","IWavePhi [deg]","IWaveTheta [deg]","Phi [deg]","Theta [deg]","re(rEPhi) [mV]","im(rEPhi) [mV]","re(rETheta) [mV]","im(rETheta) [mV]"
1.1388,180,90,-45,54.736,17.116519884518,37.6424387224621,-22.7723326257072,-21.5974279576005
"Freq [GHz]","IWavePhi [deg]","IWaveTheta [deg]","Phi [deg]","Theta [deg]","re(rEPhi) [mV]","im(rEPhi) [mV]","re(rETheta) [mV]","im(rETheta) [mV]"
1.1388,180,90,45,125.264,8.93217614532368,33.532298710933,6.91611678648841,-19.2400292008554
"Freq [GHz]","IWavePhi [deg]","IWaveTheta [deg]","Phi [deg]","Theta [deg]","re(rEPhi) [mV]","im(rEPhi) [mV]","re(rETheta) [mV]","im(rETheta) [mV]"
1.1388,180,90,-135,54.736,-17.1299200314915,-37.6413639338308,-22.7907190739889,-21.5683412858301
"Freq [GHz]","IWavePhi [deg]","IWaveTheta [deg]","Phi [deg]","Theta [deg]","re(rEPhi) [mV]","im(rEPhi) [mV]","re(rETheta) [mV]","im(rETheta) [mV]"
1.1388,180,90,-45,125.264,8.98152230704203,33.5470770641154,-6.96159388706442,19.2056177964002
"Freq [GHz]","IWavePhi [deg]","IWaveTheta [deg]","Phi [deg]","Theta [deg]","re(rEPhi) [mV]","im(rEPhi) [mV]","re(rETheta) [mV]","im(rETheta) [mV]"
1.1388,180,90,135,125.264,-8.990536432264,-33.5293403805469,6.88373985197263,-19.2478063595696
"Freq [GHz]","IWavePhi [deg]","IWaveTheta [deg]","Phi [deg]","Theta [deg]","re(rEPhi) [mV]","im(rEPhi) [mV]","re(rETheta) [mV]","im(rETheta) [mV]"
1.1388,180,90,-135,125.264,-8.94953862789349,-33.5168510657525,-6.95614052615363,19.2049798972017
"Freq [GHz]","IWavePhi [deg]","IWaveTheta [deg]","Phi [deg]","Theta [deg]","re(rEPhi) [mV]","im(rEPhi) [mV]","re(rETheta) [uv]","im(rETheta) [uv]"
1.1388,180,90,0,90,21.8189778758333,60.7980202485168,-33.5153919078189,-20.8896292674944
"Freq [GHz]","IWavePhi [deg]","IWaveTheta [deg]","Phi [deg]","Theta [deg]","re(rEPhi) [mV]","im(rEPhi) [mV]","re(rETheta) [uv]","im(rETheta) [uv]"
1.1388,180,90,180,90,-21.8097162957786,-60.8102374613362,-24.6517460421436,-54.6089041827555
"Freq [GHz]","IWavePhi [deg]","IWaveTheta [deg]","Phi [deg]","Theta [deg]","re(rEPhi) [uv]","im(rEPhi) [uv]","re(rETheta) [mV]","im(rETheta) [uv]"
1.1388,180,90,90,90,-3.71498735592869,-7.31068997677868,-19.9907125836315,-52.6877125495218
"Freq [GHz]","IWavePhi [deg]","IWaveTheta [deg]","Phi [deg]","Theta [deg]","re(rEPhi) [uv]","im(rEPhi) [uv]","re(rETheta) [mV]","im(rETheta) [uv]"
1.1388,180,90,-90,90,9.1311424477007,8.00970797991154,19.9707090241645,45.3281728205865
"Freq [GHz]","IWavePhi [deg]","IWaveTheta [deg]","Phi [deg]","Theta [deg]","re(rEPhi) [mV]","im(rEPhi) [mV]","re(rETheta) [uv]","im(rETheta) [uv]"
1.1388,180,90,0,0,8.06394541648494,44.2294007643893,-5.34752541203826,-8.3460465004808
"Freq [GHz]","IWavePhi [deg]","IWaveTheta [deg]","Phi [deg]","Theta [deg]","re(rEPhi) [mV]","im(rEPhi) [mV]","re(rETheta) [uv]","im(rETheta) [uv]"
1.1388,180,90,0,180,30.0583754102454,54.7306643317544,-2.1854653889157,-14.3212989119118
"Freq [GHz]","IWavePhi [deg]","IWaveTheta [deg]","Phi [deg]","Theta [deg]","re(rEPhi) [mV]","im(rEPhi) [mV]","re(rETheta) [mV]","im(rETheta) [mV]"
1.1388,180,90,45,54.736,8.9356391992461,33.5736905595041,-6.9124544752257,19.2021634012248
"Freq [GHz]","IWavePhi [deg]","IWaveTheta [deg]","Phi [deg]","Theta [deg]","re(rEPhi) [mV]","im(rEPhi) [mV]","re(rETheta) [mV]","im(rETheta) [mV]"
1.1388,180,90,135,54.736,-8.91365423667601,-33.5556211702731,-6.95204785548567,19.2074604193739
"Freq [GHz]","IWavePhi [deg]","IWaveTheta [deg]","Phi [deg]","Theta [deg]","re(rEPhi) [mV]","im(rEPhi) [mV]","re(rETheta) [mV]","im(rETheta) [mV]"
1.1388,180,90,-45,54.736,8.89845135237736,33.5854527653049,6.93325807785381,-19.2425576938167
"Freq [GHz]","IWavePhi [deg]","IWaveTheta [deg]","Phi [deg]","Theta [deg]","re(rEPhi) [mV]","im(rEPhi) [mV]","re(rETheta) [mV]","im(rETheta) [mV]"
1.1388,180,90,45,125.264,17.1167119015573,37.6033637547174,-22.7368814157923,-21.5367294063316
"Freq [GHz]","IWavePhi [deg]","IWaveTheta [deg]","Phi [deg]","Theta [deg]","re(rEPhi) [mV]","im(rEPhi) [mV]","re(rETheta) [mV]","im(rETheta) [mV]"
1.1388,180,90,-135,54.736,-8.90253680769811,-33.5960074509519,6.93333711649465,-19.2644363855596
"Freq [GHz]","IWavePhi [deg]","IWaveTheta [deg]","Phi [deg]","Theta [deg]","re(rEPhi) [mV]","im(rEPhi) [mV]","re(rETheta) [mV]","im(rETheta) [mV]"
1.1388,180,90,-45,125.264,17.1048168551464,37.6269753223547,22.6978986801975,21.5336059485548
