"Freq [GHz]","IWavePhi [deg]","IWaveTheta [deg]","Phi [deg]","Theta [deg]","re(rEPhi) [mV]","im(rEPhi) [mV]","re(rETheta) [uv]","im(rETheta) [uv]"
1.0676,180,90,0,90,25.8267241692864,79.9908690676346,-14.2182926474581,-25.8931815104875
"Freq [GHz]","IWavePhi [deg]","IWaveTheta [deg]","Phi [deg]","Theta [deg]","re(rEPhi) [mV]","im(rEPhi) [mV]","re(rETheta) [uv]","im(rETheta) [uv]"
1.0676,180,90,180,90,-25.8342811962774,-79.9611482631468,7.83100133121537,-34.1159339617054
"Freq [GHz]","IWavePhi [deg]","IWaveTheta [deg]","Phi [deg]","Theta [deg]","re(rEPhi) [uv]","im(rEPhi) [uv]","re(rETheta) [uv]","im(rETheta) [uv]"
1.0676,180,90,90,90,-6.18666344286996,-8.58228563584103,-27.8440154620975,1.69729751281389
"Freq [GHz]","IWavePhi [deg]","IWaveTheta [deg]","Phi [deg]","Theta [deg]","re(rEPhi) [uv]","im(rEPhi) [uv]","re(rETheta) [uv]","im(rETheta) [uv]"
1.0676,180,90,-90,90,-7.2945241048569,11.3187827023111,9.8487138356939,-9.92765316272752
"Freq [GHz]","IWavePhi [deg]","IWaveTheta [deg]","Phi [deg]","Theta [deg]","re(rEPhi) [mV]","im(rEPhi) [mV]","re(rETheta) [uv]","im(rETheta) [uv]"
1.0676,180,90,0,0,20.5128100523853,66.6735563305744,-4.96071963345668,-6.58837365944238
"Freq [GHz]","IWavePhi [deg]","IWaveTheta [deg]","Phi [deg]","Theta [deg]","re(rEPhi) [mV]","im(rEPhi) [mV]","re(rETheta) [uv]","im(rETheta) [uv]"
1.0676,180,90,0,180,20.5695295663279,66.7099216408651,11.7408271193056,-14.4571469335684
"Freq [GHz]","IWavePhi [deg]","IWaveTheta [deg]","Phi [deg]","Theta [deg]","re(rEPhi) [mV]","im(rEPhi) [mV]","re(rETheta) [mV]","im(rETheta) [mV]"
1.0676,180,90,45,54.736,15.2676237318205,47.6742363848144,8.58361900960382,27.2984944734473
"Freq [GHz]","IWavePhi [deg]","IWaveTheta [deg]","Phi [deg]","Theta [deg]","re(rEPhi) [mV]","im(rEPhi) [mV]","re(rETheta) [mV]","im(rETheta) [mV]"
1.0676,180,90,135,54.736,-15.275353492117,-47.6554187689923,8.54279157596242,27.3130887907223
"Freq [GHz]","IWavePhi [deg]","IWaveTheta [deg]","Phi [deg]","Theta [deg]","re(rEPhi) [mV]","im(rEPhi) [mV]","re(rETheta) [mV]","im(rETheta) [mV]"
1.0676,180,90,-45,54.736,15.2854614751747,47.6447331078508,-8.54230219512528,-27.3284706676209
"Freq [GHz]","IWavePhi [deg]","IWaveTheta [deg]","Phi [deg]","Theta [deg]","re(rEPhi) [mV]","im(rEPhi) [mV]","re(rETheta) [mV]","im(rETheta) [mV]"
1.0676,180,90,45,125.264,15.3073565516157,47.6368104845818,-8.61054312565241,-27.2963944171211
"Freq [GHz]","IWavePhi [deg]","IWaveTheta [deg]","Phi [deg]","Theta [deg]","re(rEPhi) [mV]","im(rEPhi) [mV]","re(rETheta) [mV]","im(rETheta) [mV]"
1.0676,180,90,-135,54.736,-15.3100225966316,-47.6878069548577,-8.56386643750633,-27.3337197052756
"Freq [GHz]","IWavePhi [deg]","IWaveTheta [deg]","Phi [deg]","Theta [deg]","re(rEPhi) [mV]","im(rEPhi) [mV]","re(rETheta) [mV]","im(rETheta) [mV]"
1.0676,180,90,-45,125.264,15.3141900801807,47.6436642852548,8.59326501443804,27.2585006820712
"Freq [GHz]","IWavePhi [deg]","IWaveTheta [deg]","Phi [deg]","Theta [deg]","re(rEPhi) [mV]","im(rEPhi) [mV]","re(rETheta) [mV]","im(rETheta) [mV]"
1.0676,180,90,135,125.264,-15.3395759308789,-47.6385492894091,-8.61075552069167,-27.2997757664545
"Freq [GHz]","IWavePhi [deg]","IWaveTheta [deg]","Phi [deg]","Theta [deg]","re(rEPhi) [mV]","im(rEPhi) [mV]","re(rETheta) [mV]","im(rETheta) [mV]"
1.0676,180,90,-135,125.264,-15.3143488954162,-47.6289211918548,8.57438779839284,27.2674034795037
"Freq [GHz]","IWavePhi [deg]","IWaveTheta [deg]","Phi [deg]","Theta [deg]","re(rEPhi) [mV]","im(rEPhi) [mV]","re(rETheta) [uv]","im(rETheta) [uv]"
1.0676,180,90,0,90,-25.8267241692864,-79.9908690676346,14.2182926472354,25.893181497698
"Freq [GHz]","IWavePhi [deg]","IWaveTheta [deg]","Phi [deg]","Theta [deg]","re(rEPhi) [mV]","im(rEPhi) [mV]","re(rETheta) [uv]","im(rETheta) [uv]"
1.0676,180,90,180,90,25.8342811962774,79.9611482631468,-7.83100133154665,34.1159339489748
"Freq [GHz]","IWavePhi [deg]","IWaveTheta [deg]","Phi [deg]","Theta [deg]","re(rEPhi) [uv]","im(rEPhi) [uv]","re(rETheta) [uv]","im(rETheta) [uv]"
1.0676,180,90,90,90,6.18666344341282,8.58228563502482,27.8440154493891,-1.69729751165579
"Freq [GHz]","IWavePhi [deg]","IWaveTheta [deg]","Phi [deg]","Theta [deg]","re(rEPhi) [uv]","im(rEPhi) [uv]","re(rETheta) [uv]","im(rETheta) [uv]"
1.0676,180,90,-90,90,7.29452410431405,-11.3187827031273,-9.84871382289946,9.92765316251285
"Freq [GHz]","IWavePhi [deg]","IWaveTheta [deg]","Phi [deg]","Theta [deg]","re(rEPhi) [mV]","im(rEPhi) [mV]","re(rETheta) [uv]","im(rETheta) [uv]"
1.0676,180,90,0,0,-20.5128100523853,-66.6735563305744,4.9607196324745,6.58837365940783
"Freq [GHz]","IWavePhi [deg]","IWaveTheta [deg]","Phi [deg]","Theta [deg]","re(rEPhi) [mV]","im(rEPhi) [mV]","re(rETheta) [uv]","im(rETheta) [uv]"
1.0676,180,90,0,180,-20.5695295663279,-66.7099216408651,-11.7408271183234,14.4571469335339
"Freq [GHz]","IWavePhi [deg]","IWaveTheta [deg]","Phi [deg]","Theta [deg]","re(rEPhi) [mV]","im(rEPhi) [mV]","re(rETheta) [mV]","im(rETheta) [mV]"
1.0676,180,90,45,54.736,-15.267623731821,-47.674236384814,-8.58361900961416,-27.2984944734447
"Freq [GHz]","IWavePhi [deg]","IWaveTheta [deg]","Phi [deg]","Theta [deg]","re(rEPhi) [mV]","im(rEPhi) [mV]","re(rETheta) [mV]","im(rETheta) [mV]"
1.0676,180,90,135,54.736,15.2753534921164,47.6554187689919,-8.54279157596625,-27.3130887907132
"Freq [GHz]","IWavePhi [deg]","IWaveTheta [deg]","Phi [deg]","Theta [deg]","re(rEPhi) [mV]","im(rEPhi) [mV]","re(rETheta) [mV]","im(rETheta) [mV]"
1.0676,180,90,-45,54.736,-15.2854614751741,-47.6447331078504,8.54230219512605,27.3284706676105
"Freq [GHz]","IWavePhi [deg]","IWaveTheta [deg]","Phi [deg]","Theta [deg]","re(rEPhi) [mV]","im(rEPhi) [mV]","re(rETheta) [mV]","im(rETheta) [mV]"
1.0676,180,90,45,125.264,-15.3073565516157,-47.6368104845811,8.61054312566144,27.2963944171154
"Freq [GHz]","IWavePhi [deg]","IWaveTheta [deg]","Phi [deg]","Theta [deg]","re(rEPhi) [mV]","im(rEPhi) [mV]","re(rETheta) [mV]","im(rETheta) [mV]"
1.0676,180,90,-135,54.736,15.3100225966315,47.6878069548584,8.56386643749809,27.3337197052696
"Freq [GHz]","IWavePhi [deg]","IWaveTheta [deg]","Phi [deg]","Theta [deg]","re(rEPhi) [mV]","im(rEPhi) [mV]","re(rETheta) [mV]","im(rETheta) [mV]"
1.0676,180,90,-45,125.264,-15.3141900801801,-47.6436642852551,-8.59326501443555,-27.2585006820604
"Freq [GHz]","IWavePhi [deg]","IWaveTheta [deg]","Phi [deg]","Theta [deg]","re(rEPhi) [mV]","im(rEPhi) [mV]","re(rETheta) [mV]","im(rETheta) [mV]"
1.0676,180,90,135,125.264,15.3395759308783,47.6385492894094,8.61075552069244,27.2997757664441
"Freq [GHz]","IWavePhi [deg]","IWaveTheta [deg]","Phi [deg]","Theta [deg]","re(rEPhi) [mV]","im(rEPhi) [mV]","re(rETheta) [mV]","im(rETheta) [mV]"
1.0676,180,90,-135,125.264,15.3143488954167,47.6289211918552,-8.57438779838319,-27.2674034795005
"Freq [GHz]","IWavePhi [deg]","IWaveTheta [deg]","Phi [deg]","Theta [deg]","re(rEPhi) [V]","im(rEPhi) [V]","re(rETheta) [V]","im(rETheta) [V]"
1.0676,180,90,0,90,2.33842263032115e-18,7.04435245037544e-18,-3.37088037155145e-18,1.27039448615461e-18
"Freq [GHz]","IWavePhi [deg]","IWaveTheta [deg]","Phi [deg]","Theta [deg]","re(rEPhi) [V]","im(rEPhi) [V]","re(rETheta) [V]","im(rETheta) [V]"
1.0676,180,90,180,90,-2.33802749620935e-18,-7.04096120583551e-18,-3.37068187312388e-18,1.26860095810406e-18
"Freq [GHz]","IWavePhi [deg]","IWaveTheta [deg]","Phi [deg]","Theta [deg]","re(rEPhi) [V]","im(rEPhi) [V]","re(rETheta) [V]","im(rETheta) [V]"
1.0676,180,90,90,90,3.00556164013281e-22,-1.31377131229591e-21,-2.01698597572951e-18,8.47593483523572e-19
"Freq [GHz]","IWavePhi [deg]","IWaveTheta [deg]","Phi [deg]","Theta [deg]","re(rEPhi) [V]","im(rEPhi) [V]","re(rETheta) [V]","im(rETheta) [V]"
1.0676,180,90,-90,90,-5.59625315237469e-22,9.40657251431477e-22,4.08286446411636e-19,2.5980423687768e-19
"Freq [GHz]","IWavePhi [deg]","IWaveTheta [deg]","Phi [deg]","Theta [deg]","re(rEPhi) [V]","im(rEPhi) [V]","re(rETheta) [V]","im(rETheta) [V]"
1.0676,180,90,0,0,4.68350814438335e-18,5.94502953203422e-18,1.32471937069903e-22,-5.11276432173958e-22
"Freq [GHz]","IWavePhi [deg]","IWaveTheta [deg]","Phi [deg]","Theta [deg]","re(rEPhi) [V]","im(rEPhi) [V]","re(rETheta) [V]","im(rETheta) [V]"
1.0676,180,90,0,180,-9.50474794233181e-19,5.7991015725021e-18,4.13470088991073e-22,-1.07863005525987e-21
"Freq [GHz]","IWavePhi [deg]","IWaveTheta [deg]","Phi [deg]","Theta [deg]","re(rEPhi) [V]","im(rEPhi) [V]","re(rETheta) [V]","im(rETheta) [V]"
1.0676,180,90,45,54.736,1.57185160795947e-18,4.29359446634527e-18,-1.75182357489072e-18,3.43105723269987e-18
"Freq [GHz]","IWavePhi [deg]","IWaveTheta [deg]","Phi [deg]","Theta [deg]","re(rEPhi) [V]","im(rEPhi) [V]","re(rETheta) [V]","im(rETheta) [V]"
1.0676,180,90,135,54.736,-1.57458608273107e-18,-4.29220067055032e-18,-1.75445222033625e-18,3.43121650330328e-18
"Freq [GHz]","IWavePhi [deg]","IWaveTheta [deg]","Phi [deg]","Theta [deg]","re(rEPhi) [V]","im(rEPhi) [V]","re(rETheta) [V]","im(rETheta) [V]"
1.0676,180,90,-45,54.736,3.30632862165806e-18,4.15629775945759e-18,-3.0520796153869e-18,-1.7637508762812e-18
"Freq [GHz]","IWavePhi [deg]","IWaveTheta [deg]","Phi [deg]","Theta [deg]","re(rEPhi) [V]","im(rEPhi) [V]","re(rETheta) [V]","im(rETheta) [V]"
1.0676,180,90,45,125.264,-1.43148146496444e-18,4.3088164619195e-18,-1.74933588081805e-18,-1.50627785486395e-18
"Freq [GHz]","IWavePhi [deg]","IWaveTheta [deg]","Phi [deg]","Theta [deg]","re(rEPhi) [V]","im(rEPhi) [V]","re(rETheta) [V]","im(rETheta) [V]"
1.0676,180,90,-135,54.736,-3.30942976408179e-18,-4.15942964197182e-18,-3.05583670385238e-18,-1.76331702381739e-18
"Freq [GHz]","IWavePhi [deg]","IWaveTheta [deg]","Phi [deg]","Theta [deg]","re(rEPhi) [V]","im(rEPhi) [V]","re(rETheta) [V]","im(rETheta) [V]"
1.0676,180,90,-45,125.264,1.83034594661445e-18,4.02838901744199e-18,-1.07918084753889e-19,2.91664912732623e-18
"Freq [GHz]","IWavePhi [deg]","IWaveTheta [deg]","Phi [deg]","Theta [deg]","re(rEPhi) [V]","im(rEPhi) [V]","re(rETheta) [V]","im(rETheta) [V]"
1.0676,180,90,135,125.264,1.42739223760053e-18,-4.30920471788397e-18,-1.74958090715674e-18,-1.50777144861447e-18
"Freq [GHz]","IWavePhi [deg]","IWaveTheta [deg]","Phi [deg]","Theta [deg]","re(rEPhi) [V]","im(rEPhi) [V]","re(rETheta) [V]","im(rETheta) [V]"
1.0676,180,90,-135,125.264,-1.83221932397558e-18,-4.0274174607277e-18,-1.08931181694016e-19,2.91543462380188e-18
"Freq [GHz]","IWavePhi [deg]","IWaveTheta [deg]","Phi [deg]","Theta [deg]","re(rEPhi) [V]","im(rEPhi) [V]","re(rETheta) [V]","im(rETheta) [V]"
1.0676,180,90,0,90,3.50354800379619e-21,-9.07201153723481e-22,3.37527181407027e-18,-1.25797621974544e-18
"Freq [GHz]","IWavePhi [deg]","IWaveTheta [deg]","Phi [deg]","Theta [deg]","re(rEPhi) [V]","im(rEPhi) [V]","re(rETheta) [V]","im(rETheta) [V]"
1.0676,180,90,180,90,-2.73176775240098e-21,1.51744794212339e-21,3.37743379227348e-18,-1.25857645919504e-18
"Freq [GHz]","IWavePhi [deg]","IWaveTheta [deg]","Phi [deg]","Theta [deg]","re(rEPhi) [V]","im(rEPhi) [V]","re(rETheta) [V]","im(rETheta) [V]"
1.0676,180,90,90,90,4.77413706342023e-22,1.17598363179974e-21,-4.02298100152747e-19,-2.46474410561974e-19
"Freq [GHz]","IWavePhi [deg]","IWaveTheta [deg]","Phi [deg]","Theta [deg]","re(rEPhi) [V]","im(rEPhi) [V]","re(rETheta) [V]","im(rETheta) [V]"
1.0676,180,90,-90,90,-6.05322600509952e-22,-6.21616185710534e-22,2.01582954701801e-18,-8.48350764450744e-19
"Freq [GHz]","IWavePhi [deg]","IWaveTheta [deg]","Phi [deg]","Theta [deg]","re(rEPhi) [V]","im(rEPhi) [V]","re(rETheta) [V]","im(rETheta) [V]"
1.0676,180,90,0,0,2.82053765301709e-18,7.28013479356692e-20,-4.49459523826971e-22,1.76321794945537e-22
"Freq [GHz]","IWavePhi [deg]","IWaveTheta [deg]","Phi [deg]","Theta [deg]","re(rEPhi) [V]","im(rEPhi) [V]","re(rETheta) [V]","im(rETheta) [V]"
1.0676,180,90,0,180,-2.81601195233641e-18,-7.67003573688039e-20,3.63036013767888e-22,-2.39746300803944e-22
"Freq [GHz]","IWavePhi [deg]","IWaveTheta [deg]","Phi [deg]","Theta [deg]","re(rEPhi) [V]","im(rEPhi) [V]","re(rETheta) [V]","im(rETheta) [V]"
1.0676,180,90,45,54.736,7.40531474808815e-19,6.4827543894582e-20,1.59121161608281e-18,-5.65230905438419e-19
"Freq [GHz]","IWavePhi [deg]","IWaveTheta [deg]","Phi [deg]","Theta [deg]","re(rEPhi) [V]","im(rEPhi) [V]","re(rETheta) [V]","im(rETheta) [V]"
1.0676,180,90,135,54.736,-7.42049178684691e-19,-6.57355436664301e-20,1.59079941690482e-18,-5.65570669695555e-19
"Freq [GHz]","IWavePhi [deg]","IWaveTheta [deg]","Phi [deg]","Theta [deg]","re(rEPhi) [V]","im(rEPhi) [V]","re(rETheta) [V]","im(rETheta) [V]"
1.0676,180,90,-45,54.736,1.50259281578509e-18,-9.99952782529027e-21,1.75241214195713e-18,-9.56208077078173e-19
"Freq [GHz]","IWavePhi [deg]","IWaveTheta [deg]","Phi [deg]","Theta [deg]","re(rEPhi) [V]","im(rEPhi) [V]","re(rETheta) [V]","im(rETheta) [V]"
1.0676,180,90,45,125.264,-7.36426493882352e-19,-6.51798884657462e-20,1.58613833694673e-18,-5.66187336828077e-19
"Freq [GHz]","IWavePhi [deg]","IWaveTheta [deg]","Phi [deg]","Theta [deg]","re(rEPhi) [V]","im(rEPhi) [V]","re(rETheta) [V]","im(rETheta) [V]"
1.0676,180,90,-135,54.736,-1.5033955720623e-18,1.08045207779315e-20,1.75293283074583e-18,-9.57919423236136e-19
"Freq [GHz]","IWavePhi [deg]","IWaveTheta [deg]","Phi [deg]","Theta [deg]","re(rEPhi) [V]","im(rEPhi) [V]","re(rETheta) [V]","im(rETheta) [V]"
1.0676,180,90,-45,125.264,-1.5022440644768e-18,1.01605128132774e-20,1.75377359641042e-18,-9.57452099818156e-19
"Freq [GHz]","IWavePhi [deg]","IWaveTheta [deg]","Phi [deg]","Theta [deg]","re(rEPhi) [V]","im(rEPhi) [V]","re(rETheta) [V]","im(rETheta) [V]"
1.0676,180,90,135,125.264,7.34603793207507e-19,6.4775887305846e-20,1.585354776428e-18,-5.66214066773572e-19
"Freq [GHz]","IWavePhi [deg]","IWaveTheta [deg]","Phi [deg]","Theta [deg]","re(rEPhi) [V]","im(rEPhi) [V]","re(rETheta) [V]","im(rETheta) [V]"
1.0676,180,90,-135,125.264,1.50135840948301e-18,-8.10467132028584e-21,1.75384363668562e-18,-9.56223845657565e-19
"Freq [GHz]","IWavePhi [deg]","IWaveTheta [deg]","Phi [deg]","Theta [deg]","re(rEPhi) [mV]","im(rEPhi) [mV]","re(rETheta) [uv]","im(rETheta) [uv]"
1.0676,180,90,0,90,20.5467278198662,66.6149987954397,-13.603660900979,-34.7314475531814
"Freq [GHz]","IWavePhi [deg]","IWaveTheta [deg]","Phi [deg]","Theta [deg]","re(rEPhi) [mV]","im(rEPhi) [mV]","re(rETheta) [uv]","im(rETheta) [uv]"
1.0676,180,90,180,90,-20.5500683509711,-66.5836583322685,-4.31319375583013,-27.582375421966
"Freq [GHz]","IWavePhi [deg]","IWaveTheta [deg]","Phi [deg]","Theta [deg]","re(rEPhi) [uv]","im(rEPhi) [uv]","re(rETheta) [mV]","im(rETheta) [uv]"
1.0676,180,90,90,90,-4.31899103998773,-4.09610622893465,17.4989267480447,459.154792173837
"Freq [GHz]","IWavePhi [deg]","IWaveTheta [deg]","Phi [deg]","Theta [deg]","re(rEPhi) [uv]","im(rEPhi) [uv]","re(rETheta) [mV]","im(rETheta) [uv]"
1.0676,180,90,-90,90,-6.5154065008001,9.1837387509357,-17.5235083900527,-476.094661693287
"Freq [GHz]","IWavePhi [deg]","IWaveTheta [deg]","Phi [deg]","Theta [deg]","re(rEPhi) [mV]","im(rEPhi) [mV]","re(rETheta) [uv]","im(rETheta) [uv]"
1.0676,180,90,0,0,28.7503791242292,59.3137419271623,-3.62562356213907,-1.68819827284105
"Freq [GHz]","IWavePhi [deg]","IWaveTheta [deg]","Phi [deg]","Theta [deg]","re(rEPhi) [mV]","im(rEPhi) [mV]","re(rETheta) [uv]","im(rETheta) [uv]"
1.0676,180,90,0,180,7.46624046077792,51.7710436540113,8.66206398832277,-15.1448244707819
"Freq [GHz]","IWavePhi [deg]","IWaveTheta [deg]","Phi [deg]","Theta [deg]","re(rEPhi) [mV]","im(rEPhi) [mV]","re(rETheta) [mV]","im(rETheta) [mV]"
1.0676,180,90,45,54.736,16.5588651721465,41.1908512005065,20.4090420791139,23.8858972520995
"Freq [GHz]","IWavePhi [deg]","IWaveTheta [deg]","Phi [deg]","Theta [deg]","re(rEPhi) [mV]","im(rEPhi) [mV]","re(rETheta) [mV]","im(rETheta) [mV]"
1.0676,180,90,135,54.736,-16.5696325133509,-41.1774043966137,20.3769875992447,23.9113336809113
"Freq [GHz]","IWavePhi [deg]","IWaveTheta [deg]","Phi [deg]","Theta [deg]","re(rEPhi) [mV]","im(rEPhi) [mV]","re(rETheta) [mV]","im(rETheta) [mV]"
1.0676,180,90,-45,54.736,16.5809270553862,41.1582866993019,-20.3947896232429,-23.9273840830078
"Freq [GHz]","IWavePhi [deg]","IWaveTheta [deg]","Phi [deg]","Theta [deg]","re(rEPhi) [mV]","im(rEPhi) [mV]","re(rETheta) [mV]","im(rETheta) [mV]"
1.0676,180,90,45,125.264,8.53202779506298,38.1974005013118,5.31596671670425,-21.5905898345369
"Freq [GHz]","IWavePhi [deg]","IWaveTheta [deg]","Phi [deg]","Theta [deg]","re(rEPhi) [mV]","im(rEPhi) [mV]","re(rETheta) [mV]","im(rETheta) [mV]"
1.0676,180,90,-135,54.736,-16.6056233121133,-41.1930864844545,-20.4191910113871,-23.9182590996478
"Freq [GHz]","IWavePhi [deg]","IWaveTheta [deg]","Phi [deg]","Theta [deg]","re(rEPhi) [mV]","im(rEPhi) [mV]","re(rETheta) [mV]","im(rETheta) [mV]"
1.0676,180,90,-45,125.264,8.54701524966912,38.2004702221186,-5.34347841129975,21.540971346278
"Freq [GHz]","IWavePhi [deg]","IWaveTheta [deg]","Phi [deg]","Theta [deg]","re(rEPhi) [mV]","im(rEPhi) [mV]","re(rETheta) [mV]","im(rETheta) [mV]"
1.0676,180,90,135,125.264,-8.55925501717146,-38.1994584614527,5.30554493194771,-21.5942907210871
"Freq [GHz]","IWavePhi [deg]","IWaveTheta [deg]","Phi [deg]","Theta [deg]","re(rEPhi) [mV]","im(rEPhi) [mV]","re(rETheta) [mV]","im(rETheta) [mV]"
1.0676,180,90,-135,125.264,-8.54828457305574,-38.1817819080013,-5.34754667656382,21.5437149439811
"Freq [GHz]","IWavePhi [deg]","IWaveTheta [deg]","Phi [deg]","Theta [deg]","re(rEPhi) [mV]","im(rEPhi) [mV]","re(rETheta) [uv]","im(rETheta) [uv]"
1.0676,180,90,0,90,20.5424868496668,66.6130340919037,-10.2511703465553,-8.77853118144585
"Freq [GHz]","IWavePhi [deg]","IWaveTheta [deg]","Phi [deg]","Theta [deg]","re(rEPhi) [mV]","im(rEPhi) [mV]","re(rETheta) [uv]","im(rETheta) [uv]"
1.0676,180,90,180,90,-20.5513518242337,-66.5942951124099,17.2421964718661,-30.1577172494738
"Freq [GHz]","IWavePhi [deg]","IWaveTheta [deg]","Phi [deg]","Theta [deg]","re(rEPhi) [uv]","im(rEPhi) [uv]","re(rETheta) [mV]","im(rETheta) [uv]"
1.0676,180,90,90,90,-5.91367732310297,-10.2532814489891,-17.5448241417983,-457.478432778032
"Freq [GHz]","IWavePhi [deg]","IWaveTheta [deg]","Phi [deg]","Theta [deg]","re(rEPhi) [uv]","im(rEPhi) [uv]","re(rETheta) [mV]","im(rETheta) [uv]"
1.0676,180,90,-90,90,-5.70366276921087,10.0297211067738,17.5404724026163,460.211982762579
"Freq [GHz]","IWavePhi [deg]","IWaveTheta [deg]","Phi [deg]","Theta [deg]","re(rEPhi) [mV]","im(rEPhi) [mV]","re(rETheta) [uv]","im(rETheta) [uv]"
1.0676,180,90,0,0,7.42195581439738,51.754208915123,-4.66579166028812,-9.3383381766857
"Freq [GHz]","IWavePhi [deg]","IWaveTheta [deg]","Phi [deg]","Theta [deg]","re(rEPhi) [mV]","im(rEPhi) [mV]","re(rETheta) [uv]","im(rETheta) [uv]"
1.0676,180,90,0,180,28.7994198726109,59.3599474244141,11.0452372924397,-8.5682861495834
"Freq [GHz]","IWavePhi [deg]","IWaveTheta [deg]","Phi [deg]","Theta [deg]","re(rEPhi) [mV]","im(rEPhi) [mV]","re(rETheta) [mV]","im(rETheta) [mV]"
1.0676,180,90,45,54.736,8.50948892649412,38.2193469608203,-5.3317147669981,21.586392851024
"Freq [GHz]","IWavePhi [deg]","IWaveTheta [deg]","Phi [deg]","Theta [deg]","re(rEPhi) [mV]","im(rEPhi) [mV]","re(rETheta) [mV]","im(rETheta) [mV]"
1.0676,180,90,135,54.736,-8.51211853916041,-38.2019942836261,-5.36743128644907,21.5847703296659
"Freq [GHz]","IWavePhi [deg]","IWaveTheta [deg]","Phi [deg]","Theta [deg]","re(rEPhi) [mV]","im(rEPhi) [mV]","re(rETheta) [mV]","im(rETheta) [mV]"
1.0676,180,90,-45,54.736,8.51657713889918,38.1974580129771,5.38778622282766,-21.5897770921611
"Freq [GHz]","IWavePhi [deg]","IWaveTheta [deg]","Phi [deg]","Theta [deg]","re(rEPhi) [mV]","im(rEPhi) [mV]","re(rETheta) [mV]","im(rETheta) [mV]"
1.0676,180,90,45,125.264,16.6033529828419,41.1519825995248,-20.4373093870693,-23.8796457520374
"Freq [GHz]","IWavePhi [deg]","IWaveTheta [deg]","Phi [deg]","Theta [deg]","re(rEPhi) [mV]","im(rEPhi) [mV]","re(rETheta) [mV]","im(rETheta) [mV]"
1.0676,180,90,-135,54.736,-8.53276404793847,-38.2341399973657,5.37628701238995,-21.6081835345853
"Freq [GHz]","IWavePhi [deg]","IWaveTheta [deg]","Phi [deg]","Theta [deg]","re(rEPhi) [mV]","im(rEPhi) [mV]","re(rETheta) [mV]","im(rETheta) [mV]"
1.0676,180,90,-45,125.264,16.5983117504855,41.15397828534,20.4362585766411,23.8608783991354
