"Freq [GHz]","IWavePhi [deg]","IWaveTheta [deg]","Phi [deg]","Theta [deg]","re(rEPhi) [mV]","im(rEPhi) [mV]","re(rETheta) [uv]","im(rETheta) [uv]"
0.7118,180,90,0,90,-56.1207086869259,65.421915720524,13.3537485293521,-22.0616246226508
"Freq [GHz]","IWavePhi [deg]","IWaveTheta [deg]","Phi [deg]","Theta [deg]","re(rEPhi) [mV]","im(rEPhi) [mV]","re(rETheta) [nV]","im(rETheta) [uv]"
0.7118,180,90,180,90,56.1580181399838,-65.4207698207545,-919.135647418004,-17.0115252774027
"Freq [GHz]","IWavePhi [deg]","IWaveTheta [deg]","Phi [deg]","Theta [deg]","re(rEPhi) [uv]","im(rEPhi) [uv]","re(rETheta) [uv]","im(rETheta) [uv]"
0.7118,180,90,90,90,6.00434042032341,4.80069026577566,15.4256120048919,-4.55929515030215
"Freq [GHz]","IWavePhi [deg]","IWaveTheta [deg]","Phi [deg]","Theta [deg]","re(rEPhi) [uv]","im(rEPhi) [uv]","re(rETheta) [uv]","im(rETheta) [uv]"
0.7118,180,90,-90,90,3.73339605531062,2.6253203739611,6.37933622701333,-21.8343370585374
"Freq [GHz]","IWavePhi [deg]","IWaveTheta [deg]","Phi [deg]","Theta [deg]","re(rEPhi) [mV]","im(rEPhi) [mV]","re(rETheta) [uv]","im(rETheta) [uv]"
0.7118,180,90,0,0,-51.9975469084635,60.325916723069,-5.14748728757428,1.35606773477004
"Freq [GHz]","IWavePhi [deg]","IWaveTheta [deg]","Phi [deg]","Theta [deg]","re(rEPhi) [mV]","im(rEPhi) [mV]","re(rETheta) [uv]","im(rETheta) [uv]"
0.7118,180,90,0,180,-51.9696442104252,60.3470011681979,-8.23875428525147,-6.54200636010818
"Freq [GHz]","IWavePhi [deg]","IWaveTheta [deg]","Phi [deg]","Theta [deg]","re(rEPhi) [mV]","im(rEPhi) [mV]","re(rETheta) [mV]","im(rETheta) [mV]"
0.7118,180,90,45,54.736,-36.9411890985558,42.8040849194305,-21.2455309542367,24.5745345642653
"Freq [GHz]","IWavePhi [deg]","IWaveTheta [deg]","Phi [deg]","Theta [deg]","re(rEPhi) [mV]","im(rEPhi) [mV]","re(rETheta) [mV]","im(rETheta) [mV]"
0.7118,180,90,135,54.736,36.9496402233646,-42.8044355794589,-21.2520350088297,24.5717993179875
"Freq [GHz]","IWavePhi [deg]","IWaveTheta [deg]","Phi [deg]","Theta [deg]","re(rEPhi) [mV]","im(rEPhi) [mV]","re(rETheta) [mV]","im(rETheta) [mV]"
0.7118,180,90,-45,54.736,-36.9543654320273,42.8184083766544,21.2577882700553,-24.6038384554038
"Freq [GHz]","IWavePhi [deg]","IWaveTheta [deg]","Phi [deg]","Theta [deg]","re(rEPhi) [mV]","im(rEPhi) [mV]","re(rETheta) [mV]","im(rETheta) [mV]"
0.7118,180,90,45,125.264,-36.952255377151,42.830444694285,21.2678647068802,-24.5954713843053
"Freq [GHz]","IWavePhi [deg]","IWaveTheta [deg]","Phi [deg]","Theta [deg]","re(rEPhi) [mV]","im(rEPhi) [mV]","re(rETheta) [mV]","im(rETheta) [mV]"
0.7118,180,90,-135,54.736,36.9212187278388,-42.8282010474117,21.247575465645,-24.6127024700345
"Freq [GHz]","IWavePhi [deg]","IWaveTheta [deg]","Phi [deg]","Theta [deg]","re(rEPhi) [mV]","im(rEPhi) [mV]","re(rETheta) [mV]","im(rETheta) [mV]"
0.7118,180,90,-45,125.264,-36.925486945355,42.8149764402052,-21.2351572687099,24.5738956994625
"Freq [GHz]","IWavePhi [deg]","IWaveTheta [deg]","Phi [deg]","Theta [deg]","re(rEPhi) [mV]","im(rEPhi) [mV]","re(rETheta) [mV]","im(rETheta) [mV]"
0.7118,180,90,135,125.264,36.9373027940624,-42.808012001448,21.2638951482538,-24.5962163987247
"Freq [GHz]","IWavePhi [deg]","IWaveTheta [deg]","Phi [deg]","Theta [deg]","re(rEPhi) [mV]","im(rEPhi) [mV]","re(rETheta) [mV]","im(rETheta) [mV]"
0.7118,180,90,-135,125.264,36.9257495544742,-42.8108377849212,-21.2376882237302,24.5651916061041
"Freq [GHz]","IWavePhi [deg]","IWaveTheta [deg]","Phi [deg]","Theta [deg]","re(rEPhi) [mV]","im(rEPhi) [mV]","re(rETheta) [uv]","im(rETheta) [uv]"
0.7118,180,90,0,90,56.1207086869259,-65.421915720524,-13.3537485295497,22.0616246225929
"Freq [GHz]","IWavePhi [deg]","IWaveTheta [deg]","Phi [deg]","Theta [deg]","re(rEPhi) [mV]","im(rEPhi) [mV]","re(rETheta) [nV]","im(rETheta) [uv]"
0.7118,180,90,180,90,-56.1580181399838,65.4207698207545,919.135647720219,17.0115252771626
"Freq [GHz]","IWavePhi [deg]","IWaveTheta [deg]","Phi [deg]","Theta [deg]","re(rEPhi) [uv]","im(rEPhi) [uv]","re(rETheta) [uv]","im(rETheta) [uv]"
0.7118,180,90,90,90,-6.0043404203162,-4.80069026577772,-15.4256120047999,4.55929515004511
"Freq [GHz]","IWavePhi [deg]","IWaveTheta [deg]","Phi [deg]","Theta [deg]","re(rEPhi) [uv]","im(rEPhi) [uv]","re(rETheta) [uv]","im(rETheta) [uv]"
0.7118,180,90,-90,90,-3.7333960553168,-2.62532037396007,-6.379336226913,21.8343370581949
"Freq [GHz]","IWavePhi [deg]","IWaveTheta [deg]","Phi [deg]","Theta [deg]","re(rEPhi) [mV]","im(rEPhi) [mV]","re(rETheta) [uv]","im(rETheta) [uv]"
0.7118,180,90,0,0,51.9975469084635,-60.325916723069,5.14748728757261,-1.35606773477455
"Freq [GHz]","IWavePhi [deg]","IWaveTheta [deg]","Phi [deg]","Theta [deg]","re(rEPhi) [mV]","im(rEPhi) [mV]","re(rETheta) [uv]","im(rETheta) [uv]"
0.7118,180,90,0,180,51.9696442104252,-60.3470011681979,8.23875428525662,6.54200636010187
"Freq [GHz]","IWavePhi [deg]","IWaveTheta [deg]","Phi [deg]","Theta [deg]","re(rEPhi) [mV]","im(rEPhi) [mV]","re(rETheta) [mV]","im(rETheta) [mV]"
0.7118,180,90,45,54.736,36.9411890985558,-42.8040849194305,21.2455309542366,-24.5745345642654
"Freq [GHz]","IWavePhi [deg]","IWaveTheta [deg]","Phi [deg]","Theta [deg]","re(rEPhi) [mV]","im(rEPhi) [mV]","re(rETheta) [mV]","im(rETheta) [mV]"
0.7118,180,90,135,54.736,-36.9496402233646,42.8044355794589,21.2520350088296,-24.5717993179871
"Freq [GHz]","IWavePhi [deg]","IWaveTheta [deg]","Phi [deg]","Theta [deg]","re(rEPhi) [mV]","im(rEPhi) [mV]","re(rETheta) [mV]","im(rETheta) [mV]"
0.7118,180,90,-45,54.736,36.9543654320273,-42.8184083766544,-21.2577882700552,24.6038384554041
"Freq [GHz]","IWavePhi [deg]","IWaveTheta [deg]","Phi [deg]","Theta [deg]","re(rEPhi) [mV]","im(rEPhi) [mV]","re(rETheta) [mV]","im(rETheta) [mV]"
0.7118,180,90,45,125.264,36.952255377151,-42.830444694285,-21.2678647068805,24.5954713843052
"Freq [GHz]","IWavePhi [deg]","IWaveTheta [deg]","Phi [deg]","Theta [deg]","re(rEPhi) [mV]","im(rEPhi) [mV]","re(rETheta) [mV]","im(rETheta) [mV]"
0.7118,180,90,-135,54.736,-36.9212187278388,42.8282010474117,-21.2475754656449,24.6127024700343
"Freq [GHz]","IWavePhi [deg]","IWaveTheta [deg]","Phi [deg]","Theta [deg]","re(rEPhi) [mV]","im(rEPhi) [mV]","re(rETheta) [mV]","im(rETheta) [mV]"
0.7118,180,90,-45,125.264,36.925486945355,-42.8149764402052,21.2351572687101,-24.5738956994624
"Freq [GHz]","IWavePhi [deg]","IWaveTheta [deg]","Phi [deg]","Theta [deg]","re(rEPhi) [mV]","im(rEPhi) [mV]","re(rETheta) [mV]","im(rETheta) [mV]"
0.7118,180,90,135,125.264,-36.9373027940624,42.808012001448,-21.2638951482539,24.5962163987248
"Freq [GHz]","IWavePhi [deg]","IWaveTheta [deg]","Phi [deg]","Theta [deg]","re(rEPhi) [mV]","im(rEPhi) [mV]","re(rETheta) [mV]","im(rETheta) [mV]"
0.7118,180,90,-135,125.264,-36.9257495544742,42.8108377849212,21.2376882237305,-24.5651916061041
"Freq [GHz]","IWavePhi [deg]","IWaveTheta [deg]","Phi [deg]","Theta [deg]","re(rEPhi) [V]","im(rEPhi) [V]","re(rETheta) [V]","im(rETheta) [V]"
0.7118,180,90,0,90,-5.91299870681449e-18,6.899285225452e-18,-2.08641684934458e-18,2.7001791962039e-19
"Freq [GHz]","IWavePhi [deg]","IWaveTheta [deg]","Phi [deg]","Theta [deg]","re(rEPhi) [V]","im(rEPhi) [V]","re(rETheta) [V]","im(rETheta) [V]"
0.7118,180,90,180,90,5.91706727734282e-18,-6.89924276335992e-18,-2.08768748562535e-18,2.70984192912741e-19
"Freq [GHz]","IWavePhi [deg]","IWaveTheta [deg]","Phi [deg]","Theta [deg]","re(rEPhi) [V]","im(rEPhi) [V]","re(rETheta) [V]","im(rETheta) [V]"
0.7118,180,90,90,90,5.84488197384695e-22,5.78412020878402e-22,-9.16135185600773e-19,2.41830381246148e-19
"Freq [GHz]","IWavePhi [deg]","IWaveTheta [deg]","Phi [deg]","Theta [deg]","re(rEPhi) [V]","im(rEPhi) [V]","re(rETheta) [V]","im(rETheta) [V]"
0.7118,180,90,-90,90,2.9127257889485e-22,2.5804777412961e-22,-1.64759481341887e-18,1.37108491366333e-19
"Freq [GHz]","IWavePhi [deg]","IWaveTheta [deg]","Phi [deg]","Theta [deg]","re(rEPhi) [V]","im(rEPhi) [V]","re(rETheta) [V]","im(rETheta) [V]"
0.7118,180,90,0,0,-4.18900420452753e-18,6.42681087538366e-18,-6.6991635258171e-22,-1.09085881897494e-22
"Freq [GHz]","IWavePhi [deg]","IWaveTheta [deg]","Phi [deg]","Theta [deg]","re(rEPhi) [V]","im(rEPhi) [V]","re(rETheta) [V]","im(rETheta) [V]"
0.7118,180,90,0,180,-6.76435093158101e-18,6.29914100081768e-18,-8.63614973533942e-22,-7.73871297771305e-22
"Freq [GHz]","IWavePhi [deg]","IWaveTheta [deg]","Phi [deg]","Theta [deg]","re(rEPhi) [V]","im(rEPhi) [V]","re(rETheta) [V]","im(rETheta) [V]"
0.7118,180,90,45,54.736,-3.53047185940195e-18,4.5350155457765e-18,-3.29703961676138e-18,2.82359583524537e-18
"Freq [GHz]","IWavePhi [deg]","IWaveTheta [deg]","Phi [deg]","Theta [deg]","re(rEPhi) [V]","im(rEPhi) [V]","re(rETheta) [V]","im(rETheta) [V]"
0.7118,180,90,135,54.736,3.53149753370879e-18,-4.53520493396895e-18,-3.29740979289749e-18,2.82323727988186e-18
"Freq [GHz]","IWavePhi [deg]","IWaveTheta [deg]","Phi [deg]","Theta [deg]","re(rEPhi) [V]","im(rEPhi) [V]","re(rETheta) [V]","im(rETheta) [V]"
0.7118,180,90,-45,54.736,-3.23930652775393e-18,4.54269050411161e-18,2.13575484024053e-19,-2.4424715669879e-18
"Freq [GHz]","IWavePhi [deg]","IWaveTheta [deg]","Phi [deg]","Theta [deg]","re(rEPhi) [V]","im(rEPhi) [V]","re(rETheta) [V]","im(rETheta) [V]"
0.7118,180,90,45,125.264,-4.7466898293192e-18,4.50050486810783e-18,1.47334406017099e-18,-2.36461636446748e-18
"Freq [GHz]","IWavePhi [deg]","IWaveTheta [deg]","Phi [deg]","Theta [deg]","re(rEPhi) [V]","im(rEPhi) [V]","re(rETheta) [V]","im(rETheta) [V]"
0.7118,180,90,-135,54.736,3.23595308741973e-18,-4.54370942568403e-18,2.12546246635284e-19,-2.44303440726083e-18
"Freq [GHz]","IWavePhi [deg]","IWaveTheta [deg]","Phi [deg]","Theta [deg]","re(rEPhi) [V]","im(rEPhi) [V]","re(rETheta) [V]","im(rETheta) [V]"
0.7118,180,90,-45,125.264,-4.07803336725185e-18,4.48330107276862e-18,-3.98770230450874e-18,2.74114182673937e-18
"Freq [GHz]","IWavePhi [deg]","IWaveTheta [deg]","Phi [deg]","Theta [deg]","re(rEPhi) [V]","im(rEPhi) [V]","re(rETheta) [V]","im(rETheta) [V]"
0.7118,180,90,135,125.264,4.74495202340172e-18,-4.49812503944858e-18,1.47322311887356e-18,-2.36455611631587e-18
"Freq [GHz]","IWavePhi [deg]","IWaveTheta [deg]","Phi [deg]","Theta [deg]","re(rEPhi) [V]","im(rEPhi) [V]","re(rETheta) [V]","im(rETheta) [V]"
0.7118,180,90,-135,125.264,4.07807599811392e-18,-4.48295262789499e-18,-3.98775578605534e-18,2.74004671348154e-18
"Freq [GHz]","IWavePhi [deg]","IWaveTheta [deg]","Phi [deg]","Theta [deg]","re(rEPhi) [V]","im(rEPhi) [V]","re(rETheta) [V]","im(rETheta) [V]"
0.7118,180,90,0,90,-2.27421039573137e-21,1.10962479644967e-21,2.08795851564429e-18,-2.70820319463093e-19
"Freq [GHz]","IWavePhi [deg]","IWaveTheta [deg]","Phi [deg]","Theta [deg]","re(rEPhi) [V]","im(rEPhi) [V]","re(rETheta) [V]","im(rETheta) [V]"
0.7118,180,90,180,90,2.24581128648215e-21,-1.36552436036877e-21,2.08754777398667e-18,-2.71148746360588e-19
"Freq [GHz]","IWavePhi [deg]","IWaveTheta [deg]","Phi [deg]","Theta [deg]","re(rEPhi) [V]","im(rEPhi) [V]","re(rETheta) [V]","im(rETheta) [V]"
0.7118,180,90,90,90,1.44442433888894e-23,-1.60927476797845e-22,1.64908667765273e-18,-1.36757959414768e-19
"Freq [GHz]","IWavePhi [deg]","IWaveTheta [deg]","Phi [deg]","Theta [deg]","re(rEPhi) [V]","im(rEPhi) [V]","re(rETheta) [V]","im(rETheta) [V]"
0.7118,180,90,-90,90,1.1970293521853e-23,1.38171833047774e-22,9.17140791518347e-19,-2.42562525717542e-19
"Freq [GHz]","IWavePhi [deg]","IWaveTheta [deg]","Phi [deg]","Theta [deg]","re(rEPhi) [V]","im(rEPhi) [V]","re(rETheta) [V]","im(rETheta) [V]"
0.7118,180,90,0,0,1.2875157368e-18,6.57592050568132e-20,1.00549045187063e-22,1.77174843015421e-22
"Freq [GHz]","IWavePhi [deg]","IWaveTheta [deg]","Phi [deg]","Theta [deg]","re(rEPhi) [V]","im(rEPhi) [V]","re(rETheta) [V]","im(rETheta) [V]"
0.7118,180,90,0,180,-1.29154247564919e-18,-6.30651170793563e-20,7.81284106472474e-23,8.05077725619442e-23
"Freq [GHz]","IWavePhi [deg]","IWaveTheta [deg]","Phi [deg]","Theta [deg]","re(rEPhi) [V]","im(rEPhi) [V]","re(rETheta) [V]","im(rETheta) [V]"
0.7118,180,90,45,54.736,4.19531724577919e-19,2.99675942950318e-20,1.88724626956802e-18,-1.48622062365093e-19
"Freq [GHz]","IWavePhi [deg]","IWaveTheta [deg]","Phi [deg]","Theta [deg]","re(rEPhi) [V]","im(rEPhi) [V]","re(rETheta) [V]","im(rETheta) [V]"
0.7118,180,90,135,54.736,-4.19544527892464e-19,-3.03377579952969e-20,1.8870543207836e-18,-1.48563183987441e-19
"Freq [GHz]","IWavePhi [deg]","IWaveTheta [deg]","Phi [deg]","Theta [deg]","re(rEPhi) [V]","im(rEPhi) [V]","re(rETheta) [V]","im(rETheta) [V]"
0.7118,180,90,-45,54.736,6.05743710936351e-19,1.97277598631577e-20,9.14012525659628e-19,-2.30252743332807e-19
"Freq [GHz]","IWavePhi [deg]","IWaveTheta [deg]","Phi [deg]","Theta [deg]","re(rEPhi) [V]","im(rEPhi) [V]","re(rETheta) [V]","im(rETheta) [V]"
0.7118,180,90,45,125.264,-4.22393765706431e-19,-2.8668680852206e-20,1.88935950699475e-18,-1.49764144909385e-19
"Freq [GHz]","IWavePhi [deg]","IWaveTheta [deg]","Phi [deg]","Theta [deg]","re(rEPhi) [V]","im(rEPhi) [V]","re(rETheta) [V]","im(rETheta) [V]"
0.7118,180,90,-135,54.736,-6.0590812180257e-19,-1.9746177583162e-20,9.14185081923361e-19,-2.30791110172286e-19
"Freq [GHz]","IWavePhi [deg]","IWaveTheta [deg]","Phi [deg]","Theta [deg]","re(rEPhi) [V]","im(rEPhi) [V]","re(rETheta) [V]","im(rETheta) [V]"
0.7118,180,90,-45,125.264,-6.09040295137856e-19,-1.71250527030716e-20,9.1240920982103e-19,-2.29270019114714e-19
"Freq [GHz]","IWavePhi [deg]","IWaveTheta [deg]","Phi [deg]","Theta [deg]","re(rEPhi) [V]","im(rEPhi) [V]","re(rETheta) [V]","im(rETheta) [V]"
0.7118,180,90,135,125.264,4.22575040879265e-19,2.84336286875768e-20,1.88899129604822e-18,-1.49871847047643e-19
"Freq [GHz]","IWavePhi [deg]","IWaveTheta [deg]","Phi [deg]","Theta [deg]","re(rEPhi) [V]","im(rEPhi) [V]","re(rETheta) [V]","im(rETheta) [V]"
0.7118,180,90,-135,125.264,6.08826066564673e-19,1.72366794515206e-20,9.12276715347122e-19,-2.29325796710167e-19
"Freq [GHz]","IWavePhi [deg]","IWaveTheta [deg]","Phi [deg]","Theta [deg]","re(rEPhi) [mV]","im(rEPhi) [mV]","re(rETheta) [uv]","im(rETheta) [uv]"
0.7118,180,90,0,90,-51.945760546118,60.335249208069,10.6615922069662,-24.2958189729531
"Freq [GHz]","IWavePhi [deg]","IWaveTheta [deg]","Phi [deg]","Theta [deg]","re(rEPhi) [mV]","im(rEPhi) [mV]","re(rETheta) [uv]","im(rETheta) [uv]"
0.7118,180,90,180,90,51.9807177367719,-60.3351326023239,-3.60432320247614,-19.3297822761624
"Freq [GHz]","IWavePhi [deg]","IWaveTheta [deg]","Phi [deg]","Theta [deg]","re(rEPhi) [uv]","im(rEPhi) [uv]","re(rETheta) [mV]","im(rETheta) [uv]"
0.7118,180,90,90,90,5.18552815925557,4.07101131176583,8.03278611227918,400.725015604489
"Freq [GHz]","IWavePhi [deg]","IWaveTheta [deg]","Phi [deg]","Theta [deg]","re(rEPhi) [uv]","im(rEPhi) [uv]","re(rETheta) [mV]","im(rETheta) [uv]"
0.7118,180,90,-90,90,3.39098637116026,2.96182379855325,-8.01370270200263,-428.314841920437
"Freq [GHz]","IWavePhi [deg]","IWaveTheta [deg]","Phi [deg]","Theta [deg]","re(rEPhi) [mV]","im(rEPhi) [mV]","re(rETheta) [uv]","im(rETheta) [uv]"
0.7118,180,90,0,0,-40.868294895434,56.2438502984625,-4.84268389177903,1.09040824132796
"Freq [GHz]","IWavePhi [deg]","IWaveTheta [deg]","Phi [deg]","Theta [deg]","re(rEPhi) [mV]","im(rEPhi) [mV]","re(rETheta) [uv]","im(rETheta) [uv]"
0.7118,180,90,0,180,-54.5797698297087,55.0478625990655,-7.58945678554421,-5.9958589057771
"Freq [GHz]","IWavePhi [deg]","IWaveTheta [deg]","Phi [deg]","Theta [deg]","re(rEPhi) [mV]","im(rEPhi) [mV]","re(rETheta) [mV]","im(rETheta) [mV]"
0.7118,180,90,45,54.736,-31.3880203982878,39.7065836116706,-13.7531546689778,22.9919464469673
"Freq [GHz]","IWavePhi [deg]","IWaveTheta [deg]","Phi [deg]","Theta [deg]","re(rEPhi) [mV]","im(rEPhi) [mV]","re(rETheta) [mV]","im(rETheta) [mV]"
0.7118,180,90,135,54.736,31.3957717829241,-39.7086765676542,-13.7588806538506,22.9886107414025
"Freq [GHz]","IWavePhi [deg]","IWaveTheta [deg]","Phi [deg]","Theta [deg]","re(rEPhi) [mV]","im(rEPhi) [mV]","re(rETheta) [mV]","im(rETheta) [mV]"
0.7118,180,90,-45,54.736,-31.3995016582244,39.7218694376498,13.7627632773184,-23.0222717442912
"Freq [GHz]","IWavePhi [deg]","IWaveTheta [deg]","Phi [deg]","Theta [deg]","re(rEPhi) [mV]","im(rEPhi) [mV]","re(rETheta) [mV]","im(rETheta) [mV]"
0.7118,180,90,45,125.264,-36.8304393970034,39.2692328598091,25.2805465417622,-22.3563971907004
"Freq [GHz]","IWavePhi [deg]","IWaveTheta [deg]","Phi [deg]","Theta [deg]","re(rEPhi) [mV]","im(rEPhi) [mV]","re(rETheta) [mV]","im(rETheta) [mV]"
0.7118,180,90,-135,54.736,31.3689523436159,-39.7305880998539,13.7540036465675,-23.0322756928057
"Freq [GHz]","IWavePhi [deg]","IWaveTheta [deg]","Phi [deg]","Theta [deg]","re(rEPhi) [mV]","im(rEPhi) [mV]","re(rETheta) [mV]","im(rETheta) [mV]"
0.7118,180,90,-45,125.264,-36.8042011752133,39.2554775123098,-25.2505021864268,22.3331036173257
"Freq [GHz]","IWavePhi [deg]","IWaveTheta [deg]","Phi [deg]","Theta [deg]","re(rEPhi) [mV]","im(rEPhi) [mV]","re(rETheta) [mV]","im(rETheta) [mV]"
0.7118,180,90,135,125.264,36.8167981376287,-39.2494764871082,25.2771737609878,-22.3569042846175
"Freq [GHz]","IWavePhi [deg]","IWaveTheta [deg]","Phi [deg]","Theta [deg]","re(rEPhi) [mV]","im(rEPhi) [mV]","re(rETheta) [mV]","im(rETheta) [mV]"
0.7118,180,90,-135,125.264,36.8036587746219,-39.2519636833298,-25.2527396872867,22.3234535263197
"Freq [GHz]","IWavePhi [deg]","IWaveTheta [deg]","Phi [deg]","Theta [deg]","re(rEPhi) [mV]","im(rEPhi) [mV]","re(rETheta) [uv]","im(rETheta) [uv]"
0.7118,180,90,0,90,-51.9620143330421,60.3230819515315,13.9584020658295,-16.4167590428041
"Freq [GHz]","IWavePhi [deg]","IWaveTheta [deg]","Phi [deg]","Theta [deg]","re(rEPhi) [mV]","im(rEPhi) [mV]","re(rETheta) [uv]","im(rETheta) [uv]"
0.7118,180,90,180,90,51.9957947587225,-60.3211754831251,1.94133827961063,-12.0800920468548
"Freq [GHz]","IWavePhi [deg]","IWaveTheta [deg]","Phi [deg]","Theta [deg]","re(rEPhi) [uv]","im(rEPhi) [uv]","re(rETheta) [mV]","im(rETheta) [uv]"
0.7118,180,90,90,90,5.87672050529726,4.77467570221893,-8.00372199125934,-409.563467662737
"Freq [GHz]","IWavePhi [deg]","IWaveTheta [deg]","Phi [deg]","Theta [deg]","re(rEPhi) [uv]","im(rEPhi) [uv]","re(rETheta) [mV]","im(rETheta) [uv]"
0.7118,180,90,-90,90,3.4766612381444,1.86404378949557,8.02603173624062,388.47876116027
"Freq [GHz]","IWavePhi [deg]","IWaveTheta [deg]","Phi [deg]","Theta [deg]","re(rEPhi) [mV]","im(rEPhi) [mV]","re(rETheta) [uv]","im(rETheta) [uv]"
0.7118,180,90,0,0,-54.6207476131808,55.0153488250905,-4.66766900729078,1.41819047191572
"Freq [GHz]","IWavePhi [deg]","IWaveTheta [deg]","Phi [deg]","Theta [deg]","re(rEPhi) [mV]","im(rEPhi) [mV]","re(rETheta) [uv]","im(rETheta) [uv]"
0.7118,180,90,0,180,-40.8579342884586,56.2508719751101,-7.63652151866707,-6.07520511965125
"Freq [GHz]","IWavePhi [deg]","IWaveTheta [deg]","Phi [deg]","Theta [deg]","re(rEPhi) [mV]","im(rEPhi) [mV]","re(rETheta) [mV]","im(rETheta) [mV]"
0.7118,180,90,45,54.736,-36.8291481931112,39.2373505790193,-25.2655769664856,22.3309191525344
"Freq [GHz]","IWavePhi [deg]","IWaveTheta [deg]","Phi [deg]","Theta [deg]","re(rEPhi) [mV]","im(rEPhi) [mV]","re(rETheta) [mV]","im(rETheta) [mV]"
0.7118,180,90,135,54.736,36.8369920886087,-39.2358732778574,-25.2718798963032,22.3292031973689
"Freq [GHz]","IWavePhi [deg]","IWaveTheta [deg]","Phi [deg]","Theta [deg]","re(rEPhi) [mV]","im(rEPhi) [mV]","re(rETheta) [mV]","im(rETheta) [mV]"
0.7118,180,90,-45,54.736,-36.8422776769256,39.2481762259981,25.2790994912849,-22.3545203029138
"Freq [GHz]","IWavePhi [deg]","IWaveTheta [deg]","Phi [deg]","Theta [deg]","re(rEPhi) [mV]","im(rEPhi) [mV]","re(rETheta) [mV]","im(rETheta) [mV]"
0.7118,180,90,45,125.264,-31.4074199376139,39.7235924256396,13.7799308840163,-23.0057220897557
"Freq [GHz]","IWavePhi [deg]","IWaveTheta [deg]","Phi [deg]","Theta [deg]","re(rEPhi) [mV]","im(rEPhi) [mV]","re(rETheta) [mV]","im(rETheta) [mV]"
0.7118,180,90,-135,54.736,36.8116520937853,-39.2575558573643,25.26903737142,-22.3609095824585
"Freq [GHz]","IWavePhi [deg]","IWaveTheta [deg]","Phi [deg]","Theta [deg]","re(rEPhi) [mV]","im(rEPhi) [mV]","re(rETheta) [mV]","im(rETheta) [mV]"
0.7118,180,90,-45,125.264,-31.384094816126,39.7085455784591,-13.7492088072912,22.9889888030003
