"Freq [GHz]","IWavePhi [deg]","IWaveTheta [deg]","Phi [deg]","Theta [deg]","re(rEPhi) [mV]","im(rEPhi) [mV]","re(rETheta) [uv]","im(rETheta) [uv]"
1.21,180,90,0,90,29.2598595484909,71.2038449988091,-16.2621318302943,-12.6388737407979
"Freq [GHz]","IWavePhi [deg]","IWaveTheta [deg]","Phi [deg]","Theta [deg]","re(rEPhi) [mV]","im(rEPhi) [mV]","re(rETheta) [uv]","im(rETheta) [uv]"
1.21,180,90,180,90,-29.2389698142308,-71.2243588632627,-38.4636865216874,-12.7203467009129
"Freq [GHz]","IWavePhi [deg]","IWaveTheta [deg]","Phi [deg]","Theta [deg]","re(rEPhi) [uv]","im(rEPhi) [uv]","re(rETheta) [uv]","im(rETheta) [uv]"
1.21,180,90,90,90,-13.542260002673,-1.23048248614625,42.3066075228268,-20.2432604963848
"Freq [GHz]","IWavePhi [deg]","IWaveTheta [deg]","Phi [deg]","Theta [deg]","re(rEPhi) [uv]","im(rEPhi) [uv]","re(rETheta) [uv]","im(rETheta) [uv]"
1.21,180,90,-90,90,38.2785233868404,9.04051036315476,-22.2957960113425,20.1851387339204
"Freq [GHz]","IWavePhi [deg]","IWaveTheta [deg]","Phi [deg]","Theta [deg]","re(rEPhi) [mV]","im(rEPhi) [mV]","re(rETheta) [uv]","im(rETheta) [nV]"
1.21,180,90,0,0,21.666223576983,56.3549023333485,-6.75081320980312,-246.963376118155
"Freq [GHz]","IWavePhi [deg]","IWaveTheta [deg]","Phi [deg]","Theta [deg]","re(rEPhi) [mV]","im(rEPhi) [mV]","re(rETheta) [uv]","im(rETheta) [uv]"
1.21,180,90,0,180,21.6649845069685,56.2763508308394,-15.4909747662815,-18.6750135942809
"Freq [GHz]","IWavePhi [deg]","IWaveTheta [deg]","Phi [deg]","Theta [deg]","re(rEPhi) [mV]","im(rEPhi) [mV]","re(rETheta) [mV]","im(rETheta) [mV]"
1.21,180,90,45,54.736,16.5015607546681,40.9153629718649,9.21956621391155,23.4164436587177
"Freq [GHz]","IWavePhi [deg]","IWaveTheta [deg]","Phi [deg]","Theta [deg]","re(rEPhi) [mV]","im(rEPhi) [mV]","re(rETheta) [mV]","im(rETheta) [mV]"
1.21,180,90,135,54.736,-16.4416950568047,-40.9073490769752,9.17188285598772,23.438402966568
"Freq [GHz]","IWavePhi [deg]","IWaveTheta [deg]","Phi [deg]","Theta [deg]","re(rEPhi) [mV]","im(rEPhi) [mV]","re(rETheta) [mV]","im(rETheta) [mV]"
1.21,180,90,-45,54.736,16.495470418625,40.950005725979,-9.21201499122392,-23.4697132204695
"Freq [GHz]","IWavePhi [deg]","IWaveTheta [deg]","Phi [deg]","Theta [deg]","re(rEPhi) [mV]","im(rEPhi) [mV]","re(rETheta) [mV]","im(rETheta) [mV]"
1.21,180,90,45,125.264,16.4452795280878,40.8970448922934,-9.14428224111292,-23.4370074126003
"Freq [GHz]","IWavePhi [deg]","IWaveTheta [deg]","Phi [deg]","Theta [deg]","re(rEPhi) [mV]","im(rEPhi) [mV]","re(rETheta) [mV]","im(rETheta) [mV]"
1.21,180,90,-135,54.736,-16.5248190366412,-40.946746501442,-9.22956799280882,-23.462533860741
"Freq [GHz]","IWavePhi [deg]","IWaveTheta [deg]","Phi [deg]","Theta [deg]","re(rEPhi) [mV]","im(rEPhi) [mV]","re(rETheta) [mV]","im(rETheta) [mV]"
1.21,180,90,-45,125.264,16.5084002335037,40.8712294539508,9.15879329419094,23.4208994786342
"Freq [GHz]","IWavePhi [deg]","IWaveTheta [deg]","Phi [deg]","Theta [deg]","re(rEPhi) [mV]","im(rEPhi) [mV]","re(rETheta) [mV]","im(rETheta) [mV]"
1.21,180,90,135,125.264,-16.5028166544857,-40.8447126594777,-9.17778538262025,-23.4425082370711
"Freq [GHz]","IWavePhi [deg]","IWaveTheta [deg]","Phi [deg]","Theta [deg]","re(rEPhi) [mV]","im(rEPhi) [mV]","re(rETheta) [mV]","im(rETheta) [mV]"
1.21,180,90,-135,125.264,-16.4495835086412,-40.827343743223,9.1127327977472,23.4215455280085
"Freq [GHz]","IWavePhi [deg]","IWaveTheta [deg]","Phi [deg]","Theta [deg]","re(rEPhi) [mV]","im(rEPhi) [mV]","re(rETheta) [uv]","im(rETheta) [uv]"
1.21,180,90,0,90,-29.2598595484909,-71.2038449988091,16.2621318306429,12.6388737404056
"Freq [GHz]","IWavePhi [deg]","IWaveTheta [deg]","Phi [deg]","Theta [deg]","re(rEPhi) [mV]","im(rEPhi) [mV]","re(rETheta) [uv]","im(rETheta) [uv]"
1.21,180,90,180,90,29.2389698142308,71.2243588632627,38.4636865220384,12.7203467013028
"Freq [GHz]","IWavePhi [deg]","IWaveTheta [deg]","Phi [deg]","Theta [deg]","re(rEPhi) [uv]","im(rEPhi) [uv]","re(rETheta) [uv]","im(rETheta) [uv]"
1.21,180,90,90,90,13.5422600016665,1.23048248663111,-42.3066075230843,20.2432604968399
"Freq [GHz]","IWavePhi [deg]","IWaveTheta [deg]","Phi [deg]","Theta [deg]","re(rEPhi) [uv]","im(rEPhi) [uv]","re(rETheta) [uv]","im(rETheta) [uv]"
1.21,180,90,-90,90,-38.2785233858339,-9.0405103626699,22.2957960110838,-20.185138734372
"Freq [GHz]","IWavePhi [deg]","IWaveTheta [deg]","Phi [deg]","Theta [deg]","re(rEPhi) [mV]","im(rEPhi) [mV]","re(rETheta) [uv]","im(rETheta) [nV]"
1.21,180,90,0,0,-21.666223576983,-56.3549023333485,6.75081321055031,246.963375280375
"Freq [GHz]","IWavePhi [deg]","IWaveTheta [deg]","Phi [deg]","Theta [deg]","re(rEPhi) [mV]","im(rEPhi) [mV]","re(rETheta) [uv]","im(rETheta) [uv]"
1.21,180,90,0,180,-21.6649845069685,-56.2763508308394,15.4909747655342,18.6750135934429
"Freq [GHz]","IWavePhi [deg]","IWaveTheta [deg]","Phi [deg]","Theta [deg]","re(rEPhi) [mV]","im(rEPhi) [mV]","re(rETheta) [mV]","im(rETheta) [mV]"
1.21,180,90,45,54.736,-16.5015607546679,-40.9153629718641,-9.21956621391184,-23.4164436587177
"Freq [GHz]","IWavePhi [deg]","IWaveTheta [deg]","Phi [deg]","Theta [deg]","re(rEPhi) [mV]","im(rEPhi) [mV]","re(rETheta) [mV]","im(rETheta) [mV]"
1.21,180,90,135,54.736,16.441695056804,40.9073490769756,-9.17188285598837,-23.438402966568
"Freq [GHz]","IWavePhi [deg]","IWaveTheta [deg]","Phi [deg]","Theta [deg]","re(rEPhi) [mV]","im(rEPhi) [mV]","re(rETheta) [mV]","im(rETheta) [mV]"
1.21,180,90,-45,54.736,-16.4954704186248,-40.9500057259798,9.2120149912244,23.4697132204693
"Freq [GHz]","IWavePhi [deg]","IWaveTheta [deg]","Phi [deg]","Theta [deg]","re(rEPhi) [mV]","im(rEPhi) [mV]","re(rETheta) [mV]","im(rETheta) [mV]"
1.21,180,90,45,125.264,-16.4452795280886,-40.8970448922935,9.14428224111212,23.4370074126
"Freq [GHz]","IWavePhi [deg]","IWaveTheta [deg]","Phi [deg]","Theta [deg]","re(rEPhi) [mV]","im(rEPhi) [mV]","re(rETheta) [mV]","im(rETheta) [mV]"
1.21,180,90,-135,54.736,16.5248190366419,40.9467465014419,9.22956799280802,23.4625338607413
"Freq [GHz]","IWavePhi [deg]","IWaveTheta [deg]","Phi [deg]","Theta [deg]","re(rEPhi) [mV]","im(rEPhi) [mV]","re(rETheta) [mV]","im(rETheta) [mV]"
1.21,180,90,-45,125.264,-16.5084002335031,-40.8712294539503,-9.15879329419158,-23.4208994786341
"Freq [GHz]","IWavePhi [deg]","IWaveTheta [deg]","Phi [deg]","Theta [deg]","re(rEPhi) [mV]","im(rEPhi) [mV]","re(rETheta) [mV]","im(rETheta) [mV]"
1.21,180,90,135,125.264,16.5028166544855,40.8447126594769,9.17778538262074,23.4425082370713
"Freq [GHz]","IWavePhi [deg]","IWaveTheta [deg]","Phi [deg]","Theta [deg]","re(rEPhi) [mV]","im(rEPhi) [mV]","re(rETheta) [mV]","im(rETheta) [mV]"
1.21,180,90,-135,125.264,16.449583508641,40.8273437432238,-9.11273279774749,-23.4215455280084
"Freq [GHz]","IWavePhi [deg]","IWaveTheta [deg]","Phi [deg]","Theta [deg]","re(rEPhi) [V]","im(rEPhi) [V]","re(rETheta) [V]","im(rETheta) [V]"
1.21,180,90,0,90,2.47686786375446e-18,5.73949042490934e-18,-3.27028364476814e-18,1.63773611779363e-18
"Freq [GHz]","IWavePhi [deg]","IWaveTheta [deg]","Phi [deg]","Theta [deg]","re(rEPhi) [V]","im(rEPhi) [V]","re(rETheta) [V]","im(rETheta) [V]"
1.21,180,90,180,90,-2.47363247505486e-18,-5.738261708457e-18,-3.27302492939887e-18,1.63512807892346e-18
"Freq [GHz]","IWavePhi [deg]","IWaveTheta [deg]","Phi [deg]","Theta [deg]","re(rEPhi) [V]","im(rEPhi) [V]","re(rETheta) [V]","im(rETheta) [V]"
1.21,180,90,90,90,1.33687093644068e-22,-1.40047428907561e-21,-2.74721955611595e-18,1.28254103970871e-18
"Freq [GHz]","IWavePhi [deg]","IWaveTheta [deg]","Phi [deg]","Theta [deg]","re(rEPhi) [V]","im(rEPhi) [V]","re(rETheta) [V]","im(rETheta) [V]"
1.21,180,90,-90,90,4.20398562898142e-21,1.38704415390309e-21,2.33738396449122e-18,-1.6011673060898e-19
"Freq [GHz]","IWavePhi [deg]","IWaveTheta [deg]","Phi [deg]","Theta [deg]","re(rEPhi) [V]","im(rEPhi) [V]","re(rETheta) [V]","im(rETheta) [V]"
1.21,180,90,0,0,5.50573457605815e-18,4.38244164645816e-18,-2.50235802869873e-21,-8.43299302044388e-22
"Freq [GHz]","IWavePhi [deg]","IWaveTheta [deg]","Phi [deg]","Theta [deg]","re(rEPhi) [V]","im(rEPhi) [V]","re(rETheta) [V]","im(rETheta) [V]"
1.21,180,90,0,180,-1.80707632703691e-18,4.69344885573765e-18,-2.11492985751758e-21,-1.61102783331439e-21
"Freq [GHz]","IWavePhi [deg]","IWaveTheta [deg]","Phi [deg]","Theta [deg]","re(rEPhi) [V]","im(rEPhi) [V]","re(rETheta) [V]","im(rETheta) [V]"
1.21,180,90,45,54.736,1.17510342312992e-18,3.52281579691194e-18,-2.64718127694056e-18,3.45411745494426e-18
"Freq [GHz]","IWavePhi [deg]","IWaveTheta [deg]","Phi [deg]","Theta [deg]","re(rEPhi) [V]","im(rEPhi) [V]","re(rETheta) [V]","im(rETheta) [V]"
1.21,180,90,135,54.736,-1.17238618243869e-18,-3.5208629665177e-18,-2.65274439142795e-18,3.45438740337939e-18
"Freq [GHz]","IWavePhi [deg]","IWaveTheta [deg]","Phi [deg]","Theta [deg]","re(rEPhi) [V]","im(rEPhi) [V]","re(rETheta) [V]","im(rETheta) [V]"
1.21,180,90,-45,54.736,4.25417100822978e-18,2.91596055150561e-18,-2.42920864359816e-18,-1.18361261872998e-18
"Freq [GHz]","IWavePhi [deg]","IWaveTheta [deg]","Phi [deg]","Theta [deg]","re(rEPhi) [V]","im(rEPhi) [V]","re(rETheta) [V]","im(rETheta) [V]"
1.21,180,90,45,125.264,-2.87143213796455e-18,3.7692478161698e-18,-1.54198588340727e-18,-7.53158309116065e-19
"Freq [GHz]","IWavePhi [deg]","IWaveTheta [deg]","Phi [deg]","Theta [deg]","re(rEPhi) [V]","im(rEPhi) [V]","re(rETheta) [V]","im(rETheta) [V]"
1.21,180,90,-135,54.736,-4.25587755746917e-18,-2.91568852514369e-18,-2.43164776197626e-18,-1.17999960216172e-18
"Freq [GHz]","IWavePhi [deg]","IWaveTheta [deg]","Phi [deg]","Theta [deg]","re(rEPhi) [V]","im(rEPhi) [V]","re(rETheta) [V]","im(rETheta) [V]"
1.21,180,90,-45,125.264,2.49040800073096e-18,2.98621439024079e-18,1.44310153587106e-18,2.1749850483809e-18
"Freq [GHz]","IWavePhi [deg]","IWaveTheta [deg]","Phi [deg]","Theta [deg]","re(rEPhi) [V]","im(rEPhi) [V]","re(rETheta) [V]","im(rETheta) [V]"
1.21,180,90,135,125.264,2.86407129326017e-18,-3.76358190617583e-18,-1.54588384715713e-18,-7.51463491860949e-19
"Freq [GHz]","IWavePhi [deg]","IWaveTheta [deg]","Phi [deg]","Theta [deg]","re(rEPhi) [V]","im(rEPhi) [V]","re(rETheta) [V]","im(rETheta) [V]"
1.21,180,90,-135,125.264,-2.48894521415384e-18,-2.98137481506179e-18,1.44283660675762e-18,2.17516053284291e-18
"Freq [GHz]","IWavePhi [deg]","IWaveTheta [deg]","Phi [deg]","Theta [deg]","re(rEPhi) [V]","im(rEPhi) [V]","re(rETheta) [V]","im(rETheta) [V]"
1.21,180,90,0,90,-4.22013595137201e-21,2.02995555648337e-21,3.27306910075894e-18,-1.63092259404466e-18
"Freq [GHz]","IWavePhi [deg]","IWaveTheta [deg]","Phi [deg]","Theta [deg]","re(rEPhi) [V]","im(rEPhi) [V]","re(rETheta) [V]","im(rETheta) [V]"
1.21,180,90,180,90,4.80229442343172e-21,-5.01515994929674e-22,3.27395100132013e-18,-1.63234705610609e-18
"Freq [GHz]","IWavePhi [deg]","IWaveTheta [deg]","Phi [deg]","Theta [deg]","re(rEPhi) [V]","im(rEPhi) [V]","re(rETheta) [V]","im(rETheta) [V]"
1.21,180,90,90,90,7.05453730665104e-22,-3.67875273144516e-22,-2.33490618333239e-18,1.68832164333382e-19
"Freq [GHz]","IWavePhi [deg]","IWaveTheta [deg]","Phi [deg]","Theta [deg]","re(rEPhi) [V]","im(rEPhi) [V]","re(rETheta) [V]","im(rETheta) [V]"
1.21,180,90,-90,90,-6.7873992602008e-22,1.37175429065936e-22,2.75323681465279e-18,-1.28781228019578e-18
"Freq [GHz]","IWavePhi [deg]","IWaveTheta [deg]","Phi [deg]","Theta [deg]","re(rEPhi) [V]","im(rEPhi) [V]","re(rETheta) [V]","im(rETheta) [V]"
1.21,180,90,0,0,3.65000446010672e-18,-1.61296108472073e-19,8.95972603779987e-22,4.49365671994668e-22
"Freq [GHz]","IWavePhi [deg]","IWaveTheta [deg]","Phi [deg]","Theta [deg]","re(rEPhi) [V]","im(rEPhi) [V]","re(rETheta) [V]","im(rETheta) [V]"
1.21,180,90,0,180,-3.66019553665996e-18,1.6458582494618e-19,1.29303935514493e-21,-4.27890426621336e-22
"Freq [GHz]","IWavePhi [deg]","IWaveTheta [deg]","Phi [deg]","Theta [deg]","re(rEPhi) [V]","im(rEPhi) [V]","re(rETheta) [V]","im(rETheta) [V]"
1.21,180,90,45,54.736,8.78767219940699e-19,-3.62396133634757e-20,4.911936927702e-19,-4.94748623157943e-19
"Freq [GHz]","IWavePhi [deg]","IWaveTheta [deg]","Phi [deg]","Theta [deg]","re(rEPhi) [V]","im(rEPhi) [V]","re(rETheta) [V]","im(rETheta) [V]"
1.21,180,90,135,54.736,-8.81050278722616e-19,3.88558625029066e-20,4.90713463874811e-19,-4.93488026589592e-19
"Freq [GHz]","IWavePhi [deg]","IWaveTheta [deg]","Phi [deg]","Theta [deg]","re(rEPhi) [V]","im(rEPhi) [V]","re(rETheta) [V]","im(rETheta) [V]"
1.21,180,90,-45,54.736,2.01806473585094e-18,-1.20683226308407e-19,2.10442812541335e-18,-1.35243912807828e-18
"Freq [GHz]","IWavePhi [deg]","IWaveTheta [deg]","Phi [deg]","Theta [deg]","re(rEPhi) [V]","im(rEPhi) [V]","re(rETheta) [V]","im(rETheta) [V]"
1.21,180,90,45,125.264,-8.84052937161575e-19,4.02677641514328e-20,4.95813904286408e-19,-4.91381113822187e-19
"Freq [GHz]","IWavePhi [deg]","IWaveTheta [deg]","Phi [deg]","Theta [deg]","re(rEPhi) [V]","im(rEPhi) [V]","re(rETheta) [V]","im(rETheta) [V]"
1.21,180,90,-135,54.736,-2.01856917181162e-18,1.20852921456505e-19,2.10248416412895e-18,-1.355592021457e-18
"Freq [GHz]","IWavePhi [deg]","IWaveTheta [deg]","Phi [deg]","Theta [deg]","re(rEPhi) [V]","im(rEPhi) [V]","re(rETheta) [V]","im(rETheta) [V]"
1.21,180,90,-45,125.264,-2.02670083870151e-18,1.26375325382104e-19,2.09967505260856e-18,-1.35408746360975e-18
"Freq [GHz]","IWavePhi [deg]","IWaveTheta [deg]","Phi [deg]","Theta [deg]","re(rEPhi) [V]","im(rEPhi) [V]","re(rETheta) [V]","im(rETheta) [V]"
1.21,180,90,135,125.264,8.81064473219684e-19,-3.74379006796459e-20,4.91873429080316e-19,-4.92072213941718e-19
"Freq [GHz]","IWavePhi [deg]","IWaveTheta [deg]","Phi [deg]","Theta [deg]","re(rEPhi) [V]","im(rEPhi) [V]","re(rETheta) [V]","im(rETheta) [V]"
1.21,180,90,-135,125.264,2.02736731258587e-18,-1.25094118074812e-19,2.09593548753299e-18,-1.34792598384149e-18
"Freq [GHz]","IWavePhi [deg]","IWaveTheta [deg]","Phi [deg]","Theta [deg]","re(rEPhi) [mV]","im(rEPhi) [mV]","re(rETheta) [uv]","im(rETheta) [uv]"
1.21,180,90,0,90,21.607231189799,56.2512696091137,-23.526272616952,-37.9404985960691
"Freq [GHz]","IWavePhi [deg]","IWaveTheta [deg]","Phi [deg]","Theta [deg]","re(rEPhi) [mV]","im(rEPhi) [mV]","re(rETheta) [uv]","im(rETheta) [uv]"
1.21,180,90,180,90,-21.5950566290231,-56.2571703628787,-42.8937318489926,-14.3171278369538
"Freq [GHz]","IWavePhi [deg]","IWaveTheta [deg]","Phi [deg]","Theta [deg]","re(rEPhi) [uv]","im(rEPhi) [uv]","re(rETheta) [mV]","im(rETheta) [mV]"
1.21,180,90,90,90,-6.35215990933178,2.55025008731184,22.7995884010914,-1.0023227389437
"Freq [GHz]","IWavePhi [deg]","IWaveTheta [deg]","Phi [deg]","Theta [deg]","re(rEPhi) [uv]","im(rEPhi) [uv]","re(rETheta) [mV]","im(rETheta) [uv]"
1.21,180,90,-90,90,30.619003740547,9.18233549946149,-22.8140987485105,998.948939772979
"Freq [GHz]","IWavePhi [deg]","IWaveTheta [deg]","Phi [deg]","Theta [deg]","re(rEPhi) [mV]","im(rEPhi) [mV]","re(rETheta) [nV]","im(rETheta) [nV]"
1.21,180,90,0,0,29.9405268183802,51.7720466460368,-601.777911555651,756.719390063483
"Freq [GHz]","IWavePhi [deg]","IWaveTheta [deg]","Phi [deg]","Theta [deg]","re(rEPhi) [mV]","im(rEPhi) [mV]","re(rETheta) [uv]","im(rETheta) [uv]"
1.21,180,90,0,180,7.53961624833404,37.2046635717917,-12.4790386689206,-17.0458448177136
"Freq [GHz]","IWavePhi [deg]","IWaveTheta [deg]","Phi [deg]","Theta [deg]","re(rEPhi) [mV]","im(rEPhi) [mV]","re(rETheta) [mV]","im(rETheta) [mV]"
1.21,180,90,45,54.736,16.8579767587938,35.1007928618929,24.9490702080023,19.4139195950785
"Freq [GHz]","IWavePhi [deg]","IWaveTheta [deg]","Phi [deg]","Theta [deg]","re(rEPhi) [mV]","im(rEPhi) [mV]","re(rETheta) [mV]","im(rETheta) [mV]"
1.21,180,90,135,54.736,-16.8170777474396,-35.0948688316258,24.9314195581946,19.4297141471571
"Freq [GHz]","IWavePhi [deg]","IWaveTheta [deg]","Phi [deg]","Theta [deg]","re(rEPhi) [mV]","im(rEPhi) [mV]","re(rETheta) [mV]","im(rETheta) [mV]"
1.21,180,90,-45,54.736,16.8725988436088,35.1191188681161,-24.9822305982842,-19.4693796540841
"Freq [GHz]","IWavePhi [deg]","IWaveTheta [deg]","Phi [deg]","Theta [deg]","re(rEPhi) [mV]","im(rEPhi) [mV]","re(rETheta) [mV]","im(rETheta) [mV]"
1.21,180,90,45,125.264,8.63245528235346,29.5404784820276,9.17410244392279,-17.6245577586003
"Freq [GHz]","IWavePhi [deg]","IWaveTheta [deg]","Phi [deg]","Theta [deg]","re(rEPhi) [mV]","im(rEPhi) [mV]","re(rETheta) [mV]","im(rETheta) [mV]"
1.21,180,90,-135,54.736,-16.8986708028941,-35.1125573560709,-24.9873211680217,-19.4487349089127
"Freq [GHz]","IWavePhi [deg]","IWaveTheta [deg]","Phi [deg]","Theta [deg]","re(rEPhi) [mV]","im(rEPhi) [mV]","re(rETheta) [mV]","im(rETheta) [mV]"
1.21,180,90,-45,125.264,8.71195146392848,29.4914394527304,-9.17253977357396,17.5893564678424
"Freq [GHz]","IWavePhi [deg]","IWaveTheta [deg]","Phi [deg]","Theta [deg]","re(rEPhi) [mV]","im(rEPhi) [mV]","re(rETheta) [mV]","im(rETheta) [mV]"
1.21,180,90,135,125.264,-8.67999356739543,-29.5048909740752,9.13893816070415,-17.6182251669853
"Freq [GHz]","IWavePhi [deg]","IWaveTheta [deg]","Phi [deg]","Theta [deg]","re(rEPhi) [mV]","im(rEPhi) [mV]","re(rETheta) [mV]","im(rETheta) [mV]"
1.21,180,90,-135,125.264,-8.65290863162121,-29.4616744699419,-9.20028953288489,17.5569062170915
"Freq [GHz]","IWavePhi [deg]","IWaveTheta [deg]","Phi [deg]","Theta [deg]","re(rEPhi) [mV]","im(rEPhi) [mV]","re(rETheta) [nV]","im(rETheta) [uv]"
1.21,180,90,0,90,21.5585892033803,56.2685949196143,-125.048679878276,16.1794931572945
"Freq [GHz]","IWavePhi [deg]","IWaveTheta [deg]","Phi [deg]","Theta [deg]","re(rEPhi) [mV]","im(rEPhi) [mV]","re(rETheta) [uv]","im(rETheta) [uv]"
1.21,180,90,180,90,-21.5383935943761,-56.292093674503,-16.7347339493997,-8.59562941394755
"Freq [GHz]","IWavePhi [deg]","IWaveTheta [deg]","Phi [deg]","Theta [deg]","re(rEPhi) [uv]","im(rEPhi) [uv]","re(rETheta) [mV]","im(rETheta) [uv]"
1.21,180,90,90,90,-15.0843815939065,-5.15335427446217,-22.7274962741415,973.925039507944
"Freq [GHz]","IWavePhi [deg]","IWaveTheta [deg]","Phi [deg]","Theta [deg]","re(rEPhi) [uv]","im(rEPhi) [uv]","re(rETheta) [mV]","im(rETheta) [uv]"
1.21,180,90,-90,90,30.3764684629372,5.72014615151781,22.7835056006132,-970.745470429364
"Freq [GHz]","IWavePhi [deg]","IWaveTheta [deg]","Phi [deg]","Theta [deg]","re(rEPhi) [mV]","im(rEPhi) [mV]","re(rETheta) [uv]","im(rETheta) [nV]"
1.21,180,90,0,0,7.52318555479662,37.2910489086662,-10.4280763780599,-828.47980543882
"Freq [GHz]","IWavePhi [deg]","IWaveTheta [deg]","Phi [deg]","Theta [deg]","re(rEPhi) [mV]","im(rEPhi) [mV]","re(rETheta) [uv]","im(rETheta) [uv]"
1.21,180,90,0,180,29.9238474001589,51.7449878220428,-11.1418582789467,-12.1346617255818
"Freq [GHz]","IWavePhi [deg]","IWaveTheta [deg]","Phi [deg]","Theta [deg]","re(rEPhi) [mV]","im(rEPhi) [mV]","re(rETheta) [mV]","im(rETheta) [mV]"
1.21,180,90,45,54.736,8.67585073936666,29.5583469389436,-9.12863160742215,17.5961114071296
"Freq [GHz]","IWavePhi [deg]","IWaveTheta [deg]","Phi [deg]","Theta [deg]","re(rEPhi) [mV]","im(rEPhi) [mV]","re(rETheta) [mV]","im(rETheta) [mV]"
1.21,180,90,135,54.736,-8.62270203867156,-29.5527032766073,-9.18830508462165,17.6148401262377
"Freq [GHz]","IWavePhi [deg]","IWaveTheta [deg]","Phi [deg]","Theta [deg]","re(rEPhi) [mV]","im(rEPhi) [mV]","re(rETheta) [mV]","im(rETheta) [mV]"
1.21,180,90,-45,54.736,8.65131887856304,29.5858986405326,9.18148715404503,-17.6208287654054
"Freq [GHz]","IWavePhi [deg]","IWaveTheta [deg]","Phi [deg]","Theta [deg]","re(rEPhi) [mV]","im(rEPhi) [mV]","re(rETheta) [mV]","im(rETheta) [mV]"
1.21,180,90,45,125.264,16.8135811449433,35.0907037308767,-24.8681616223973,-19.420978644866
"Freq [GHz]","IWavePhi [deg]","IWaveTheta [deg]","Phi [deg]","Theta [deg]","re(rEPhi) [mV]","im(rEPhi) [mV]","re(rETheta) [mV]","im(rETheta) [mV]"
1.21,180,90,-135,54.736,-8.67062465645632,-29.5869372261409,9.15930551759693,-17.6298469790164
"Freq [GHz]","IWavePhi [deg]","IWaveTheta [deg]","Phi [deg]","Theta [deg]","re(rEPhi) [mV]","im(rEPhi) [mV]","re(rETheta) [mV]","im(rETheta) [mV]"
1.21,180,90,-45,125.264,16.8312216830901,35.0918967105745,24.8939126071132,19.4208967366919
"Freq [GHz]","IWavePhi [deg]","IWaveTheta [deg]","Phi [deg]","Theta [deg]","re(rEPhi) [mV]","im(rEPhi) [mV]","re(rETheta) [mV]","im(rETheta) [mV]"
