"Freq [GHz]","IWavePhi [deg]","IWaveTheta [deg]","Phi [deg]","Theta [deg]","re(rEPhi) [mV]","im(rEPhi) [mV]","re(rETheta) [uv]","im(rETheta) [uv]"
0.6406,180,90,0,90,-55.0960170860856,33.9669860669691,10.5876632011349,-7.88760656581618
"Freq [GHz]","IWavePhi [deg]","IWaveTheta [deg]","Phi [deg]","Theta [deg]","re(rEPhi) [mV]","im(rEPhi) [mV]","re(rETheta) [uv]","im(rETheta) [uv]"
0.6406,180,90,180,90,55.1099348296187,-33.956241537905,5.80655823994899,-9.70970255909846
"Freq [GHz]","IWavePhi [deg]","IWaveTheta [deg]","Phi [deg]","Theta [deg]","re(rEPhi) [nV]","im(rEPhi) [nV]","re(rETheta) [uv]","im(rETheta) [uv]"
0.6406,180,90,90,90,691.944918206788,888.569085123185,12.2551580351887,1.02514040231058
"Freq [GHz]","IWavePhi [deg]","IWaveTheta [deg]","Phi [deg]","Theta [deg]","re(rEPhi) [nV]","im(rEPhi) [uv]","re(rETheta) [uv]","im(rETheta) [uv]"
0.6406,180,90,-90,90,-987.478855338877,1.71870743421779,5.35326807543045,-7.52673354788471
"Freq [GHz]","IWavePhi [deg]","IWaveTheta [deg]","Phi [deg]","Theta [deg]","re(rEPhi) [mV]","im(rEPhi) [mV]","re(rETheta) [nV]","im(rETheta) [uv]"
0.6406,180,90,0,0,-51.7395023873703,31.7958771424591,666.888988707959,-1.81775562651194
"Freq [GHz]","IWavePhi [deg]","IWaveTheta [deg]","Phi [deg]","Theta [deg]","re(rEPhi) [mV]","im(rEPhi) [mV]","re(rETheta) [nV]","im(rETheta) [uv]"
0.6406,180,90,0,180,-51.7448884151203,31.8073894431326,-214.916085712193,-4.49364349084757
"Freq [GHz]","IWavePhi [deg]","IWaveTheta [deg]","Phi [deg]","Theta [deg]","re(rEPhi) [mV]","im(rEPhi) [mV]","re(rETheta) [mV]","im(rETheta) [mV]"
0.6406,180,90,45,54.736,-36.6394945289815,22.5089918359679,-21.0787602890061,12.9344341802441
"Freq [GHz]","IWavePhi [deg]","IWaveTheta [deg]","Phi [deg]","Theta [deg]","re(rEPhi) [mV]","im(rEPhi) [mV]","re(rETheta) [mV]","im(rETheta) [mV]"
0.6406,180,90,135,54.736,36.645906232864,-22.5037257471139,-21.0800374113719,12.9290580796067
"Freq [GHz]","IWavePhi [deg]","IWaveTheta [deg]","Phi [deg]","Theta [deg]","re(rEPhi) [mV]","im(rEPhi) [mV]","re(rETheta) [mV]","im(rETheta) [mV]"
0.6406,180,90,-45,54.736,-36.6504604629193,22.5039791576084,21.0947954500462,-12.9418256126293
"Freq [GHz]","IWavePhi [deg]","IWaveTheta [deg]","Phi [deg]","Theta [deg]","re(rEPhi) [mV]","im(rEPhi) [mV]","re(rETheta) [mV]","im(rETheta) [mV]"
0.6406,180,90,45,125.264,-36.6552035459539,22.5118855102941,21.0982733929407,-12.9405819025301
"Freq [GHz]","IWavePhi [deg]","IWaveTheta [deg]","Phi [deg]","Theta [deg]","re(rEPhi) [mV]","im(rEPhi) [mV]","re(rETheta) [mV]","im(rETheta) [mV]"
0.6406,180,90,-135,54.736,36.6426051502041,-22.5157906507122,21.0957268907052,-12.9501477267452
"Freq [GHz]","IWavePhi [deg]","IWaveTheta [deg]","Phi [deg]","Theta [deg]","re(rEPhi) [mV]","im(rEPhi) [mV]","re(rETheta) [mV]","im(rETheta) [mV]"
0.6406,180,90,-45,125.264,-36.6416174236904,22.5088248208688,-21.0796923170379,12.9310688847448
"Freq [GHz]","IWavePhi [deg]","IWaveTheta [deg]","Phi [deg]","Theta [deg]","re(rEPhi) [mV]","im(rEPhi) [mV]","re(rETheta) [mV]","im(rETheta) [mV]"
0.6406,180,90,135,125.264,36.6407220505334,-22.5022788134192,21.0951925184027,-12.9363160568787
"Freq [GHz]","IWavePhi [deg]","IWaveTheta [deg]","Phi [deg]","Theta [deg]","re(rEPhi) [mV]","im(rEPhi) [mV]","re(rETheta) [mV]","im(rETheta) [mV]"
0.6406,180,90,-135,125.264,36.6383696821451,-22.5055829028273,-21.0777651910475,12.9271419346131
"Freq [GHz]","IWavePhi [deg]","IWaveTheta [deg]","Phi [deg]","Theta [deg]","re(rEPhi) [mV]","im(rEPhi) [mV]","re(rETheta) [uv]","im(rETheta) [uv]"
0.6406,180,90,0,90,55.0960170860856,-33.9669860669691,-10.5876632017756,7.88760656494092
"Freq [GHz]","IWavePhi [deg]","IWaveTheta [deg]","Phi [deg]","Theta [deg]","re(rEPhi) [mV]","im(rEPhi) [mV]","re(rETheta) [uv]","im(rETheta) [uv]"
0.6406,180,90,180,90,-55.1099348296187,33.956241537905,-5.80655823930981,9.70970255822227
"Freq [GHz]","IWavePhi [deg]","IWaveTheta [deg]","Phi [deg]","Theta [deg]","re(rEPhi) [nV]","im(rEPhi) [nV]","re(rETheta) [uv]","im(rETheta) [uv]"
0.6406,180,90,90,90,-691.944918206325,-888.569085124112,-12.2551580360726,-1.02514040168136
"Freq [GHz]","IWavePhi [deg]","IWaveTheta [deg]","Phi [deg]","Theta [deg]","re(rEPhi) [nV]","im(rEPhi) [uv]","re(rETheta) [uv]","im(rETheta) [uv]"
0.6406,180,90,-90,90,987.47885533795,-1.71870743421918,-5.35326807454592,7.52673354851209
"Freq [GHz]","IWavePhi [deg]","IWaveTheta [deg]","Phi [deg]","Theta [deg]","re(rEPhi) [mV]","im(rEPhi) [mV]","re(rETheta) [nV]","im(rETheta) [uv]"
0.6406,180,90,0,0,51.7395023873703,-31.7958771424591,-666.888988706916,1.8177556265113
"Freq [GHz]","IWavePhi [deg]","IWaveTheta [deg]","Phi [deg]","Theta [deg]","re(rEPhi) [mV]","im(rEPhi) [mV]","re(rETheta) [nV]","im(rETheta) [uv]"
0.6406,180,90,0,180,51.7448884151203,-31.8073894431326,214.91608571115,4.49364349084688
"Freq [GHz]","IWavePhi [deg]","IWaveTheta [deg]","Phi [deg]","Theta [deg]","re(rEPhi) [mV]","im(rEPhi) [mV]","re(rETheta) [mV]","im(rETheta) [mV]"
0.6406,180,90,45,54.736,36.6394945289815,-22.5089918359679,21.078760289007,-12.9344341802441
"Freq [GHz]","IWavePhi [deg]","IWaveTheta [deg]","Phi [deg]","Theta [deg]","re(rEPhi) [mV]","im(rEPhi) [mV]","re(rETheta) [mV]","im(rETheta) [mV]"
0.6406,180,90,135,54.736,-36.645906232864,22.5037257471139,21.0800374113716,-12.9290580796076
"Freq [GHz]","IWavePhi [deg]","IWaveTheta [deg]","Phi [deg]","Theta [deg]","re(rEPhi) [mV]","im(rEPhi) [mV]","re(rETheta) [mV]","im(rETheta) [mV]"
0.6406,180,90,-45,54.736,36.6504604629193,-22.5039791576084,-21.0947954500458,12.9418256126285
"Freq [GHz]","IWavePhi [deg]","IWaveTheta [deg]","Phi [deg]","Theta [deg]","re(rEPhi) [mV]","im(rEPhi) [mV]","re(rETheta) [mV]","im(rETheta) [mV]"
0.6406,180,90,45,125.264,36.6552035459539,-22.5118855102941,-21.0982733929398,12.94058190253
"Freq [GHz]","IWavePhi [deg]","IWaveTheta [deg]","Phi [deg]","Theta [deg]","re(rEPhi) [mV]","im(rEPhi) [mV]","re(rETheta) [mV]","im(rETheta) [mV]"
0.6406,180,90,-135,54.736,-36.6426051502041,22.5157906507122,-21.0957268907061,12.9501477267451
"Freq [GHz]","IWavePhi [deg]","IWaveTheta [deg]","Phi [deg]","Theta [deg]","re(rEPhi) [mV]","im(rEPhi) [mV]","re(rETheta) [mV]","im(rETheta) [mV]"
0.6406,180,90,-45,125.264,36.6416174236904,-22.5088248208688,21.0796923170382,-12.9310688847457
"Freq [GHz]","IWavePhi [deg]","IWaveTheta [deg]","Phi [deg]","Theta [deg]","re(rEPhi) [mV]","im(rEPhi) [mV]","re(rETheta) [mV]","im(rETheta) [mV]"
0.6406,180,90,135,125.264,-36.6407220505334,22.5022788134192,-21.0951925184031,12.9363160568779
"Freq [GHz]","IWavePhi [deg]","IWaveTheta [deg]","Phi [deg]","Theta [deg]","re(rEPhi) [mV]","im(rEPhi) [mV]","re(rETheta) [mV]","im(rETheta) [mV]"
0.6406,180,90,-135,125.264,-36.6383696821451,22.5055829028273,21.0777651910467,-12.9271419346131
"Freq [GHz]","IWavePhi [deg]","IWaveTheta [deg]","Phi [deg]","Theta [deg]","re(rEPhi) [V]","im(rEPhi) [V]","re(rETheta) [V]","im(rETheta) [V]"
0.6406,180,90,0,90,-5.97414548954277e-18,3.68394438009399e-18,-1.73698261469147e-18,1.66665105493703e-19
"Freq [GHz]","IWavePhi [deg]","IWaveTheta [deg]","Phi [deg]","Theta [deg]","re(rEPhi) [V]","im(rEPhi) [V]","re(rETheta) [V]","im(rETheta) [V]"
0.6406,180,90,180,90,5.97569607859145e-18,-3.68270147092852e-18,-1.73753090767037e-18,1.66589307743174e-19
"Freq [GHz]","IWavePhi [deg]","IWaveTheta [deg]","Phi [deg]","Theta [deg]","re(rEPhi) [V]","im(rEPhi) [V]","re(rETheta) [V]","im(rETheta) [V]"
0.6406,180,90,90,90,4.47526277370439e-23,8.59225830480475e-23,-7.4691228856773e-19,1.60894969945141e-19
"Freq [GHz]","IWavePhi [deg]","IWaveTheta [deg]","Phi [deg]","Theta [deg]","re(rEPhi) [V]","im(rEPhi) [V]","re(rETheta) [V]","im(rETheta) [V]"
0.6406,180,90,-90,90,-1.77857654648769e-22,1.45660071484579e-22,-1.61723421735051e-18,8.92076521388933e-20
"Freq [GHz]","IWavePhi [deg]","IWaveTheta [deg]","Phi [deg]","Theta [deg]","re(rEPhi) [V]","im(rEPhi) [V]","re(rETheta) [V]","im(rETheta) [V]"
0.6406,180,90,0,0,-4.55392063942904e-18,3.49214271188929e-18,9.51467792087099e-23,-3.162178033728e-22
"Freq [GHz]","IWavePhi [deg]","IWaveTheta [deg]","Phi [deg]","Theta [deg]","re(rEPhi) [V]","im(rEPhi) [V]","re(rETheta) [V]","im(rETheta) [V]"
0.6406,180,90,0,180,-6.66638491915664e-18,3.40598711841779e-18,-6.25049904894753e-23,-4.5412533637796e-22
"Freq [GHz]","IWavePhi [deg]","IWaveTheta [deg]","Phi [deg]","Theta [deg]","re(rEPhi) [V]","im(rEPhi) [V]","re(rETheta) [V]","im(rETheta) [V]"
0.6406,180,90,45,54.736,-3.64707437785058e-18,2.45579673992496e-18,-3.12346428602454e-18,1.55065513096669e-18
"Freq [GHz]","IWavePhi [deg]","IWaveTheta [deg]","Phi [deg]","Theta [deg]","re(rEPhi) [V]","im(rEPhi) [V]","re(rETheta) [V]","im(rETheta) [V]"
0.6406,180,90,135,54.736,3.64791461290518e-18,-2.45530376229268e-18,-3.12358225572933e-18,1.55014608520913e-18
"Freq [GHz]","IWavePhi [deg]","IWaveTheta [deg]","Phi [deg]","Theta [deg]","re(rEPhi) [V]","im(rEPhi) [V]","re(rETheta) [V]","im(rETheta) [V]"
0.6406,180,90,-45,54.736,-3.45997777440434e-18,2.45920507496975e-18,5.19051235731987e-19,-1.30977238352537e-18
"Freq [GHz]","IWavePhi [deg]","IWaveTheta [deg]","Phi [deg]","Theta [deg]","re(rEPhi) [V]","im(rEPhi) [V]","re(rETheta) [V]","im(rETheta) [V]"
0.6406,180,90,45,125.264,-4.62090352937502e-18,2.42875404016143e-18,1.6395461390236e-18,-1.25672379153378e-18
"Freq [GHz]","IWavePhi [deg]","IWaveTheta [deg]","Phi [deg]","Theta [deg]","re(rEPhi) [V]","im(rEPhi) [V]","re(rETheta) [V]","im(rETheta) [V]"
0.6406,180,90,-135,54.736,3.45923042266328e-18,-2.46052941220861e-18,5.19072116209376e-19,-1.31041294507465e-18
"Freq [GHz]","IWavePhi [deg]","IWaveTheta [deg]","Phi [deg]","Theta [deg]","re(rEPhi) [V]","im(rEPhi) [V]","re(rETheta) [V]","im(rETheta) [V]"
0.6406,180,90,-45,125.264,-4.17975817586038e-18,2.4209096477993e-18,-3.87247321371784e-18,1.49536685861519e-18
"Freq [GHz]","IWavePhi [deg]","IWaveTheta [deg]","Phi [deg]","Theta [deg]","re(rEPhi) [V]","im(rEPhi) [V]","re(rETheta) [V]","im(rETheta) [V]"
0.6406,180,90,135,125.264,4.61918917818869e-18,-2.42770871576154e-18,1.63922014553509e-18,-1.25603655274806e-18
"Freq [GHz]","IWavePhi [deg]","IWaveTheta [deg]","Phi [deg]","Theta [deg]","re(rEPhi) [V]","im(rEPhi) [V]","re(rETheta) [V]","im(rETheta) [V]"
0.6406,180,90,-135,125.264,4.17950239782929e-18,-2.4207198332253e-18,-3.87204976232295e-18,1.4948887617172e-18
"Freq [GHz]","IWavePhi [deg]","IWaveTheta [deg]","Phi [deg]","Theta [deg]","re(rEPhi) [V]","im(rEPhi) [V]","re(rETheta) [V]","im(rETheta) [V]"
0.6406,180,90,0,90,-1.66094625452743e-21,1.57534239189896e-22,1.73812986310802e-18,-1.6723154635466e-19
"Freq [GHz]","IWavePhi [deg]","IWaveTheta [deg]","Phi [deg]","Theta [deg]","re(rEPhi) [V]","im(rEPhi) [V]","re(rETheta) [V]","im(rETheta) [V]"
0.6406,180,90,180,90,1.82435687692653e-21,-1.82810031736003e-22,1.73816105450549e-18,-1.67537776480479e-19
"Freq [GHz]","IWavePhi [deg]","IWaveTheta [deg]","Phi [deg]","Theta [deg]","re(rEPhi) [V]","im(rEPhi) [V]","re(rETheta) [V]","im(rETheta) [V]"
0.6406,180,90,90,90,3.55726558777828e-23,-2.75697137880372e-23,1.61799617297919e-18,-8.95893000001277e-20
"Freq [GHz]","IWavePhi [deg]","IWaveTheta [deg]","Phi [deg]","Theta [deg]","re(rEPhi) [V]","im(rEPhi) [V]","re(rETheta) [V]","im(rETheta) [V]"
0.6406,180,90,-90,90,-7.57949395936491e-24,6.3784666022947e-23,7.47992192257777e-19,-1.61054172879132e-19
"Freq [GHz]","IWavePhi [deg]","IWaveTheta [deg]","Phi [deg]","Theta [deg]","re(rEPhi) [V]","im(rEPhi) [V]","re(rETheta) [V]","im(rETheta) [V]"
0.6406,180,90,0,0,1.05460038677945e-18,4.37319273029565e-20,-3.24198974130002e-23,9.99218061324686e-23
"Freq [GHz]","IWavePhi [deg]","IWaveTheta [deg]","Phi [deg]","Theta [deg]","re(rEPhi) [V]","im(rEPhi) [V]","re(rETheta) [V]","im(rETheta) [V]"
0.6406,180,90,0,180,-1.05775715852239e-18,-4.30835818720409e-20,2.18615658042991e-23,-4.18628514562349e-23
"Freq [GHz]","IWavePhi [deg]","IWaveTheta [deg]","Phi [deg]","Theta [deg]","re(rEPhi) [V]","im(rEPhi) [V]","re(rETheta) [V]","im(rETheta) [V]"
0.6406,180,90,45,54.736,3.59387115115126e-19,1.9193486634028e-20,1.67687764089947e-18,-9.31245083622272e-20
"Freq [GHz]","IWavePhi [deg]","IWaveTheta [deg]","Phi [deg]","Theta [deg]","re(rEPhi) [V]","im(rEPhi) [V]","re(rETheta) [V]","im(rETheta) [V]"
0.6406,180,90,135,54.736,-3.59347181411886e-19,-1.94913014843037e-20,1.6767688127942e-18,-9.30938032796965e-20
"Freq [GHz]","IWavePhi [deg]","IWaveTheta [deg]","Phi [deg]","Theta [deg]","re(rEPhi) [V]","im(rEPhi) [V]","re(rETheta) [V]","im(rETheta) [V]"
0.6406,180,90,-45,54.736,4.84584535409487e-19,1.38323861220673e-20,7.43698948096072e-19,-1.47353918288053e-19
"Freq [GHz]","IWavePhi [deg]","IWaveTheta [deg]","Phi [deg]","Theta [deg]","re(rEPhi) [V]","im(rEPhi) [V]","re(rETheta) [V]","im(rETheta) [V]"
0.6406,180,90,45,125.264,-3.61524319755173e-19,-1.92321194273653e-20,1.67834002188492e-18,-9.3216262610152e-20
"Freq [GHz]","IWavePhi [deg]","IWaveTheta [deg]","Phi [deg]","Theta [deg]","re(rEPhi) [V]","im(rEPhi) [V]","re(rETheta) [V]","im(rETheta) [V]"
0.6406,180,90,-135,54.736,-4.84676120458181e-19,-1.39274078944958e-20,7.43916774317726e-19,-1.4757331260346e-19
"Freq [GHz]","IWavePhi [deg]","IWaveTheta [deg]","Phi [deg]","Theta [deg]","re(rEPhi) [V]","im(rEPhi) [V]","re(rETheta) [V]","im(rETheta) [V]"
0.6406,180,90,-45,125.264,-4.87239433950632e-19,-1.32379144345335e-20,7.42429608337367e-19,-1.47123097563131e-19
"Freq [GHz]","IWavePhi [deg]","IWaveTheta [deg]","Phi [deg]","Theta [deg]","re(rEPhi) [V]","im(rEPhi) [V]","re(rETheta) [V]","im(rETheta) [V]"
0.6406,180,90,135,125.264,3.61685056456584e-19,1.9176537762327e-20,1.67812532188414e-18,-9.32806464436139e-20
"Freq [GHz]","IWavePhi [deg]","IWaveTheta [deg]","Phi [deg]","Theta [deg]","re(rEPhi) [V]","im(rEPhi) [V]","re(rETheta) [V]","im(rETheta) [V]"
0.6406,180,90,-135,125.264,4.87166340990477e-19,1.31892387101529e-20,7.42249929931493e-19,-1.47094089618793e-19
"Freq [GHz]","IWavePhi [deg]","IWaveTheta [deg]","Phi [deg]","Theta [deg]","re(rEPhi) [mV]","im(rEPhi) [mV]","re(rETheta) [uv]","im(rETheta) [uv]"
0.6406,180,90,0,90,-51.731939706689,31.8115625934266,9.73568743853859,-8.60300498843161
"Freq [GHz]","IWavePhi [deg]","IWaveTheta [deg]","Phi [deg]","Theta [deg]","re(rEPhi) [mV]","im(rEPhi) [mV]","re(rETheta) [uv]","im(rETheta) [uv]"
0.6406,180,90,180,90,51.7455843718732,-31.8011228757564,5.11999499196518,-11.4884664736243
"Freq [GHz]","IWavePhi [deg]","IWaveTheta [deg]","Phi [deg]","Theta [deg]","re(rEPhi) [nV]","im(rEPhi) [nV]","re(rETheta) [mV]","im(rETheta) [uv]"
0.6406,180,90,90,90,555.676651854855,520.881591824021,6.5776577086547,272.54727127433
"Freq [GHz]","IWavePhi [deg]","IWaveTheta [deg]","Phi [deg]","Theta [deg]","re(rEPhi) [uv]","im(rEPhi) [uv]","re(rETheta) [mV]","im(rETheta) [uv]"
0.6406,180,90,-90,90,-1.11751265269368,1.7693836079595,-6.56151337936738,-281.505732490344
"Freq [GHz]","IWavePhi [deg]","IWaveTheta [deg]","Phi [deg]","Theta [deg]","re(rEPhi) [mV]","im(rEPhi) [mV]","re(rETheta) [nV]","im(rETheta) [uv]"
0.6406,180,90,0,0,-42.4762482812924,30.1504779982637,631.807008344929,-1.66793352582297
"Freq [GHz]","IWavePhi [deg]","IWaveTheta [deg]","Phi [deg]","Theta [deg]","re(rEPhi) [mV]","im(rEPhi) [mV]","re(rETheta) [nV]","im(rETheta) [uv]"
0.6406,180,90,0,180,-54.1664972454201,29.4172067068741,-443.370152985959,-4.25453073533856
"Freq [GHz]","IWavePhi [deg]","IWaveTheta [deg]","Phi [deg]","Theta [deg]","re(rEPhi) [mV]","im(rEPhi) [mV]","re(rETheta) [mV]","im(rETheta) [mV]"
0.6406,180,90,45,54.736,-32.0136403132793,21.2228972141743,-14.9752677492491,12.3256457522826
"Freq [GHz]","IWavePhi [deg]","IWaveTheta [deg]","Phi [deg]","Theta [deg]","re(rEPhi) [mV]","im(rEPhi) [mV]","re(rETheta) [mV]","im(rETheta) [mV]"
0.6406,180,90,135,54.736,32.0200900877419,-21.2193474342591,-14.9769713159976,12.3211268830643
"Freq [GHz]","IWavePhi [deg]","IWaveTheta [deg]","Phi [deg]","Theta [deg]","re(rEPhi) [mV]","im(rEPhi) [mV]","re(rETheta) [mV]","im(rETheta) [mV]"
0.6406,180,90,-45,54.736,-32.0241197639524,21.2192178727594,14.9901810514306,-12.3353442372961
"Freq [GHz]","IWavePhi [deg]","IWaveTheta [deg]","Phi [deg]","Theta [deg]","re(rEPhi) [mV]","im(rEPhi) [mV]","re(rETheta) [mV]","im(rETheta) [mV]"
0.6406,180,90,45,125.264,-36.6865320295396,20.9403522017025,24.4153806708929,-11.9076195069668
"Freq [GHz]","IWavePhi [deg]","IWaveTheta [deg]","Phi [deg]","Theta [deg]","re(rEPhi) [mV]","im(rEPhi) [mV]","re(rETheta) [mV]","im(rETheta) [mV]"
0.6406,180,90,-135,54.736,32.0168698252439,-21.2304706765764,14.9918663437303,-12.3431023819048
"Freq [GHz]","IWavePhi [deg]","IWaveTheta [deg]","Phi [deg]","Theta [deg]","re(rEPhi) [mV]","im(rEPhi) [mV]","re(rETheta) [mV]","im(rETheta) [mV]"
0.6406,180,90,-45,125.264,-36.6728791709404,20.9372214542303,-24.3974102191886,11.8965034167039
"Freq [GHz]","IWavePhi [deg]","IWaveTheta [deg]","Phi [deg]","Theta [deg]","re(rEPhi) [mV]","im(rEPhi) [mV]","re(rETheta) [mV]","im(rETheta) [mV]"
0.6406,180,90,135,125.264,36.6732097226365,-20.9317040296477,24.4118517216579,-11.9026258999571
"Freq [GHz]","IWavePhi [deg]","IWaveTheta [deg]","Phi [deg]","Theta [deg]","re(rEPhi) [mV]","im(rEPhi) [mV]","re(rETheta) [mV]","im(rETheta) [mV]"
0.6406,180,90,-135,125.264,36.6699365929272,-20.9350526824102,-24.3951996828064,11.8923068720197
"Freq [GHz]","IWavePhi [deg]","IWaveTheta [deg]","Phi [deg]","Theta [deg]","re(rEPhi) [mV]","im(rEPhi) [mV]","re(rETheta) [uv]","im(rETheta) [uv]"
0.6406,180,90,0,90,-51.7299441323908,31.8082391748349,10.1717040079505,-6.19111094160359
"Freq [GHz]","IWavePhi [deg]","IWaveTheta [deg]","Phi [deg]","Theta [deg]","re(rEPhi) [mV]","im(rEPhi) [mV]","re(rETheta) [uv]","im(rETheta) [uv]"
0.6406,180,90,180,90,51.7423621920651,-31.7986175482596,5.84793022275411,-6.71360222549729
"Freq [GHz]","IWavePhi [deg]","IWaveTheta [deg]","Phi [deg]","Theta [deg]","re(rEPhi) [nV]","im(rEPhi) [uv]","re(rETheta) [mV]","im(rETheta) [uv]"
0.6406,180,90,90,90,742.93838567648,1.13344376892542,-6.55446732952025,-270.312358102185
"Freq [GHz]","IWavePhi [deg]","IWaveTheta [deg]","Phi [deg]","Theta [deg]","re(rEPhi) [nV]","im(rEPhi) [uv]","re(rETheta) [mV]","im(rETheta) [uv]"
0.6406,180,90,-90,90,-743.268026578422,1.44467050696961,6.57181128249331,267.078385795093
"Freq [GHz]","IWavePhi [deg]","IWaveTheta [deg]","Phi [deg]","Theta [deg]","re(rEPhi) [mV]","im(rEPhi) [mV]","re(rETheta) [nV]","im(rETheta) [uv]"
0.6406,180,90,0,0,-54.1600425289345,29.4032324687138,625.17228230288,-1.7320244336857
"Freq [GHz]","IWavePhi [deg]","IWaveTheta [deg]","Phi [deg]","Theta [deg]","re(rEPhi) [mV]","im(rEPhi) [mV]","re(rETheta) [nV]","im(rETheta) [uv]"
0.6406,180,90,0,180,-42.4798365906701,30.157163846395,24.5196521137181,-4.1633819231293
"Freq [GHz]","IWavePhi [deg]","IWaveTheta [deg]","Phi [deg]","Theta [deg]","re(rEPhi) [mV]","im(rEPhi) [mV]","re(rETheta) [mV]","im(rETheta) [mV]"
0.6406,180,90,45,54.736,-36.6699470133455,20.9364195169269,-24.3960285489777,11.9006978338388
"Freq [GHz]","IWavePhi [deg]","IWaveTheta [deg]","Phi [deg]","Theta [deg]","re(rEPhi) [mV]","im(rEPhi) [mV]","re(rETheta) [mV]","im(rETheta) [mV]"
0.6406,180,90,135,54.736,36.675489020548,-20.9300708966583,-24.396729709389,11.8951402007267
"Freq [GHz]","IWavePhi [deg]","IWaveTheta [deg]","Phi [deg]","Theta [deg]","re(rEPhi) [mV]","im(rEPhi) [mV]","re(rETheta) [mV]","im(rETheta) [mV]"
0.6406,180,90,-45,54.736,-36.6800984874525,20.9305458047172,24.4114604005714,-11.9047821548309
"Freq [GHz]","IWavePhi [deg]","IWaveTheta [deg]","Phi [deg]","Theta [deg]","re(rEPhi) [mV]","im(rEPhi) [mV]","re(rETheta) [mV]","im(rETheta) [mV]"
0.6406,180,90,45,125.264,-32.0265352528291,21.2240400257862,14.9927377790774,-12.3297448663081
"Freq [GHz]","IWavePhi [deg]","IWaveTheta [deg]","Phi [deg]","Theta [deg]","re(rEPhi) [mV]","im(rEPhi) [mV]","re(rETheta) [mV]","im(rETheta) [mV]"
0.6406,180,90,-135,54.736,36.67261829568,-20.9414492654796,24.4115329201977,-11.9126399649998
"Freq [GHz]","IWavePhi [deg]","IWaveTheta [deg]","Phi [deg]","Theta [deg]","re(rEPhi) [mV]","im(rEPhi) [mV]","re(rETheta) [mV]","im(rETheta) [mV]"
0.6406,180,90,-45,125.264,-32.0146538642439,21.2213185568957,-14.9756179784184,12.3229211712819
