"Freq [GHz]","IWavePhi [deg]","IWaveTheta [deg]","Phi [deg]","Theta [deg]","re(rEPhi) [mV]","im(rEPhi) [mV]","re(rETheta) [uv]","im(rETheta) [uv]"
1.7082,180,90,0,90,25.4476024911273,68.191115290011,-43.1084323824273,-47.4080042201384
"Freq [GHz]","IWavePhi [deg]","IWaveTheta [deg]","Phi [deg]","Theta [deg]","re(rEPhi) [mV]","im(rEPhi) [mV]","re(rETheta) [uv]","im(rETheta) [uv]"
1.7082,180,90,180,90,-25.3619177029814,-68.1929772713438,5.43269845331976,13.1872031964916
"Freq [GHz]","IWavePhi [deg]","IWaveTheta [deg]","Phi [deg]","Theta [deg]","re(rEPhi) [uv]","im(rEPhi) [uv]","re(rETheta) [uv]","im(rETheta) [uv]"
1.7082,180,90,90,90,-38.8671785638344,-33.4290802728035,63.0802398188994,-35.1786127504564
"Freq [GHz]","IWavePhi [deg]","IWaveTheta [deg]","Phi [deg]","Theta [deg]","re(rEPhi) [uv]","im(rEPhi) [uv]","re(rETheta) [uv]","im(rETheta) [uv]"
1.7082,180,90,-90,90,74.0184286308452,-38.0354847501835,-48.1135448192006,43.714965286802
"Freq [GHz]","IWavePhi [deg]","IWaveTheta [deg]","Phi [deg]","Theta [deg]","re(rEPhi) [mV]","im(rEPhi) [mV]","re(rETheta) [uv]","im(rETheta) [uv]"
1.7082,180,90,0,0,10.7297470538561,42.4003043812474,-9.12597739819926,-23.0707103547256
"Freq [GHz]","IWavePhi [deg]","IWaveTheta [deg]","Phi [deg]","Theta [deg]","re(rEPhi) [mV]","im(rEPhi) [mV]","re(rETheta) [uv]","im(rETheta) [uv]"
1.7082,180,90,0,180,10.393845410549,42.2844971000054,-28.2187795679165,28.8012642684792
"Freq [GHz]","IWavePhi [deg]","IWaveTheta [deg]","Phi [deg]","Theta [deg]","re(rEPhi) [mV]","im(rEPhi) [mV]","re(rETheta) [mV]","im(rETheta) [mV]"
1.7082,180,90,45,54.736,12.939726082633,32.5261030403177,7.03807429346884,18.8060443849055
"Freq [GHz]","IWavePhi [deg]","IWaveTheta [deg]","Phi [deg]","Theta [deg]","re(rEPhi) [mV]","im(rEPhi) [mV]","re(rETheta) [mV]","im(rETheta) [mV]"
1.7082,180,90,135,54.736,-12.7836429562402,-32.3848378057896,7.01483614267016,18.8598802385085
"Freq [GHz]","IWavePhi [deg]","IWaveTheta [deg]","Phi [deg]","Theta [deg]","re(rEPhi) [mV]","im(rEPhi) [mV]","re(rETheta) [mV]","im(rETheta) [mV]"
1.7082,180,90,-45,54.736,12.8086748176985,32.4658448958394,-6.96426365045322,-18.7839819990585
"Freq [GHz]","IWavePhi [deg]","IWaveTheta [deg]","Phi [deg]","Theta [deg]","re(rEPhi) [mV]","im(rEPhi) [mV]","re(rETheta) [mV]","im(rETheta) [mV]"
1.7082,180,90,45,125.264,12.8087073466653,32.3861458972883,-7.03618031385764,-18.8621994603301
"Freq [GHz]","IWavePhi [deg]","IWaveTheta [deg]","Phi [deg]","Theta [deg]","re(rEPhi) [mV]","im(rEPhi) [mV]","re(rETheta) [mV]","im(rETheta) [mV]"
1.7082,180,90,-135,54.736,-12.7635637624177,-32.4756880099904,-6.95274914805948,-18.7086029080491
"Freq [GHz]","IWavePhi [deg]","IWaveTheta [deg]","Phi [deg]","Theta [deg]","re(rEPhi) [mV]","im(rEPhi) [mV]","re(rETheta) [mV]","im(rETheta) [mV]"
1.7082,180,90,-45,125.264,12.5781539339756,32.4857475742545,6.81007982246446,18.8194420172408
"Freq [GHz]","IWavePhi [deg]","IWaveTheta [deg]","Phi [deg]","Theta [deg]","re(rEPhi) [mV]","im(rEPhi) [mV]","re(rETheta) [mV]","im(rETheta) [mV]"
1.7082,180,90,135,125.264,-12.6281993316961,-32.5379240249634,-6.94609967901906,-18.9496452605065
"Freq [GHz]","IWavePhi [deg]","IWaveTheta [deg]","Phi [deg]","Theta [deg]","re(rEPhi) [mV]","im(rEPhi) [mV]","re(rETheta) [mV]","im(rETheta) [mV]"
1.7082,180,90,-135,125.264,-12.7302415966501,-32.319029153416,6.80024626329327,18.7397775329199
"Freq [GHz]","IWavePhi [deg]","IWaveTheta [deg]","Phi [deg]","Theta [deg]","re(rEPhi) [mV]","im(rEPhi) [mV]","re(rETheta) [uv]","im(rETheta) [uv]"
1.7082,180,90,0,90,-25.4476024911273,-68.191115290011,43.1084323824273,47.4080042201384
"Freq [GHz]","IWavePhi [deg]","IWaveTheta [deg]","Phi [deg]","Theta [deg]","re(rEPhi) [mV]","im(rEPhi) [mV]","re(rETheta) [uv]","im(rETheta) [uv]"
1.7082,180,90,180,90,25.3619177029814,68.1929772713438,-5.43269845331976,-13.1872031964916
"Freq [GHz]","IWavePhi [deg]","IWaveTheta [deg]","Phi [deg]","Theta [deg]","re(rEPhi) [uv]","im(rEPhi) [uv]","re(rETheta) [uv]","im(rETheta) [uv]"
1.7082,180,90,90,90,38.8671785638344,33.4290802728035,-63.0802398188994,35.1786127504564
"Freq [GHz]","IWavePhi [deg]","IWaveTheta [deg]","Phi [deg]","Theta [deg]","re(rEPhi) [uv]","im(rEPhi) [uv]","re(rETheta) [uv]","im(rETheta) [uv]"
1.7082,180,90,-90,90,-74.0184286308452,38.0354847501835,48.1135448192006,-43.714965286802
"Freq [GHz]","IWavePhi [deg]","IWaveTheta [deg]","Phi [deg]","Theta [deg]","re(rEPhi) [mV]","im(rEPhi) [mV]","re(rETheta) [uv]","im(rETheta) [uv]"
1.7082,180,90,0,0,-10.7297470538561,-42.4003043812474,9.12597739819926,23.0707103547256
"Freq [GHz]","IWavePhi [deg]","IWaveTheta [deg]","Phi [deg]","Theta [deg]","re(rEPhi) [mV]","im(rEPhi) [mV]","re(rETheta) [uv]","im(rETheta) [uv]"
1.7082,180,90,0,180,-10.393845410549,-42.2844971000054,28.2187795679165,-28.8012642684792
"Freq [GHz]","IWavePhi [deg]","IWaveTheta [deg]","Phi [deg]","Theta [deg]","re(rEPhi) [mV]","im(rEPhi) [mV]","re(rETheta) [mV]","im(rETheta) [mV]"
1.7082,180,90,45,54.736,-12.939726082633,-32.5261030403177,-7.03807429346884,-18.8060443849055
"Freq [GHz]","IWavePhi [deg]","IWaveTheta [deg]","Phi [deg]","Theta [deg]","re(rEPhi) [mV]","im(rEPhi) [mV]","re(rETheta) [mV]","im(rETheta) [mV]"
1.7082,180,90,135,54.736,12.7836429562402,32.3848378057896,-7.01483614267016,-18.8598802385085
"Freq [GHz]","IWavePhi [deg]","IWaveTheta [deg]","Phi [deg]","Theta [deg]","re(rEPhi) [mV]","im(rEPhi) [mV]","re(rETheta) [mV]","im(rETheta) [mV]"
1.7082,180,90,-45,54.736,-12.8086748176985,-32.4658448958394,6.96426365045322,18.7839819990585
"Freq [GHz]","IWavePhi [deg]","IWaveTheta [deg]","Phi [deg]","Theta [deg]","re(rEPhi) [mV]","im(rEPhi) [mV]","re(rETheta) [mV]","im(rETheta) [mV]"
1.7082,180,90,45,125.264,-12.8087073466653,-32.3861458972883,7.03618031385764,18.8621994603301
"Freq [GHz]","IWavePhi [deg]","IWaveTheta [deg]","Phi [deg]","Theta [deg]","re(rEPhi) [mV]","im(rEPhi) [mV]","re(rETheta) [mV]","im(rETheta) [mV]"
1.7082,180,90,-135,54.736,12.7635637624177,32.4756880099904,6.95274914805948,18.7086029080491
"Freq [GHz]","IWavePhi [deg]","IWaveTheta [deg]","Phi [deg]","Theta [deg]","re(rEPhi) [mV]","im(rEPhi) [mV]","re(rETheta) [mV]","im(rETheta) [mV]"
1.7082,180,90,-45,125.264,-12.5781539339756,-32.4857475742545,-6.81007982246446,-18.8194420172408
"Freq [GHz]","IWavePhi [deg]","IWaveTheta [deg]","Phi [deg]","Theta [deg]","re(rEPhi) [mV]","im(rEPhi) [mV]","re(rETheta) [mV]","im(rETheta) [mV]"
1.7082,180,90,135,125.264,12.6281993316961,32.5379240249634,6.94609967901906,18.9496452605065
"Freq [GHz]","IWavePhi [deg]","IWaveTheta [deg]","Phi [deg]","Theta [deg]","re(rEPhi) [mV]","im(rEPhi) [mV]","re(rETheta) [mV]","im(rETheta) [mV]"
1.7082,180,90,-135,125.264,12.7302415966501,32.319029153416,-6.80024626329327,-18.7397775329199
"Freq [GHz]","IWavePhi [deg]","IWaveTheta [deg]","Phi [deg]","Theta [deg]","re(rEPhi) [V]","im(rEPhi) [V]","re(rETheta) [V]","im(rETheta) [V]"
1.7082,180,90,0,90,2.35574538494806e-18,3.77550139643119e-18,-1.06666972160202e-18,-2.78536528096272e-19
"Freq [GHz]","IWavePhi [deg]","IWaveTheta [deg]","Phi [deg]","Theta [deg]","re(rEPhi) [V]","im(rEPhi) [V]","re(rETheta) [V]","im(rETheta) [V]"
1.7082,180,90,180,90,-2.36214437313546e-18,-3.75939056288349e-18,-1.07093484352941e-18,-2.95306483726397e-19
"Freq [GHz]","IWavePhi [deg]","IWaveTheta [deg]","Phi [deg]","Theta [deg]","re(rEPhi) [V]","im(rEPhi) [V]","re(rETheta) [V]","im(rETheta) [V]"
1.7082,180,90,90,90,-4.01097266378672e-21,-6.71425899550472e-21,-2.59049957819387e-18,5.9538934088008e-18
"Freq [GHz]","IWavePhi [deg]","IWaveTheta [deg]","Phi [deg]","Theta [deg]","re(rEPhi) [V]","im(rEPhi) [V]","re(rETheta) [V]","im(rETheta) [V]"
1.7082,180,90,-90,90,-4.38120983376176e-22,3.33269706600807e-21,3.08240664490449e-18,-4.94301584732518e-18
"Freq [GHz]","IWavePhi [deg]","IWaveTheta [deg]","Phi [deg]","Theta [deg]","re(rEPhi) [V]","im(rEPhi) [V]","re(rETheta) [V]","im(rETheta) [V]"
1.7082,180,90,0,0,4.12559444272541e-18,-1.14613318282999e-18,6.65087943772606e-21,-3.21176679262277e-21
"Freq [GHz]","IWavePhi [deg]","IWaveTheta [deg]","Phi [deg]","Theta [deg]","re(rEPhi) [V]","im(rEPhi) [V]","re(rETheta) [V]","im(rETheta) [V]"
1.7082,180,90,0,180,-1.59740769407359e-18,5.80034450007256e-18,-4.16971073715397e-21,1.63593596688472e-21
"Freq [GHz]","IWavePhi [deg]","IWaveTheta [deg]","Phi [deg]","Theta [deg]","re(rEPhi) [V]","im(rEPhi) [V]","re(rETheta) [V]","im(rETheta) [V]"
1.7082,180,90,45,54.736,-3.08138238015737e-19,6.7882896867616e-18,-3.5425844381249e-18,9.02582735851348e-18
"Freq [GHz]","IWavePhi [deg]","IWaveTheta [deg]","Phi [deg]","Theta [deg]","re(rEPhi) [V]","im(rEPhi) [V]","re(rETheta) [V]","im(rETheta) [V]"
1.7082,180,90,135,54.736,3.14802669029526e-19,-6.78047339868655e-18,-3.5277506352374e-18,9.04411426306694e-18
"Freq [GHz]","IWavePhi [deg]","IWaveTheta [deg]","Phi [deg]","Theta [deg]","re(rEPhi) [V]","im(rEPhi) [V]","re(rETheta) [V]","im(rETheta) [V]"
1.7082,180,90,-45,54.736,3.39754309475567e-18,-5.87307041198245e-18,7.04444419620487e-19,-1.43068914631548e-18
"Freq [GHz]","IWavePhi [deg]","IWaveTheta [deg]","Phi [deg]","Theta [deg]","re(rEPhi) [V]","im(rEPhi) [V]","re(rETheta) [V]","im(rETheta) [V]"
1.7082,180,90,45,125.264,-6.86745693703637e-18,9.40810107284334e-18,7.96140404604264e-19,-5.0201502156773e-19
"Freq [GHz]","IWavePhi [deg]","IWaveTheta [deg]","Phi [deg]","Theta [deg]","re(rEPhi) [V]","im(rEPhi) [V]","re(rETheta) [V]","im(rETheta) [V]"
1.7082,180,90,-135,54.736,-3.37755487392162e-18,5.87722751896891e-18,7.09303649955841e-19,-1.43199462128859e-18
"Freq [GHz]","IWavePhi [deg]","IWaveTheta [deg]","Phi [deg]","Theta [deg]","re(rEPhi) [V]","im(rEPhi) [V]","re(rETheta) [V]","im(rETheta) [V]"
1.7082,180,90,-45,125.264,4.71678896635635e-18,-2.95863564784789e-18,5.20934833045315e-18,-6.6316217225056e-18
"Freq [GHz]","IWavePhi [deg]","IWaveTheta [deg]","Phi [deg]","Theta [deg]","re(rEPhi) [V]","im(rEPhi) [V]","re(rETheta) [V]","im(rETheta) [V]"
1.7082,180,90,135,125.264,6.87789002706952e-18,-9.42574555484076e-18,7.76356899212891e-19,-4.7713949729099e-19
"Freq [GHz]","IWavePhi [deg]","IWaveTheta [deg]","Phi [deg]","Theta [deg]","re(rEPhi) [V]","im(rEPhi) [V]","re(rETheta) [V]","im(rETheta) [V]"
1.7082,180,90,-135,125.264,-4.72699951236303e-18,2.96883421918996e-18,5.18663085546133e-18,-6.63873107796395e-18
"Freq [GHz]","IWavePhi [deg]","IWaveTheta [deg]","Phi [deg]","Theta [deg]","re(rEPhi) [V]","im(rEPhi) [V]","re(rETheta) [V]","im(rETheta) [V]"
1.7082,180,90,0,90,-1.35359262037272e-20,6.19665988540232e-21,1.10001219197303e-18,2.50697103489935e-19
"Freq [GHz]","IWavePhi [deg]","IWaveTheta [deg]","Phi [deg]","Theta [deg]","re(rEPhi) [V]","im(rEPhi) [V]","re(rETheta) [V]","im(rETheta) [V]"
1.7082,180,90,180,90,3.93102933785598e-21,1.63740193105939e-21,1.11131337263845e-18,2.539162249385e-19
"Freq [GHz]","IWavePhi [deg]","IWaveTheta [deg]","Phi [deg]","Theta [deg]","re(rEPhi) [V]","im(rEPhi) [V]","re(rETheta) [V]","im(rETheta) [V]"
1.7082,180,90,90,90,-5.23953454345004e-21,-1.71100009149145e-21,-3.12437455619651e-18,4.91349585746503e-18
"Freq [GHz]","IWavePhi [deg]","IWaveTheta [deg]","Phi [deg]","Theta [deg]","re(rEPhi) [V]","im(rEPhi) [V]","re(rETheta) [V]","im(rETheta) [V]"
1.7082,180,90,-90,90,7.0170931319133e-21,1.7300106826614e-21,2.59522428891359e-18,-6.00670415022107e-18
"Freq [GHz]","IWavePhi [deg]","IWaveTheta [deg]","Phi [deg]","Theta [deg]","re(rEPhi) [V]","im(rEPhi) [V]","re(rETheta) [V]","im(rETheta) [V]"
1.7082,180,90,0,0,2.86532610257338e-18,-3.47105291219512e-18,6.85992774280473e-21,1.52669551363101e-21
"Freq [GHz]","IWavePhi [deg]","IWaveTheta [deg]","Phi [deg]","Theta [deg]","re(rEPhi) [V]","im(rEPhi) [V]","re(rETheta) [V]","im(rETheta) [V]"
1.7082,180,90,0,180,-2.8998353611194e-18,3.48796436208015e-18,-2.35653593571321e-21,3.92315896486347e-21
"Freq [GHz]","IWavePhi [deg]","IWaveTheta [deg]","Phi [deg]","Theta [deg]","re(rEPhi) [V]","im(rEPhi) [V]","re(rETheta) [V]","im(rETheta) [V]"
1.7082,180,90,45,54.736,-6.58932199322693e-19,-1.4551221807796e-18,-2.98325257377545e-18,4.00805591623602e-18
"Freq [GHz]","IWavePhi [deg]","IWaveTheta [deg]","Phi [deg]","Theta [deg]","re(rEPhi) [V]","im(rEPhi) [V]","re(rETheta) [V]","im(rETheta) [V]"
1.7082,180,90,135,54.736,6.52043407939022e-19,1.45986580899135e-18,-2.96574809826054e-18,4.01506672884245e-18
"Freq [GHz]","IWavePhi [deg]","IWaveTheta [deg]","Phi [deg]","Theta [deg]","re(rEPhi) [V]","im(rEPhi) [V]","re(rETheta) [V]","im(rETheta) [V]"
1.7082,180,90,-45,54.736,3.27660819527729e-18,-1.30263580830983e-18,1.39442696420357e-18,-4.30368257195533e-18
"Freq [GHz]","IWavePhi [deg]","IWaveTheta [deg]","Phi [deg]","Theta [deg]","re(rEPhi) [V]","im(rEPhi) [V]","re(rETheta) [V]","im(rETheta) [V]"
1.7082,180,90,45,125.264,6.47792887974393e-19,1.42821441112565e-18,-2.92764990551085e-18,4.02372265738717e-18
"Freq [GHz]","IWavePhi [deg]","IWaveTheta [deg]","Phi [deg]","Theta [deg]","re(rEPhi) [V]","im(rEPhi) [V]","re(rETheta) [V]","im(rETheta) [V]"
1.7082,180,90,-135,54.736,-3.28354431485963e-18,1.30862619584621e-18,1.40205171826569e-18,-4.2986205974038e-18
"Freq [GHz]","IWavePhi [deg]","IWaveTheta [deg]","Phi [deg]","Theta [deg]","re(rEPhi) [V]","im(rEPhi) [V]","re(rETheta) [V]","im(rETheta) [V]"
1.7082,180,90,-45,125.264,-3.26970341485287e-18,1.36021093508532e-18,1.41796470016157e-18,-4.30836889811044e-18
"Freq [GHz]","IWavePhi [deg]","IWaveTheta [deg]","Phi [deg]","Theta [deg]","re(rEPhi) [V]","im(rEPhi) [V]","re(rETheta) [V]","im(rETheta) [V]"
1.7082,180,90,135,125.264,-6.40581894460682e-19,-1.42852219067254e-18,-2.94971998118616e-18,4.04265838046868e-18
"Freq [GHz]","IWavePhi [deg]","IWaveTheta [deg]","Phi [deg]","Theta [deg]","re(rEPhi) [V]","im(rEPhi) [V]","re(rETheta) [V]","im(rETheta) [V]"
1.7082,180,90,-135,125.264,3.26964607010588e-18,-1.3575931754911e-18,1.3965966452144e-18,-4.30709158128369e-18
"Freq [GHz]","IWavePhi [deg]","IWaveTheta [deg]","Phi [deg]","Theta [deg]","re(rEPhi) [mV]","im(rEPhi) [mV]","re(rETheta) [uv]","im(rETheta) [uv]"
1.7082,180,90,0,90,10.6435565949294,42.3978422170907,-193.566119805125,154.103590285689
"Freq [GHz]","IWavePhi [deg]","IWaveTheta [deg]","Phi [deg]","Theta [deg]","re(rEPhi) [mV]","im(rEPhi) [mV]","re(rETheta) [uv]","im(rETheta) [uv]"
1.7082,180,90,180,90,-10.7118910201644,-42.517772605249,-222.102265038356,175.123890120326
"Freq [GHz]","IWavePhi [deg]","IWaveTheta [deg]","Phi [deg]","Theta [deg]","re(rEPhi) [uv]","im(rEPhi) [uv]","re(rETheta) [mV]","im(rETheta) [mV]"
1.7082,180,90,90,90,1.24459363673517,-22.4354159113468,17.8795819232775,-21.7419175029777
"Freq [GHz]","IWavePhi [deg]","IWaveTheta [deg]","Phi [deg]","Theta [deg]","re(rEPhi) [uv]","im(rEPhi) [uv]","re(rETheta) [mV]","im(rETheta) [mV]"
1.7082,180,90,-90,90,36.1810662317637,-1.82776618085337,-17.744337020222,22.0715188493049
"Freq [GHz]","IWavePhi [deg]","IWaveTheta [deg]","Phi [deg]","Theta [deg]","re(rEPhi) [mV]","im(rEPhi) [mV]","re(rETheta) [uv]","im(rETheta) [uv]"
1.7082,180,90,0,0,35.6206916324278,57.79973475444,-36.4962768675373,-27.0112181502005
"Freq [GHz]","IWavePhi [deg]","IWaveTheta [deg]","Phi [deg]","Theta [deg]","re(rEPhi) [mV]","im(rEPhi) [mV]","re(rETheta) [uv]","im(rETheta) [uv]"
1.7082,180,90,0,180,-10.7652991327112,-4.79613054202917,-4.48237524290497,-5.21103362467595
"Freq [GHz]","IWavePhi [deg]","IWaveTheta [deg]","Phi [deg]","Theta [deg]","re(rEPhi) [mV]","im(rEPhi) [mV]","re(rETheta) [mV]","im(rETheta) [uv]"
1.7082,180,90,45,54.736,15.7161949270241,32.122080130711,29.027803259499,-753.473997390587
"Freq [GHz]","IWavePhi [deg]","IWaveTheta [deg]","Phi [deg]","Theta [deg]","re(rEPhi) [mV]","im(rEPhi) [mV]","re(rETheta) [mV]","im(rETheta) [uv]"
1.7082,180,90,135,54.736,-15.6260533469234,-32.0680350999248,28.9830113495806,-721.242602171385
"Freq [GHz]","IWavePhi [deg]","IWaveTheta [deg]","Phi [deg]","Theta [deg]","re(rEPhi) [mV]","im(rEPhi) [mV]","re(rETheta) [mV]","im(rETheta) [mV]"
1.7082,180,90,-45,54.736,15.7355395673955,31.8345158705342,-28.9822660366335,1.00141886927992
"Freq [GHz]","IWavePhi [deg]","IWaveTheta [deg]","Phi [deg]","Theta [deg]","re(rEPhi) [uv]","im(rEPhi) [mV]","re(rETheta) [mV]","im(rETheta) [mV]"
1.7082,180,90,45,125.264,-955.228494391084,8.63826516705438,15.6449673787252,-24.4460357806686
"Freq [GHz]","IWavePhi [deg]","IWaveTheta [deg]","Phi [deg]","Theta [deg]","re(rEPhi) [mV]","im(rEPhi) [mV]","re(rETheta) [mV]","im(rETheta) [mV]"
1.7082,180,90,-135,54.736,-15.5774970587422,-31.9017464257446,-28.9126818052495,1.0088240634487
"Freq [GHz]","IWavePhi [deg]","IWaveTheta [deg]","Phi [deg]","Theta [deg]","re(rEPhi) [mV]","im(rEPhi) [mV]","re(rETheta) [mV]","im(rETheta) [mV]"
1.7082,180,90,-45,125.264,-1.38218530808469,8.26600140885683,-16.2471611144719,24.4137686559599
"Freq [GHz]","IWavePhi [deg]","IWaveTheta [deg]","Phi [deg]","Theta [deg]","re(rEPhi) [mV]","im(rEPhi) [mV]","re(rETheta) [mV]","im(rETheta) [mV]"
1.7082,180,90,135,125.264,1.07172111377245,-8.63091745209891,15.821749333197,-24.5151488755335
"Freq [GHz]","IWavePhi [deg]","IWaveTheta [deg]","Phi [deg]","Theta [deg]","re(rEPhi) [mV]","im(rEPhi) [mV]","re(rETheta) [mV]","im(rETheta) [mV]"
1.7082,180,90,-135,125.264,1.29884843616396,-8.11599355000456,-16.1305668635163,24.4006963309783
"Freq [GHz]","IWavePhi [deg]","IWaveTheta [deg]","Phi [deg]","Theta [deg]","re(rEPhi) [mV]","im(rEPhi) [mV]","re(rETheta) [uv]","im(rETheta) [uv]"
1.7082,180,90,0,90,10.671208742935,42.5843129955366,117.752427488365,-183.40671780867
"Freq [GHz]","IWavePhi [deg]","IWaveTheta [deg]","Phi [deg]","Theta [deg]","re(rEPhi) [mV]","im(rEPhi) [mV]","re(rETheta) [uv]","im(rETheta) [uv]"
1.7082,180,90,180,90,-10.5288378646965,-42.444851690073,201.370542587242,-126.658436235266
"Freq [GHz]","IWavePhi [deg]","IWaveTheta [deg]","Phi [deg]","Theta [deg]","re(rEPhi) [uv]","im(rEPhi) [uv]","re(rETheta) [mV]","im(rETheta) [mV]"
1.7082,180,90,90,90,-50.458698107755,-19.6059973392577,-17.7858484349102,21.6630668707239
"Freq [GHz]","IWavePhi [deg]","IWaveTheta [deg]","Phi [deg]","Theta [deg]","re(rEPhi) [uv]","im(rEPhi) [uv]","re(rETheta) [mV]","im(rETheta) [mV]"
1.7082,180,90,-90,90,48.5380843013013,-43.0332508506707,17.7688923400913,-21.9985260011372
"Freq [GHz]","IWavePhi [deg]","IWaveTheta [deg]","Phi [deg]","Theta [deg]","re(rEPhi) [mV]","im(rEPhi) [mV]","re(rETheta) [uv]","im(rETheta) [uv]"
1.7082,180,90,0,0,-10.6423635521591,-4.47059275599735,25.9258094081371,-7.55777217651067
"Freq [GHz]","IWavePhi [deg]","IWaveTheta [deg]","Phi [deg]","Theta [deg]","re(rEPhi) [mV]","im(rEPhi) [mV]","re(rETheta) [uv]","im(rETheta) [uv]"
1.7082,180,90,0,180,35.2142927441613,58.0156404777643,-33.4236248976473,43.6233495136719
"Freq [GHz]","IWavePhi [deg]","IWaveTheta [deg]","Phi [deg]","Theta [deg]","re(rEPhi) [uv]","im(rEPhi) [mV]","re(rETheta) [mV]","im(rETheta) [mV]"
1.7082,180,90,45,54.736,-890.418880772319,8.49173290061731,-15.938227237957,24.2910988098543
"Freq [GHz]","IWavePhi [deg]","IWaveTheta [deg]","Phi [deg]","Theta [deg]","re(rEPhi) [mV]","im(rEPhi) [mV]","re(rETheta) [mV]","im(rETheta) [mV]"
1.7082,180,90,135,54.736,1.00642236536808,-8.38609959652694,-15.9301727506648,24.3218720700913
"Freq [GHz]","IWavePhi [deg]","IWaveTheta [deg]","Phi [deg]","Theta [deg]","re(rEPhi) [mV]","im(rEPhi) [mV]","re(rETheta) [mV]","im(rETheta) [mV]"
1.7082,180,90,-45,54.736,-1.16709509404742,8.64038855906063,16.0644472411761,-24.4251347170504
"Freq [GHz]","IWavePhi [deg]","IWaveTheta [deg]","Phi [deg]","Theta [deg]","re(rEPhi) [mV]","im(rEPhi) [mV]","re(rETheta) [mV]","im(rETheta) [uv]"
1.7082,180,90,45,125.264,15.6096149399838,31.8104162490465,-28.7917527966672,815.034939944519
"Freq [GHz]","IWavePhi [deg]","IWaveTheta [deg]","Phi [deg]","Theta [deg]","re(rEPhi) [mV]","im(rEPhi) [mV]","re(rETheta) [mV]","im(rETheta) [mV]"
1.7082,180,90,-135,54.736,1.09533254402481,-8.57853391192655,16.0222781552974,-24.3370502733777
"Freq [GHz]","IWavePhi [deg]","IWaveTheta [deg]","Phi [deg]","Theta [deg]","re(rEPhi) [mV]","im(rEPhi) [mV]","re(rETheta) [mV]","im(rETheta) [uv]"
1.7082,180,90,-45,125.264,15.634297939596,32.2463235445559,29.0443464926509,-855.039718255125
